Anritsu VNA Frequency[GHz],S21[deg],S21[dB],S11[deg],S11[dB],S22[deg],S22[dB]
1338031488.21,2012_05_26_12:24:48,+298.05,+297.88,+02.989,+297.76,+297.19,+298.12,+297.74,+298.16,243.370941,-6.622
3.006250,153.589890,-9.871712,-6.747391,-4.647121,31.021540,-9.464914
3.012500,153.589890,-9.871712,-6.747391,-4.647121,31.021540,-9.464914
3.018750,153.589890,-9.871712,-6.747391,-4.647121,31.021540,-9.464914
3.025000,153.589890,-9.871712,-6.747391,-4.647121,31.021540,-9.464914
3.031250,153.589890,-9.871712,-6.747391,-4.647121,31.021540,-9.464914
3.037500,153.589890,-9.871712,-6.747391,-4.647121,31.021540,-9.464914
3.043750,153.589890,-9.871712,-6.747391,-4.647121,31.021540,-9.464914
3.050000,153.589890,-9.871712,-6.747391,-4.647121,31.021540,-9.464914
3.056250,153.589890,-9.871712,-6.747391,-4.647121,31.021540,-9.464914
3.062500,153.589890,-9.871712,-6.747391,-4.647121,31.021540,-9.464914
3.068750,153.589890,-9.871712,-6.747391,-4.647121,31.021540,-9.464914
3.075000,153.589890,-9.871712,-6.747391,-4.647121,31.021540,-9.464914
3.081250,153.589890,-9.871712,-6.747391,-4.647121,31.021540,-9.464914
3.087500,153.589890,-9.871712,-6.747391,-4.647121,31.021540,-9.464914
3.093750,153.589890,-9.933399,-6.747391,-4.696079,31.021540,-9.497651
3.100000,153.087982,-9.989429,-7.332317,-4.741799,29.413290,-9.541385
3.106250,152.616180,-10.040241,-9.097116,-4.784491,27.825399,-9.595215
3.112500,152.172546,-10.085956,-9.993732,-4.824049,26.262972,-9.658147
3.118750,151.756454,-10.126164,-10.184589,-4.860376,24.731770,-9.729048
3.125000,151.368210,-10.160441,-9.867276,-4.893297,23.236052,-9.806913
3.131250,151.003250,-10.188914,-9.265072,-4.922896,21.777769,-9.891140
3.137500,150.657974,-10.211351,-8.615547,-4.949438,20.356001,-9.981247
3.143750,150.330078,-10.227503,-8.155340,-4.972656,18.972313,-10.076333
3.150000,150.013870,-10.237763,-8.111212,-4.992546,17.627100,-10.175604
3.156250,149.702240,-10.242967,-6.522518,-5.009224,16.318172,-10.278419
3.162500,149.391113,-10.243845,-4.925816,-5.022648,15.043430,-10.383988
3.168750,149.079590,-10.241086,-4.856710,-5.032791,13.800732,-10.491615
3.175000,148.768188,-10.234870,-4.354321,-5.039771,12.586121,-10.600513
3.181250,148.459106,-10.225347,-3.647950,-5.043868,11.395254,-10.710221
3.187500,148.153046,-10.212255,-2.975058,-5.045196,10.224720,-10.820194
3.193750,147.849777,-10.195694,-2.571102,-5.043907,9.072026,-10.929733
3.200000,147.546768,-10.175866,-2.658836,-5.040013,7.934360,-11.038333
3.206250,147.242905,-10.152936,-3.436391,-5.033718,6.808711,-11.145817
3.212500,146.936508,-10.127384,-5.067342,-5.025115,5.691728,-11.252048
3.218750,146.626633,-10.099498,-5.503617,-5.014304,4.581895,-11.356893
3.225000,146.313248,-10.069581,-6.178730,-5.001234,3.477581,-11.460302
3.231250,145.997467,-10.037633,-6.619933,-4.985935,2.376611,-11.562466
3.237500,145.680252,-10.003731,-8.261047,-4.968477,1.275665,-11.663787
3.243750,145.361603,-9.967743,-9.054419,-4.949074,0.171151,-11.764556
3.250000,145.040192,-9.929934,-9.162358,-4.927763,-0.939481,-11.865214
3.256250,144.714432,-9.890763,-8.781717,-4.904562,-2.059577,-11.965927
3.262500,144.382919,-9.850609,-8.133872,-4.879476,-3.193309,-12.067006
3.268750,144.045166,-9.809985,-7.455650,-4.852825,-4.345464,-12.168936
3.275000,143.704071,-9.769143,-6.985492,-4.824853,-5.521352,-12.272017
3.281250,143.362122,-9.728189,-6.950963,-4.795643,-6.722912,-12.376453
3.287500,143.023285,-9.686667,-5.390666,-4.765213,-7.953512,-12.482379
3.293750,142.689896,-9.644266,-3.842831,-4.733926,-9.215217,-12.590106
3.300000,142.363281,-9.600605,-3.845359,-4.701950,-10.510879,-12.700161
3.306250,142.042953,-9.555375,-3.437451,-4.669343,-11.841318,-12.812676
3.312500,141.727554,-9.508626,-2.846588,-4.636014,-13.207083,-12.927990
3.318750,141.414948,-9.460639,-2.311404,-4.602068,-14.608335,-13.046573
3.325000,141.103973,-9.411607,-2.069135,-4.567848,-16.047159,-13.169172
3.331250,140.795090,-9.361766,-2.343189,-4.533333,-17.524570,-13.296312
3.337500,140.490952,-9.310902,-3.330542,-4.498462,-19.038708,-13.428092
3.343750,140.192719,-9.258810,-5.195698,-4.463397,-20.590399,-13.564998
3.350000,139.902161,-9.205215,-5.891582,-4.428465,-22.180351,-13.707597
3.356250,139.619598,-9.149708,-6.852819,-4.393779,-23.810160,-13.856430
3.362500,139.343643,-9.092157,-7.606427,-4.359286,-25.478722,-14.011718
3.368750,139.071960,-9.032794,-9.587503,-4.325140,-27.186682,-14.173870
3.375000,138.802414,-8.971814,-10.751372,-4.291723,-28.936388,-14.343576
3.381250,138.535828,-8.909415,-11.263067,-4.259273,-30.728853,-14.521241
3.387500,138.273148,-8.845448,-11.321710,-4.227940,-32.564434,-14.707109
3.393750,138.016968,-8.779423,-11.151855,-4.198018,-34.445057,-14.901271
3.400000,137.769653,-8.710813,-10.993490,-4.169956,-36.374470,-15.104135
3.406250,137.531784,-8.638703,-11.087633,-4.144000,-38.356941,-15.315907
3.412500,137.301483,-8.562682,-11.664045,-4.120378,-40.396606,-15.536513
3.418750,137.074875,-8.482421,-10.764814,-4.099459,-42.497406,-15.765729
3.425000,136.847397,-8.398108,-9.931275,-4.081771,-44.665722,-16.004000
3.431250,136.614395,-8.310054,-8.808612,-4.067672,-46.906639,-16.251026
3.437500,136.373184,-8.218538,-8.953968,-4.057497,-49.226242,-16.506683
3.443750,136.122864,-8.123727,-8.444371,-4.051752,-51.631710,-16.771030
3.450000,135.863968,-8.025437,-7.561862,-4.051048,-54.132416,-17.044168
3.456250,135.596802,-7.923330,-6.611005,-4.056022,-56.737495,-17.326418
3.462500,135.319595,-7.817113,-5.903510,-4.067248,-59.459682,-17.617439
3.468750,135.029404,-7.706674,-5.743780,-4.085433,-62.311779,-17.916712
3.475000,134.721375,-7.592043,-6.414044,-4.111318,-65.312202,-18.223087
3.481250,134.390228,-7.473698,-5.991859,-4.145570,-68.478546,-18.535015
3.487500,134.030518,-7.352315,-6.035551,-4.188877,-71.827156,-18.850746
3.493750,133.638962,-7.228465,-6.192364,-4.242114,-75.374718,-19.168623
3.500000,133.213379,-7.102431,-6.108441,-4.306044,-79.140182,-19.486177
3.506250,132.753204,-6.974529,-5.447557,-4.381207,-83.135963,-19.800465
3.512500,132.257629,-6.844726,-5.802664,-4.468276,-87.379501,-20.108015
3.518750,131.724030,-6.713313,-5.300849,-4.567905,-91.888306,-20.404865
3.525000,131.148148,-6.580776,-4.285102,-4.680441,-94.779442,-20.686663
3.531250,130.524689,-6.447871,-3.131890,-4.806097,-97.682930,-20.948223
3.537500,129.849503,-6.315929,-2.230682,-4.945289,-100.069168,-21.184717
3.543750,129.120102,-6.186082,-1.964864,-5.098100,-101.440948,-21.391733
3.550000,128.336517,-6.059550,-0.521342,-5.264186,-101.354050,-21.565012
3.556250,127.501808,-5.937134,0.425674,-5.442583,-99.444901,-21.700817
3.562500,126.619598,-5.819331,1.111918,-5.633001,-95.451263,-21.796799
3.568750,125.694504,-5.706661,1.779350,-5.835145,-89.226173,-21.851362
3.575000,124.729546,-5.599607,2.670938,-6.047515,-80.733185,-21.862902
3.581250,123.727119,-5.498680,4.013469,-6.267943,-70.052696,-21.829882
3.587500,122.689362,-5.404613,4.106007,-6.494833,-57.381325,-21.752443
3.593750,121.619980,-5.318114,4.723240,-6.726811,-43.018078,-21.632042
3.600000,120.523438,-5.239753,5.445280,-6.961823,-27.346102,-21.470747
3.606250,119.406395,-5.169750,5.848245,-7.196806,-10.806904,-21.270275
3.612500,118.275894,-5.108025,5.517754,-7.428916,6.108167,-21.034573
3.618750,117.138741,-5.054225,6.235766,-7.656112,22.885223,-20.768456
3.625000,116.000198,-5.008085,6.311200,-7.876262,39.019283,-20.476992
3.631250,114.864273,-4.969328,5.982849,-8.086564,54.041687,-20.164663
3.637500,113.733582,-4.937824,5.507040,-8.284492,67.541939,-19.835522
3.643750,112.611046,-4.913477,5.144762,-8.468252,79.184441,-19.493849
3.650000,111.499725,-4.896213,5.151414,-8.636237,88.733299,-19.143831
3.656250,110.403801,-4.885770,5.767045,-8.786776,96.068329,-18.789549
3.662500,109.328255,-4.881668,5.308043,-8.918653,101.187492,-18.434925
3.668750,108.277664,-4.883147,5.566647,-9.031297,104.203575,-18.084259
3.675000,107.255867,-4.889433,6.135571,-9.124380,105.342484,-17.740767
3.681250,106.265381,-4.899855,6.596173,-9.197824,104.931770,-17.407522
3.687500,105.306961,-4.913834,6.538623,-9.251921,103.378960,-17.086796
3.693750,104.380386,-4.930934,7.750613,-9.287586,101.157318,-16.780544
3.700000,103.485497,-4.950735,8.539877,-9.306051,98.780373,-16.490259
3.706250,102.622704,-4.972841,9.136641,-9.308717,94.608849,-16.216522
3.712500,101.793121,-4.996747,9.786743,-9.296946,90.520683,-15.960328
3.718750,100.997177,-5.021861,10.739929,-9.272128,86.504448,-15.722101
3.725000,100.234390,-5.047643,10.342740,-9.235915,82.546707,-15.502536
3.731250,99.503677,-5.073572,10.434619,-9.190136,78.630043,-15.302494
3.737500,98.802231,-5.099418,10.671836,-9.136784,74.741318,-15.122750
3.743750,98.128517,-5.125062,10.714100,-9.077120,70.868492,-14.963646
3.750000,97.479904,-5.150347,10.239100,-9.012279,67.006920,-14.825056
3.756250,96.855431,-5.174942,8.952833,-8.943744,63.145809,-14.707639
3.762500,96.253853,-5.198739,6.610464,-8.873188,59.273636,-14.612909
3.768750,95.673790,-5.221570,5.198472,-8.801500,55.384384,-14.541699
3.775000,95.113808,-5.243179,3.245680,-8.729195,51.473347,-14.494544
3.781250,94.573097,-5.263342,1.207738,-8.657144,47.535446,-14.472591
3.787500,94.048927,-5.281911,-0.451677,-8.586363,43.558926,-14.477668
3.793750,93.540268,-5.298782,-3.172282,-8.517718,39.537445,-14.511160
3.800000,93.046188,-5.313813,-4.907882,-8.451272,35.466209,-14.574081
3.806250,92.564926,-5.326764,-5.825749,-8.387127,31.337564,-14.667754
3.812500,92.094467,-5.337434,-6.130433,-8.325782,27.138029,-14.793973
3.818750,91.632736,-5.345710,-6.049851,-8.267469,22.852661,-14.954722
3.825000,91.176460,-5.351679,-5.824175,-8.212181,18.463539,-15.152287
3.831250,90.722206,-5.355605,-5.695369,-8.159907,13.950354,-15.388946
3.837500,90.266930,-5.357857,-5.895606,-8.110496,9.284729,-15.666002
3.843750,89.808434,-5.358691,-4.467481,-8.063580,4.428610,-15.983874
3.850000,89.346237,-5.358290,-2.951390,-8.019130,-0.661527,-16.341156
3.856250,88.878899,-5.356851,-2.889231,-7.977015,-6.028990,-16.736216
3.862500,88.405296,-5.354618,-2.322952,-7.936906,-11.716935,-17.166616
3.868750,87.923424,-5.351820,-1.482414,-7.898424,-17.771690,-17.627840
3.875000,87.431374,-5.348958,-0.608367,-7.861387,-24.244825,-18.112860
3.881250,86.926819,-5.346649,0.058974,-7.825708,-29.292824,-18.612276
3.887500,86.409920,-5.345448,0.294884,-7.791111,-34.579781,-19.114168
3.893750,85.881058,-5.345793,-0.099678,-7.757408,-39.600506,-19.604336
3.900000,85.342278,-5.347795,-1.290621,-7.724579,-43.873444,-20.068434
3.906250,84.796555,-5.351481,-1.233952,-7.692861,-46.963608,-20.491520
3.912500,84.245628,-5.356770,-1.364062,-7.662186,-48.498234,-20.858801
3.918750,83.690712,-5.363565,-3.102342,-7.632141,-48.189114,-21.156569
3.925000,83.130539,-5.372029,-4.368594,-7.602966,-45.845821,-21.373158
3.931250,82.563934,-5.382547,-5.273026,-7.574708,-41.387413,-21.499811
3.937500,81.990631,-5.395666,-5.938148,-7.547150,-34.836582,-21.530300
3.943750,81.412231,-5.411679,-6.496947,-7.519874,-26.318859,-21.460953
3.950000,80.832451,-5.430642,-7.087312,-7.492910,-16.060184,-21.292091
3.956250,80.254700,-5.452305,-7.845312,-7.466515,-4.375124,-21.027842
3.962500,79.682922,-5.476284,-8.893740,-7.440291,8.355751,-20.675369
3.968750,79.119041,-5.502325,-10.337762,-7.413811,21.705816,-20.244297
3.975000,78.562714,-5.530316,-10.095023,-7.386784,35.216980,-19.746948
3.981250,78.012703,-5.560558,-9.589832,-7.359511,48.426018,-19.197750
3.987500,77.469101,-5.593334,-10.256804,-7.331954,60.889313,-18.611654
3.993750,76.933922,-5.628769,-10.047709,-7.304002,72.209892,-18.003323
4.000000,76.410988,-5.666742,-9.125607,-7.275807,82.052055,-17.386518
4.006250,75.904411,-5.706675,-7.689218,-7.247524,90.167351,-16.772903
4.012500,75.417694,-5.747757,-5.961184,-7.219141,96.401978,-16.171631
4.018750,74.952057,-5.789261,-4.178351,-7.190782,100.715034,-15.590245
4.025000,74.505463,-5.830873,-2.580721,-7.162925,103.184494,-15.034742
4.031250,74.072647,-5.873041,-1.397556,-7.135535,104.000748,-14.510059
4.037500,73.649841,-5.916372,1.333759,-7.108311,103.453308,-14.018548
4.043750,73.235596,-5.961421,4.075037,-7.081218,101.914024,-13.560523
4.050000,72.833084,-6.008408,5.287134,-7.054654,99.820435,-13.135126
4.056250,72.447289,-6.056929,6.931024,-7.028461,97.661324,-12.740515
4.062500,72.083687,-6.106122,8.781232,-7.002306,93.782074,-12.374170
4.068750,71.744789,-6.154984,10.600240,-6.976229,90.049095,-12.034065
4.075000,71.429855,-6.202831,12.151122,-6.950619,86.437943,-11.718775
4.081250,71.134644,-6.249725,13.213627,-6.925522,82.929901,-11.426303
4.087500,70.852844,-6.296283,13.594216,-6.900514,79.511620,-11.154639
4.093750,70.580803,-6.343218,13.130989,-6.875676,76.171181,-10.902319
4.100000,70.319206,-6.390993,13.869176,-6.851871,72.894081,-10.668549
4.106250,70.072769,-6.439364,14.375853,-6.829271,69.672302,-10.452308
4.112500,69.847313,-6.487591,13.234492,-6.807478,66.502724,-10.252010
4.118750,69.646599,-6.534747,12.528249,-6.786464,63.379967,-10.066600
4.125000,69.470688,-6.579900,12.148343,-6.766762,60.297024,-9.895784
4.131250,69.315971,-6.622636,11.971727,-6.748536,57.247967,-9.739138
4.137500,69.175766,-6.663412,11.869469,-6.731349,54.232059,-9.595716
4.143750,69.043098,-6.703163,11.707209,-6.714742,51.248585,-9.464510
4.150000,68.916100,-6.742723,11.352255,-6.698895,48.292397,-9.345448
4.156250,68.797226,-6.782391,10.680861,-6.684028,45.358543,-9.238149
4.162500,68.692665,-6.821589,9.588991,-6.669746,42.445694,-9.142159
4.168750,68.608116,-6.859339,10.163019,-6.655887,39.553326,-9.056823
4.175000,68.546516,-6.894568,9.087426,-6.642470,36.679337,-8.981918
4.181250,68.505684,-6.926401,8.447116,-6.629508,33.821621,-8.917102
4.187500,68.480293,-6.954726,8.137420,-6.616938,30.979185,-8.862123
4.193750,68.463150,-6.980024,8.037344,-6.604781,28.151814,-8.816735
4.200000,68.448006,-7.003219,8.015160,-6.593275,25.338423,-8.780939
4.206250,68.432838,-7.025005,7.936087,-6.582450,22.538521,-8.754661
4.212500,68.420074,-7.045424,7.668879,-6.572128,19.751610,-8.737650
4.218750,68.414001,-7.064063,7.090293,-6.562469,16.977135,-8.730079
4.225000,68.418411,-7.080167,6.093336,-6.553486,14.213312,-8.731928
4.231250,68.433205,-7.093167,6.761370,-6.544821,11.459240,-8.743035
4.237500,68.454735,-7.102743,5.778870,-6.536240,8.714889,-8.763147
4.243750,68.477203,-7.109314,5.227729,-6.527631,5.977736,-8.792269
4.250000,68.495049,-7.113702,5.002399,-6.518905,3.246681,-8.830397
4.256250,68.505432,-7.116803,4.981760,-6.509737,0.521950,-8.877131
4.262500,68.508926,-7.119015,5.035548,-6.499811,-2.196991,-8.932253
4.268750,68.509857,-7.120102,5.027498,-6.489319,-4.910509,-8.995912
4.275000,68.513168,-7.119412,4.826284,-6.478456,-7.620937,-9.068137
4.281250,68.520782,-7.116241,4.312255,-6.467056,-10.325612,-9.148764
4.287500,68.531273,-7.110143,3.381442,-6.455040,-13.023958,-9.237472
4.293750,68.540627,-7.101098,4.115605,-6.442577,-15.716879,-9.334532
4.300000,68.543480,-7.089447,3.198694,-6.429981,-18.405304,-9.440068
4.306250,68.535400,-7.075899,2.714656,-6.417084,-21.088295,-9.554034
4.312500,68.514137,-7.061131,2.557537,-6.403738,-23.764992,-9.676326
4.318750,68.481461,-7.045417,2.603230,-6.390018,-26.435921,-9.807206
4.325000,68.439941,-7.028488,2.718465,-6.375982,-29.103193,-9.946987
4.331250,68.391464,-7.010113,2.767721,-6.361318,-31.765482,-10.095624
4.337500,68.336288,-6.990083,2.619282,-6.345840,-34.423599,-10.253212
4.343750,68.271973,-6.968548,2.149294,-6.329596,-37.079044,-10.420141
4.350000,68.195007,-6.945964,1.251793,-6.312439,-39.733719,-10.596527
4.356250,68.103439,-6.922985,2.012148,-6.294150,-42.388138,-10.782294
4.362500,67.996910,-6.900095,1.114313,-6.274687,-45.044765,-10.977334
4.368750,67.877579,-6.877491,0.639935,-6.254377,-47.707256,-11.182098
4.375000,67.748734,-6.855052,0.483712,-6.233450,-50.378170,-11.396636
4.381250,67.613579,-6.832201,0.526535,-6.211736,-53.057014,-11.620686
4.387500,67.472687,-6.808719,0.637054,-6.189284,-55.745098,-11.854146
4.393750,67.325172,-6.784428,0.678362,-6.166515,-58.443729,-12.097248
4.400000,67.167648,-6.759639,0.517580,-6.143604,-61.156464,-12.350254
4.406250,66.997444,-6.734892,0.033964,-6.120532,-63.881638,-12.613244
4.412500,66.813187,-6.710703,-0.878533,-6.097347,-66.620163,-12.886494
4.418750,66.615959,-6.687504,-0.138943,-6.074345,-69.376228,-13.170977
4.425000,66.409462,-6.665258,-1.063180,-6.051517,-72.151970,-13.467535
4.431250,66.197090,-6.643713,-1.566729,-6.028512,-74.949806,-13.776273
4.437500,65.980736,-6.622474,-1.754874,-6.005245,-77.772545,-14.097700
4.443750,65.760666,-6.601447,-1.751861,-5.981993,-80.629059,-14.432530
4.450000,65.535126,-6.580667,-1.688519,-5.958836,-83.525459,-14.781201
4.456250,65.301590,-6.560632,-1.697696,-5.935494,-86.467262,-15.143576
4.462500,65.059418,-6.541726,-1.909869,-5.912053,-89.462502,-15.519708
4.468750,64.809135,-6.524236,-2.447929,-5.888893,-92.521095,-15.910359
4.475000,64.553802,-6.508119,-3.416744,-5.866338,-95.652504,-16.315456
4.481250,64.296593,-6.492888,-2.730857,-5.844268,-98.864258,-16.735010
4.487500,64.039581,-6.478153,-3.705280,-5.822833,-102.167015,-17.169310
4.493750,63.782887,-6.463504,-4.257200,-5.802203,-105.572624,-17.618608
4.500000,63.524315,-6.448802,-4.492481,-5.782312,-109.099960,-18.082556
4.506250,63.260647,-6.434430,-4.533298,-5.763217,-110.877914,-18.559240
4.512500,62.989597,-6.420711,-4.512364,-5.745060,-112.555061,-19.046181
4.518750,62.710579,-6.408191,-4.565012,-5.727797,-113.615158,-19.541830
4.525000,62.424385,-6.397071,-4.821044,-5.710936,-113.577087,-20.044601
4.531250,62.134972,-6.387233,-5.401462,-5.694418,-112.032692,-20.552065
4.537500,61.844688,-6.378366,-6.414186,-5.678630,-108.668907,-21.060648
4.543750,61.555618,-6.370240,-5.775733,-5.663791,-103.274956,-21.565382
4.550000,61.267536,-6.362694,-6.796859,-5.649369,-95.748596,-22.059402
4.556250,60.979012,-6.355814,-7.390958,-5.635224,-86.102928,-22.535433
4.562500,60.688602,-6.350030,-7.667042,-5.622004,-74.467857,-22.986139
4.568750,60.395954,-6.345508,-7.747513,-5.610081,-61.077812,-23.403543
4.575000,60.101795,-6.342549,-7.760962,-5.599165,-46.253574,-23.780239
4.581250,59.808815,-6.341035,-7.839777,-5.589065,-30.391859,-24.110104
4.587500,59.518955,-6.340588,-8.118562,-5.580357,-13.957042,-24.387991
4.593750,59.234394,-6.340868,-8.721193,-5.573260,2.550150,-24.609678
4.600000,58.955017,-6.341650,-9.749748,-5.567070,18.625971,-24.770666
4.606250,58.678520,-6.342946,-9.119088,-5.561388,33.777988,-24.867777
4.612500,58.402863,-6.345056,-10.149546,-5.556603,47.552113,-24.900806
4.618750,58.127705,-6.348245,-10.760217,-5.552903,59.564404,-24.871096
4.625000,57.854092,-6.352602,-11.053767,-5.549735,69.528564,-24.780836
4.631250,57.584229,-6.358009,-11.148828,-5.546438,77.258759,-24.634464
4.637500,57.321014,-6.364083,-11.179793,-5.543440,82.678482,-24.439648
4.643750,57.066074,-6.370408,-11.285123,-5.541243,85.824966,-24.205967
4.650000,56.820847,-6.376645,-11.592282,-5.539503,86.855904,-23.943163
4.656250,56.584343,-6.382469,-12.219023,-5.537885,86.040390,-23.661583
4.662500,56.354683,-6.387929,-13.273435,-5.536915,83.735382,-23.371986
4.668750,56.130630,-6.392992,-12.675014,-5.537379,80.387093,-23.083458
4.675000,55.911102,-6.397739,-11.843209,-5.539253,76.509834,-22.800417
4.681250,55.695774,-6.402213,-12.207747,-5.542429,72.665794,-22.524841
4.687500,55.485847,-6.406068,-11.722064,-5.547317,67.235229,-22.264637
4.693750,55.281712,-6.409067,-10.550795,-5.554183,62.118378,-22.026115
4.700000,55.081703,-6.410892,-8.889470,-5.562804,57.334526,-21.810381
4.706250,54.883923,-6.411601,-6.957153,-5.572983,52.886459,-21.615194
4.712500,54.684666,-6.411471,-4.989961,-5.584701,48.762810,-21.437714
4.718750,54.481461,-6.410985,-3.225049,-5.598032,44.944916,-21.274544
4.725000,54.272308,-6.410605,-1.887866,-5.612761,41.409130,-21.121609
4.731250,54.058197,-6.410666,0.986445,-5.628838,38.128498,-20.975140
4.737500,53.841614,-6.411202,3.863073,-5.646320,35.070858,-20.831663
4.743750,53.625057,-6.411977,5.208599,-5.665121,32.198647,-20.688953
4.750000,53.410660,-6.412707,6.987743,-5.685132,29.477196,-20.546158
