Anritsu VNA Frequency[GHz],S21[deg],S21[dB],S11[deg],S11[dB],S22[deg],S22[dB]
1338030246.11,2012_05_26_12:04:06,+298.00,+297.82,+02.989,+297.69,+297.13,+298.05,+297.68,+298.08,243.310394,-6.614
4.006250,51.054214,-8.421297,1.288844,-7.343682,-2.418912,-5.832741
4.012500,51.054214,-8.421297,1.288844,-7.343682,-2.418912,-5.832741
4.018750,51.054214,-8.421297,1.288844,-7.343682,-2.418912,-5.832741
4.025000,51.054214,-8.421297,1.288844,-7.343682,-2.418912,-5.832741
4.031250,51.054214,-8.421297,1.288844,-7.343682,-2.418912,-5.832741
4.037500,51.054214,-8.129502,1.288844,-7.317618,-2.418912,-5.970200
4.043750,51.331512,-7.854641,31.753500,-7.301811,-6.187006,-6.120742
4.050000,71.538071,-7.681499,56.423157,-7.293083,-9.936240,-6.282352
4.056250,103.974617,-7.648729,65.929001,-7.286874,-13.687742,-6.452812
4.062500,136.300522,-7.732739,56.684082,-7.278199,-17.452259,-6.629276
4.068750,156.198593,-7.860098,32.251945,-7.261808,-21.227064,-6.809225
4.075000,167.066711,-7.942697,1.982300,-7.233178,-24.994560,-6.990727
4.081250,172.948181,-7.917740,-22.552099,-7.189919,-28.728949,-7.173545
4.087500,173.971375,-7.773749,-31.983669,-7.134017,-32.412834,-7.360625
4.093750,174.851669,-7.552535,-22.712799,-7.070526,-36.039753,-7.557252
4.100000,175.146957,-7.325325,1.726299,-7.005919,-39.612026,-7.768331
4.106250,174.705582,-7.158205,26.766270,-6.946670,-43.145180,-7.996781
4.112500,173.708237,-7.081874,51.385086,-6.897828,-46.663292,-8.242603
4.118750,172.551346,-7.081112,60.978504,-6.862278,-50.195786,-8.503401
4.125000,171.638535,-7.107967,51.952095,-6.840070,-53.762550,-8.773866
4.131250,171.185730,-7.109081,27.833883,-6.829367,-57.371395,-9.048879
4.137500,171.141464,-7.052789,-2.086621,-6.827017,-61.019947,-9.325212
4.143750,171.243805,-6.943336,-26.305542,-6.828234,-64.691017,-9.602049
4.150000,171.180939,-6.814253,-35.504459,-6.828005,-68.362503,-9.880775
4.156250,170.755905,-6.709189,-26.115540,-6.821552,-72.016678,-10.165494
4.162500,169.979645,-6.657735,-1.687581,-6.805972,-75.653900,-10.462158
4.168750,169.052200,-6.660981,23.219362,-6.780414,-79.295486,-10.776149
4.175000,168.244080,-6.692415,47.617260,-6.745380,-82.973213,-11.109430
4.181250,167.752762,-6.712677,56.950455,-6.703475,-86.726151,-11.460989
4.187500,167.605484,-6.690169,47.673794,-6.658640,-90.592300,-11.826453
4.193750,167.654907,-6.616017,23.361750,-6.615944,-94.595055,-12.200177
4.200000,167.659927,-6.506776,-6.652433,-6.579634,-98.734245,-12.577263
4.206250,167.406937,-6.395354,-30.837957,-6.552450,-102.994751,-12.955694
4.212500,166.809448,-6.313786,-39.874523,-6.535883,-107.355515,-13.337632
4.218750,165.935822,-6.279241,-30.213472,-6.529250,-111.800316,-13.727384
4.225000,164.964218,-6.287836,-5.436248,-6.530471,-116.324417,-14.128922
4.231250,164.088501,-6.319441,19.845055,-6.537146,-120.944565,-14.543151
4.237500,163.433716,-6.349092,44.581650,-6.546830,-125.694183,-14.965799
4.243750,163.010818,-6.358654,54.167988,-6.556518,-130.608887,-15.388313
4.250000,162.735077,-6.343369,45.032948,-6.562871,-135.727493,-15.801080
4.256250,162.486572,-6.310420,20.743042,-6.563005,-141.077972,-16.197987
4.262500,162.166367,-6.273129,-9.358176,-6.554666,-146.677902,-16.579552
4.268750,161.740219,-6.242667,-33.711708,-6.536301,-147.274612,-16.950905
4.275000,161.234283,-6.223564,-42.955585,-6.507840,-142.351059,-17.318260
4.281250,160.701859,-6.213801,-33.497601,-6.471322,-122.587120,-17.682129
4.287500,160.187439,-6.208523,-8.880280,-6.430902,-84.452759,-18.032757
4.293750,159.700302,-6.204023,16.322456,-6.391762,-31.558338,-18.349150
4.300000,159.223694,-6.200652,41.091274,-6.358941,26.748234,-18.603462
4.306250,158.733322,-6.201341,50.831680,-6.336560,78.969879,-18.771515
4.312500,158.221085,-6.209079,41.960972,-6.326921,115.898239,-18.843130
4.318750,157.705978,-6.223845,18.018105,-6.329463,134.159897,-18.824842
4.325000,157.218384,-6.242476,-11.699452,-6.341358,137.518738,-18.740183
4.331250,156.784271,-6.260207,-35.690895,-6.358036,135.455612,-18.619267
4.337500,156.407455,-6.273445,-44.655293,-6.373800,128.527390,-18.488043
4.343750,156.065750,-6.281947,-35.041225,-6.382053,121.915291,-18.359077
4.350000,155.729324,-6.288351,-10.406112,-6.377622,115.469658,-18.228334
4.356250,155.374573,-6.295795,14.683064,-6.357602,109.027863,-18.080103
4.362500,154.999878,-6.306148,39.236301,-6.322220,102.501404,-17.894461
4.368750,154.620377,-6.318111,48.702610,-6.274975,95.902939,-17.656666
4.375000,154.254608,-6.328838,39.553032,-6.221935,89.360138,-17.365227
4.381250,153.905243,-6.336754,15.376127,-6.169753,83.056442,-17.031456
4.387500,153.554733,-6.344210,-14.484236,-6.124177,77.162514,-16.678278
4.393750,153.176651,-6.357431,-38.496067,-6.088349,71.769699,-16.331762
4.400000,152.760559,-6.383221,-47.353260,-6.063602,66.866425,-16.014755
4.406250,152.331055,-6.424655,-37.527401,-6.048954,62.352833,-15.740984
4.412500,151.947830,-6.476729,-12.620905,-6.042103,58.090454,-15.510828
4.418750,151.679169,-6.526390,12.744369,-6.039670,53.945332,-15.314719
4.425000,151.561462,-6.558260,37.523472,-6.038828,49.828037,-15.137307
4.431250,151.565948,-6.562126,47.122551,-6.037321,45.701668,-14.963720
4.437500,151.599274,-6.539489,37.993130,-6.031348,41.581741,-14.783714
4.443750,151.534103,-6.505375,13.726955,-6.016857,37.511524,-14.593644
4.450000,151.275711,-6.482780,-16.318369,-5.991420,33.532436,-14.397469
4.456250,150.810104,-6.491766,-40.596004,-5.954618,29.660688,-14.203575
4.462500,150.227798,-6.539128,-49.769405,-5.908927,25.889748,-14.020946
4.468750,149.688843,-6.613942,-40.270657,-5.858651,22.200905,-13.854876
4.475000,149.350006,-6.691539,-15.657336,-5.808840,18.569086,-13.706618
4.481250,149.287552,-6.744544,9.498818,-5.763298,14.982038,-13.573208
4.487500,149.451263,-6.756927,34.190220,-5.724073,11.443438,-13.449474
4.493750,149.682800,-6.732622,43.836990,-5.692878,7.967212,-13.332862
4.500000,149.792892,-6.693612,34.862064,-5.671143,4.571429,-13.225076
4.506250,149.655273,-6.669523,10.805827,-5.660391,1.270576,-13.130893
4.512500,149.278748,-6.681718,-19.028093,-5.660175,-1.927863,-13.055141
4.518750,148.803772,-6.731364,-43.132053,-5.667842,-5.040174,-13.000267
4.525000,148.435562,-6.797745,-52.196400,-5.679203,-8.108432,-12.964432
4.531250,148.333633,-6.847919,-42.670372,-5.688777,-11.189652,-12.940810
4.537500,148.521423,-6.854324,-18.116844,-5.689784,-14.334285,-12.919510
4.543750,148.863159,-6.810084,6.892370,-5.676997,-17.565632,-12.890339
4.550000,149.123383,-6.734566,31.353706,-5.648157,-20.877264,-12.847307
4.556250,149.086380,-6.666141,40.706627,-5.605415,-24.225279,-12.790868
4.562500,148.671844,-6.643287,31.414482,-5.554516,-27.546320,-12.728117
4.568750,147.989288,-6.685290,7.069468,-5.504181,-30.772612,-12.671171
4.575000,147.297455,-6.780885,-22.976839,-5.463354,-33.861938,-12.633264
4.581250,146.885178,-6.891282,-47.176544,-5.437899,-36.803364,-12.624029
4.587500,146.932846,-6.967507,-56.196144,-5.428824,-39.623421,-12.646004
4.593750,147.416183,-6.972759,-46.494476,-5.434026,-42.391968,-12.695611
4.600000,148.107101,-6.900697,-21.682159,-5.449400,-45.200024,-12.764141
4.606250,148.670792,-6.779158,3.603562,-5.470273,-48.124462,-12.839458
4.612500,148.817520,-6.657620,28.303904,-5.490603,-51.202374,-12.908504
4.618750,148.435638,-6.585411,37.815739,-5.505968,-54.423477,-12.961495
4.625000,147.643829,-6.589026,28.576246,-5.514226,-57.741821,-12.995844
4.631250,146.736984,-6.660133,4.173021,-5.515176,-61.081261,-13.016210
4.637500,146.049911,-6.761194,-26.024626,-5.509399,-64.366432,-13.031892
4.643750,145.803635,-6.842500,-50.441414,-5.497573,-67.541924,-13.052547
4.650000,146.010742,-6.866174,-59.712811,-5.480649,-70.588783,-13.086160
4.656250,146.474136,-6.822664,-50.259743,-5.459500,-73.530663,-13.135862
4.662500,146.889893,-6.734575,-25.646671,-5.434887,-76.420914,-13.200206
4.668750,146.989578,-6.644633,-0.482464,-5.409950,-79.327087,-13.276878
4.675000,146.667862,-6.594468,24.179262,-5.389199,-82.309547,-13.363894
4.681250,146.025818,-6.605224,33.730690,-5.376994,-85.391220,-13.459300
4.687500,145.313843,-6.667751,24.602768,-5.376410,-88.557541,-13.561188
4.693750,144.803909,-6.748027,0.365013,-5.388595,-91.773102,-13.668131
4.700000,144.658096,-6.805085,-29.646132,-5.413327,-95.004242,-13.779314
4.706250,144.850983,-6.810499,-53.896957,-5.447717,-98.250183,-13.893641
4.712500,145.187256,-6.762987,-63.061531,-5.486744,-101.536606,-14.010209
4.718750,145.400665,-6.687965,-53.593395,-5.524567,-104.910713,-14.128344
4.725000,145.290924,-6.625675,-29.075382,-5.555627,-108.419159,-14.248137
4.731250,144.818649,-6.610757,1.149215,-5.575522,-112.066338,-14.372810
4.737500,144.128311,-6.655739,31.324032,-5.582193,-115.795265,-14.506157
4.743750,143.479813,-6.745641,55.703930,-5.576435,-119.461555,-14.650796
4.750000,143.128113,-6.843349,64.987892,-5.563100,-122.885666,-14.806504
4.756250,143.206314,-6.907555,55.645576,-5.549541,-125.874588,-14.959529
4.762500,143.663788,-6.910530,31.280905,-5.543005,-128.295654,-15.085999
4.768750,144.294708,-6.849537,1.253352,-5.549559,-130.216980,-15.166026
4.775000,144.831604,-6.746264,-22.894751,-5.572715,-131.912766,-15.194407
4.781250,145.059982,-6.636109,-31.848705,-5.612415,-133.776550,-15.181925
4.787500,144.904083,-6.552244,-22.085274,-5.665481,-136.178192,-15.149445
4.793750,144.443222,-6.511528,2.774907,-5.726070,-139.328796,-15.114885
4.800000,143.858368,-6.509997,28.085722,-5.787579,-143.208588,-15.082479
4.806250,143.333328,-6.529189,52.780735,-5.842497,-147.593323,-15.043484
4.812500,142.979767,-6.545962,62.263920,-5.884275,-152.208527,-14.992187
4.818750,142.798035,-6.545209,52.986309,-5.909917,-156.814117,-14.929585
4.825000,142.700943,-6.525012,28.552351,-5.920115,-155.989090,-14.867141
4.831250,142.575729,-6.495347,-1.651788,-5.918330,-149.152649,-14.819835
4.837500,142.349670,-6.469406,-26.036213,-5.909409,-126.985336,-14.799935
4.843750,142.022308,-6.456353,-35.236984,-5.898781,-85.999184,-14.810777
4.850000,141.654083,-6.455947,-25.687407,-5.892849,-29.873343,-14.848907
4.856250,141.321136,-6.460328,-0.972078,-5.896527,31.935829,-14.902951
4.862500,141.068741,-6.459608,24.293041,-5.912569,87.809326,-14.960556
4.868750,140.882950,-6.448618,49.052757,-5.941120,128.383728,-15.010942
4.875000,140.711365,-6.429730,58.695007,-5.980855,150.136368,-15.048593
4.881250,140.491959,-6.410781,49.641792,-6.028316,156.729019,-15.071933
4.887500,140.197128,-6.400002,25.454565,-6.079717,157.621216,-15.081342
4.893750,139.843689,-6.401005,-4.531672,-6.131426,153.436905,-15.075840
4.900000,139.481094,-6.410675,-28.776731,-6.181024,149.486099,-15.052465
4.906250,139.156204,-6.421867,-37.940521,-6.225574,145.761414,-15.006281
4.912500,138.886520,-6.428143,-28.453127,-6.262968,142.196060,-14.934661
4.918750,138.647644,-6.428203,-3.881217,-6.291828,138.694687,-14.838119
4.925000,138.395126,-6.426867,21.185850,-6.311609,135.179367,-14.722486
4.931250,138.093460,-6.431811,45.728497,-6.322675,131.601608,-14.597030
4.937500,137.746964,-6.448092,55.170231,-6.327639,127.957504,-14.472670
4.943750,137.400269,-6.473570,45.968781,-6.330234,124.259514,-14.359582
4.950000,137.115509,-6.498693,21.717949,-6.334898,120.522186,-14.263624
4.956250,136.929230,-6.511347,-8.219767,-6.345810,116.746468,-14.185163
4.962500,136.819336,-6.504874,-32.299927,-6.366972,112.917145,-14.117935
4.968750,136.705368,-6.483520,-41.202602,-6.400920,109.021675,-14.050614
4.975000,136.489182,-6.462799,-31.398554,-6.448358,105.059097,-13.970804
4.981250,136.109772,-6.461968,-6.502145,-6.507162,101.051010,-13.868940
4.987500,135.591949,-6.494246,18.844986,-6.572510,97.051445,-13.742870
4.993750,135.050461,-6.557537,43.578274,-6.636766,93.126274,-13.597866
5.000000,134.640717,-6.633545,53.094532,-6.691023,89.353630,-13.445216
5.006250,134.479248,-6.695285,43.839027,-6.727393,85.790718,-13.298231
5.012500,134.577072,-6.719859,19.408751,-6.742023,82.450623,-13.168036
5.018750,134.815689,-6.701650,-10.818787,-6.736796,79.293083,-13.060871
5.025000,134.996353,-6.656838,-35.252766,-6.717268,76.232315,-12.974919
5.031250,134.933228,-6.617632,-44.508358,-6.691565,73.158836,-12.900602
5.037500,134.556534,-6.617292,-34.992729,-6.669055,69.957733,-12.825537
5.043750,133.962784,-6.671863,-10.273642,-6.658403,66.542870,-12.737411
5.050000,133.385071,-6.770165,15.028088,-6.666317,62.881424,-12.629137
5.056250,133.086182,-6.875257,39.834854,-6.696996,58.984177,-12.502449
5.062500,133.228546,-6.940564,49.503639,-6.752203,54.911442,-12.370263
5.068750,133.773209,-6.932542,40.429161,-6.829822,50.749958,-12.252146
5.075000,134.478729,-6.849571,16.176033,-6.922786,46.612518,-12.167531
5.081250,135.002213,-6.724373,-13.897425,-7.020308,42.617870,-12.128093
5.087500,135.070267,-6.609210,-38.212646,-7.110579,38.863476,-12.134263
5.093750,134.606277,-6.551530,-47.403214,-7.183864,35.399750,-12.175002
5.100000,133.776230,-6.570834,-37.884937,-7.234669,32.216301,-12.234227
5.106250,132.905228,-6.649677,-13.220897,-7.263098,29.249907,-12.295522
5.112500,132.321274,-6.743584,11.986930,-7.274113,26.402245,-12.347667
5.118750,132.194412,-6.803440,36.701965,-7.274700,23.586233,-12.385589
5.125000,132.466064,-6.798736,46.333126,-7.271072,20.749817,-12.409001
5.131250,132.885239,-6.731629,37.319435,-7.268197,17.875158,-12.420804
5.137500,133.132004,-6.636191,13.229321,-7.270012,14.959970,-12.427398
5.143750,132.975464,-6.560522,-16.603148,-7.278694,12.013205,-12.433718
5.150000,132.387238,-6.543868,-40.636715,-7.295181,9.043447,-12.442019
5.156250,131.552612,-6.597192,-49.541813,-7.320183,6.052022,-12.452013
5.162500,130.784805,-6.697307,-39.769268,-7.354303,3.039140,-12.462560
5.168750,130.371521,-6.797906,-14.905334,-7.397274,0.019509,-12.472539
5.175000,130.434265,-6.851379,10.439749,-7.445700,-2.976045,-12.480643
5.181250,130.867889,-6.832004,35.221615,-7.493914,-5.903985,-12.487999
5.187500,131.389557,-6.748394,44.825985,-7.536140,-8.735242,-12.499368
5.193750,131.671448,-6.639746,35.670769,-7.567720,-11.459984,-12.521653
5.200000,131.498489,-6.557208,11.324998,-7.585135,-14.092563,-12.560664
5.206250,130.872330,-6.539564,-18.851435,-7.587072,-16.669127,-12.620427
5.212500,130.010223,-6.595140,-43.280899,-7.576271,-19.246170,-12.701212
5.218750,129.239426,-6.697621,-52.581844,-7.558363,-21.882053,-12.799087
5.225000,128.847702,-6.798838,-43.139587,-7.539639,-24.614723,-12.905523
5.231250,128.946854,-6.851542,-18.485287,-7.527358,-27.454195,-13.010854
5.237500,129.422424,-6.830873,6.800577,-7.527401,-30.377857,-13.106296
5.243750,129.991714,-6.745604,31.670572,-7.543464,-33.347500,-13.187963
5.250000,130.338867,-6.632493,41.491135,-7.575726,-36.305275,-13.257745
5.256250,130.258804,-6.538361,32.637333,-7.621289,-39.204453,-13.324052
5.262500,129.747894,-6.497889,8.612674,-7.675575,-42.010639,-13.398809
5.268750,128.995407,-6.518391,-21.293240,-7.730797,-44.715199,-13.492660
5.275000,128.281799,-6.578361,-45.555168,-7.778365,-47.330441,-13.610378
5.281250,127.838875,-6.639523,-54.826477,-7.810672,-49.891209,-13.749606
5.287500,127.748039,-6.667054,-45.507160,-7.823440,-52.453716,-13.903598
5.293750,127.908333,-6.645686,-21.119856,-7.816841,-55.072704,-14.062214
5.300000,128.105667,-6.585752,3.796607,-7.794074,-57.778465,-14.217151
5.306250,128.124191,-6.516129,28.252607,-7.762865,-60.580990,-14.365377
5.312500,127.856209,-6.468472,37.675411,-7.733000,-63.458580,-14.510279
5.318750,127.349602,-6.460310,28.505379,-7.712274,-66.361862,-14.657888
5.325000,126.770897,-6.487403,4.307071,-7.705583,-69.228912,-14.815401
5.331250,126.317093,-6.526769,-25.600473,-7.713060,-72.016701,-14.986719
5.337500,126.111397,-6.549412,-49.706245,-7.732846,-74.728523,-15.174700
5.343750,126.143150,-6.534832,-58.710590,-7.760750,-77.407059,-15.377977
5.350000,126.279755,-6.481399,-49.078587,-7.791644,-80.118187,-15.593770
5.356250,126.336807,-6.405911,-24.401335,-7.821254,-82.925446,-15.816657
5.362500,126.168228,-6.334760,0.715828,-7.846432,-85.862465,-16.043642
5.368750,125.734489,-6.290503,25.243538,-7.864912,-88.918701,-16.271643
5.375000,125.114174,-6.282507,34.599075,-7.875162,-92.049980,-16.502302
5.381250,124.458031,-6.302921,25.231295,-7.876012,-95.204712,-16.739138
5.387500,123.913086,-6.332920,0.723778,-7.867135,-98.345673,-16.988811
5.393750,123.556732,-6.352477,-29.569443,-7.848068,-101.473785,-17.256403
5.400000,123.370728,-6.349427,-54.088779,-7.819792,-104.630966,-17.544401
5.406250,123.262039,-6.324137,-63.480145,-7.785187,-107.892517,-17.850458
5.412500,123.119308,-6.286825,-54.161938,-7.748686,-111.334343,-18.168709
5.418750,122.868393,-6.250647,-29.684429,-7.715589,-115.004105,-18.490362
5.425000,122.499222,-6.224906,0.628090,-7.690638,-118.900780,-18.810402
5.431250,122.061043,-6.210376,31.004040,-7.677530,-122.974518,-19.128361
5.437500,121.621689,-6.201263,55.654167,-7.678428,-127.155960,-19.453579
5.443750,121.227776,-6.189147,65.209023,-7.692684,-131.393341,-19.800423
5.450000,120.882179,-6.168889,56.058769,-7.716208,-135.681137,-20.182482
5.456250,120.547386,-6.141617,31.725357,-7.742477,-140.102859,-20.606197
5.462500,120.175888,-6.113251,1.507693,-7.763285,-144.815918,-21.062605
5.468750,119.738373,-6.091440,-23.071054,-7.770338,-144.769852,-21.525574
5.475000,119.243660,-6.080084,-32.668179,-7.757544,-139.635315,-21.956430
5.481250,118.729797,-6.077590,-23.688368,-7.724207,-120.168228,-22.314066
5.487500,118.239937,-6.077937,0.354172,-7.673811,-82.754456,-22.571331
5.493750,117.796951,-6.073751,24.934877,-7.613132,-30.759125,-22.720404
5.500000,117.386650,-6.061360,49.082596,-7.550323,26.746906,-22.776627
5.506250,116.971909,-6.042139,58.241455,-7.494011,78.459801,-22.769217
5.512500,116.511070,-6.021077,48.843399,-7.451087,115.157288,-22.723801
5.518750,115.986885,-6.003794,24.422266,-7.425861,133.221786,-22.649769
5.525000,115.415848,-5.992673,-5.741646,-7.419070,136.061554,-22.533207
5.531250,114.831291,-5.986106,-30.169878,-7.427604,132.852219,-22.342808
5.537500,114.262932,-5.980248,-39.574657,-7.444015,124.057770,-22.043051
5.543750,113.714256,-5.972901,-30.417173,-7.458753,115.055962,-21.612339
5.550000,113.160126,-5.966269,-6.276989,-7.463320,106.112106,-21.054323
5.556250,112.569519,-5.965850,18.262104,-7.452709,97.554855,-20.396688
5.562500,111.934090,-5.976584,42.192680,-7.425799,89.647072,-19.682587
5.568750,111.286697,-5.997812,50.957726,-7.385416,82.512512,-18.955833
5.575000,110.686089,-6.020455,41.022839,-7.337693,76.110764,-18.249826
5.581250,110.181801,-6.030094,15.987115,-7.288947,70.277519,-17.580507
5.587500,109.764786,-6.014869,-14.780546,-7.242522,64.813339,-16.948397
5.593750,109.347832,-5.974705,-39.717880,-7.198802,59.543377,-16.342571
5.600000,108.790482,-5.926373,-49.487938,-7.158032,54.347881,-15.749043
5.606250,107.967926,-5.898700,-40.548801,-7.121962,49.160908,-15.159463
5.612500,106.851501,-5.920214,-16.498156,-7.093745,43.971554,-14.569883
5.618750,105.554688,-6.003026,8.045953,-7.077275,38.797245,-13.982451
5.625000,104.306396,-6.132448,32.035583,-7.075138,33.662975,-13.402589
5.631250,103.353493,-6.270249,40.874802,-7.086123,28.592064,-12.835855
5.637500,102.832657,-6.371399,30.995518,-7.104471,23.606136,-12.285399
5.643750,102.682075,-6.406764,5.952903,-7.122673,18.711233,-11.752213
5.650000,102.647171,-6.380928,-24.948349,-7.134426,13.894226,-11.239104
5.656250,102.398346,-6.331848,-50.195766,-7.135046,9.138241,-10.747618
5.662500,101.704788,-6.313009,-60.455940,-7.122116,4.431701,-10.279539
5.668750,100.561745,-6.364260,-52.140644,-7.096627,-0.251322,-9.838000
5.675000,99.212296,-6.488842,-28.768053,-7.062143,-4.939012,-9.426005
5.681250,98.015907,-6.649719,0.390664,-7.023766,-9.662412,-9.043463
5.687500,97.241875,-6.790501,29.628201,-6.987076,-14.448360,-8.687442
5.693750,96.901428,-6.870302,53.207424,-6.959824,-19.329929,-8.353784
5.700000,96.721069,-6.892718,61.781895,-6.950425,-24.330166,-8.038706
5.706250,96.297699,-6.909352,51.753685,-6.964590,-29.451530,-7.738644
5.712500,95.354050,-6.994541,26.638582,-7.003906,-34.672276,-7.454011
5.718750,93.949341,-7.200464,-4.284152,-7.065473,-39.953030,-7.188607
