Anritsu VNA Frequency[GHz],S21[deg],S21[dB],S11[deg],S11[dB],S22[deg],S22[dB]
1338030543.89,2012_05_26_12:09:03,+298.01,+297.83,+02.989,+297.71,+297.14,+298.07,+297.69,+298.10,243.324814,-6.615
3.006250,110.375549,-4.509820,10.299494,-6.748435,-82.862183,-12.600844
3.012500,110.375549,-4.509820,10.299494,-6.748435,-82.862183,-12.600844
3.018750,110.375549,-4.509820,10.299494,-6.748435,-82.862183,-12.600844
3.025000,110.375549,-4.509820,10.299494,-6.748435,-82.862183,-12.600844
3.031250,110.375549,-4.509820,10.299494,-6.748435,-82.862183,-12.600844
3.037500,110.375549,-4.509820,10.299494,-6.748435,-82.862183,-12.600844
3.043750,110.375549,-4.509820,10.299494,-6.748435,-82.862183,-12.600844
3.050000,110.375549,-4.509820,10.299494,-6.748435,-82.862183,-12.600844
3.056250,110.375549,-4.509820,10.299494,-6.748435,-82.862183,-12.600844
3.062500,110.375549,-4.509820,10.299494,-6.748435,-82.862183,-12.600844
3.068750,110.375549,-4.509820,10.299494,-6.748435,-82.862183,-12.600844
3.075000,110.375549,-4.509820,10.299494,-6.748435,-82.862183,-12.600844
3.081250,110.375549,-4.509820,10.299494,-6.748435,-82.862183,-12.600844
3.087500,110.375549,-4.509820,10.299494,-6.748435,-82.862183,-12.600844
3.093750,110.375549,-4.611849,10.299494,-6.485802,-82.862183,-13.038464
3.100000,108.307526,-4.723526,8.909813,-6.222220,-83.422150,-13.451913
3.106250,106.256546,-4.844465,8.196878,-5.960486,-82.226807,-13.833845
3.112500,104.227745,-4.973914,8.012115,-5.702586,-79.023933,-14.176768
3.118750,102.222855,-5.111345,8.171684,-5.450526,-73.670433,-14.474010
3.125000,100.240196,-5.256617,8.467281,-5.205371,-66.137825,-14.719946
3.131250,98.275505,-5.410299,8.678824,-4.967603,-56.507366,-14.909730
3.137500,96.325928,-5.573092,8.575618,-4.738767,-44.967892,-15.039701
3.143750,94.392059,-5.745474,7.942653,-4.519217,-31.808105,-15.108078
3.150000,92.475243,-5.927988,8.754644,-4.309174,-17.400576,-15.114677
3.156250,90.577667,-6.120762,9.486159,-4.108312,-2.178973,-15.060366
3.162500,88.701820,-6.324129,10.507467,-3.915893,13.383696,-14.947160
3.168750,86.849365,-6.538430,10.271398,-3.731771,28.794403,-14.779028
3.175000,85.019783,-6.764319,10.708097,-3.556260,43.567173,-14.561519
3.181250,83.214462,-7.002583,11.546803,-3.389028,57.253056,-14.300575
3.187500,81.434387,-7.253827,12.494979,-3.229492,69.465736,-14.002679
3.193750,79.682632,-7.519136,13.250480,-3.077390,79.893913,-13.674520
3.200000,77.961655,-7.799158,13.515410,-2.932693,88.318756,-13.323641
3.206250,76.275261,-8.094756,13.014989,-2.795391,94.626106,-12.957382
3.212500,74.625870,-8.407193,13.680907,-2.665034,98.819443,-12.582080
3.218750,73.015335,-8.737830,13.963433,-2.541522,101.014160,-12.203513
3.225000,71.448158,-9.088575,14.221933,-2.424692,101.433395,-11.826715
3.231250,69.927887,-9.461826,12.922040,-2.314342,100.400070,-11.455816
3.237500,68.461342,-9.860091,12.028130,-2.210338,98.320168,-11.094118
3.243750,67.060646,-10.286452,11.315333,-2.112474,95.664589,-10.743932
3.250000,65.740257,-10.743927,10.546798,-2.020631,92.941422,-10.407578
3.256250,64.522400,-11.235697,9.489323,-1.934635,88.505997,-10.086312
3.262500,63.435978,-11.765280,7.922348,-1.854275,84.228729,-9.780942
3.268750,62.520630,-12.334653,5.650880,-1.779489,80.088135,-9.491664
3.275000,61.831776,-12.943544,2.513550,-1.710181,76.064217,-9.218471
3.281250,61.436501,-13.589275,0.559910,-1.646284,72.139099,-8.961013
3.287500,61.397694,-14.268084,-1.642675,-1.587783,68.297745,-8.719035
3.293750,61.781189,-14.974045,-3.619586,-1.534824,64.527245,-8.492098
3.300000,62.661575,-15.697394,-4.908467,-1.487352,60.815609,-8.279805
3.306250,64.112450,-16.424641,-6.977004,-1.445368,57.154102,-8.081729
3.312500,66.198929,-17.138922,-7.833095,-1.408880,53.534206,-7.897545
3.318750,68.963989,-17.821499,-7.713918,-1.377898,49.948605,-7.726977
3.325000,72.423828,-18.453253,-6.906660,-1.352406,46.391468,-7.569571
3.331250,76.567047,-19.015247,-5.734272,-1.332620,42.857510,-7.425077
3.337500,81.358437,-19.489185,-4.537821,-1.318513,39.341644,-7.293354
3.343750,86.736069,-19.858267,-3.660617,-1.310088,35.840595,-7.174022
3.350000,92.612823,-20.108320,-1.263111,-1.307594,32.350498,-7.066914
3.356250,98.877090,-20.228413,0.996015,-1.311102,28.868017,-6.971936
3.362500,105.395042,-20.211855,3.358461,-1.320729,25.391106,-6.888874
3.368750,112.017242,-20.057503,6.061182,-1.336487,21.916735,-6.817441
3.375000,118.582451,-19.769617,7.426349,-1.358718,18.442095,-6.757828
3.381250,124.933037,-19.357941,9.263953,-1.387704,14.963649,-6.709991
3.387500,130.924271,-18.836069,11.192224,-1.423605,11.480526,-6.673698
3.393750,136.435471,-18.219963,12.823240,-1.466806,7.991014,-6.648867
3.400000,141.369492,-17.527866,13.781798,-1.517643,4.492258,-6.635511
3.406250,145.653900,-16.778753,13.725794,-1.576485,0.982492,-6.633766
3.412500,149.242615,-15.991884,14.531829,-1.643473,-2.538631,-6.643266
3.418750,152.116623,-15.186052,14.609438,-1.718679,-6.070930,-6.664039
3.425000,154.279556,-14.378597,14.296087,-1.802789,-9.616405,-6.696388
3.431250,155.760345,-13.585423,13.949165,-1.896060,-13.174953,-6.740543
3.437500,156.607895,-12.819457,13.927851,-1.998503,-16.744223,-6.796414
3.443750,156.892517,-12.089177,12.678247,-2.110152,-20.321926,-6.863912
3.450000,156.695175,-11.399922,12.125784,-2.231426,-23.908331,-6.943557
3.456250,156.093063,-10.754723,11.990129,-2.362736,-27.503462,-7.035680
3.462500,155.154922,-10.155078,11.973056,-2.504078,-31.103819,-7.140363
3.468750,153.951538,-9.599419,11.767211,-2.655479,-34.706425,-7.257432
3.475000,152.547150,-9.084439,11.070349,-2.817194,-38.311207,-7.387204
3.481250,150.988571,-8.606900,9.604170,-2.989367,-41.916565,-7.529653
3.487500,149.307129,-8.164271,9.295373,-3.171837,-45.520245,-7.684687
3.493750,147.524094,-7.754958,8.589874,-3.364538,-49.120148,-7.852112
3.500000,145.659882,-7.377321,7.845126,-3.567292,-52.714104,-8.031773
3.506250,143.736389,-7.028951,7.419485,-3.779920,-56.300686,-8.223349
3.512500,141.775131,-6.706846,5.759405,-4.001795,-59.876419,-8.431057
3.518750,139.791107,-6.408127,4.792482,-4.232306,-63.452465,-8.644446
3.525000,137.792603,-6.130210,4.241065,-4.470752,-66.999435,-8.867582
3.531250,135.782318,-5.871164,3.804970,-4.716295,-70.526604,-9.099843
3.537500,133.758698,-5.630245,3.176086,-4.968226,-74.031601,-9.340373
3.543750,131.718246,-5.407613,2.056108,-5.225224,-77.509056,-9.588129
3.550000,129.660797,-5.203607,0.171860,-5.485731,-80.951591,-9.841497
3.556250,127.594177,-5.017804,-0.547617,-5.748122,-84.353653,-10.098977
3.562500,125.529655,-4.849027,-1.658435,-6.011642,-87.714439,-10.360130
3.568750,123.478470,-4.695495,-2.801638,-6.275161,-91.032295,-10.623927
3.575000,121.447708,-4.555556,-3.610961,-6.536471,-94.297348,-10.888273
3.581250,119.439606,-4.427683,-3.741211,-6.793458,-97.502472,-11.151183
3.587500,117.453064,-4.310792,-4.781993,-7.044788,-100.650681,-11.411198
3.593750,115.484863,-4.204444,-4.858681,-7.289550,-103.745049,-11.667470
3.600000,113.530205,-4.108849,-4.306386,-7.525992,-106.785721,-11.918248
3.606250,111.586914,-4.024338,-3.489164,-7.751400,-109.768150,-12.160913
3.612500,109.657455,-3.950622,-2.787360,-7.964046,-112.695374,-12.393669
3.618750,107.747795,-3.886787,-2.581390,-8.163014,-115.576523,-12.615440
3.625000,105.862938,-3.831681,-1.053856,-8.346952,-118.415932,-12.824531
3.631250,104.003998,-3.784297,0.130794,-8.514060,-121.214539,-13.018594
3.637500,102.169655,-3.743815,1.219943,-8.662957,-123.976868,-13.195658
3.643750,100.355721,-3.709899,2.462018,-8.792893,-126.713791,-13.354390
3.650000,98.558350,-3.682571,4.102447,-8.903137,-129.433655,-13.493265
3.656250,96.773125,-3.662206,4.476954,-8.992758,-132.142899,-13.610680
3.662500,94.998650,-3.649067,5.406875,-9.061243,-134.848145,-13.705563
3.668750,93.236816,-3.643043,6.520063,-9.108347,-137.558105,-13.776861
3.675000,91.490753,-3.643562,7.438914,-9.133986,-138.383774,-13.823591
3.681250,89.762718,-3.650000,7.798739,-9.138347,-138.952393,-13.845083
3.687500,88.052834,-3.661776,7.265242,-9.121856,-138.737885,-13.841145
3.693750,86.358253,-3.678545,7.720393,-9.085183,-137.255890,-13.811909
3.700000,84.675018,-3.700308,7.579690,-9.029084,-134.084976,-13.757714
3.706250,82.999123,-3.727364,7.187424,-8.954497,-128.889786,-13.679278
3.712500,81.327019,-3.760185,6.904619,-8.862203,-121.437965,-13.577150
3.718750,79.657211,-3.799060,7.090547,-8.752854,-111.611137,-13.452108
3.725000,77.990578,-3.844047,6.190583,-8.627586,-99.413620,-13.305084
3.731250,76.327881,-3.894943,6.126103,-8.487946,-84.973495,-13.138068
3.737500,74.668831,-3.951697,6.616354,-8.335262,-68.531403,-12.952777
3.743750,73.011925,-4.014246,7.361410,-8.169951,-50.425465,-12.749959
3.750000,71.354645,-4.082881,8.051299,-7.992795,-31.081041,-12.531010
3.756250,69.693298,-4.158089,8.375628,-7.805261,-10.996600,-12.298206
3.762500,68.025581,-4.240598,8.049018,-7.608769,9.292016,-12.053464
3.768750,66.350632,-4.331091,8.993717,-7.404056,29.242416,-11.798274
3.775000,64.670059,-4.429854,9.653931,-7.191706,48.324303,-11.533844
3.781250,62.985592,-4.536960,10.380082,-6.972738,66.045586,-11.261995
3.787500,61.297909,-4.652523,9.626943,-6.748458,81.977295,-10.984771
3.793750,59.605656,-4.777117,9.350601,-6.519713,95.782349,-10.703697
3.800000,57.905621,-4.911674,9.321179,-6.286865,107.230934,-10.419708
3.806250,56.195045,-5.057445,9.294024,-6.050867,116.202316,-10.134385
3.812500,54.473431,-5.215588,9.025828,-5.812760,122.697479,-9.849478
3.818750,52.742352,-5.387149,8.289447,-5.573311,126.840126,-9.566380
3.825000,51.005344,-5.573146,6.884237,-5.333208,128.872650,-9.286194
3.831250,49.265705,-5.774318,4.641776,-5.093245,129.138733,-9.010165
3.837500,47.525875,-5.991548,3.604543,-4.854286,128.067307,-8.739459
3.843750,45.786869,-6.226182,2.335590,-4.617101,126.154060,-8.474837
3.850000,44.048111,-6.480271,1.304925,-4.382580,123.935280,-8.217340
3.856250,42.309170,-6.756590,-0.924659,-4.151592,119.791275,-7.967916
3.862500,40.575554,-7.057980,-2.307552,-3.925030,115.618683,-7.727516
3.868750,38.858826,-7.386935,-3.007592,-3.703606,111.420601,-7.496859
3.875000,37.176105,-7.745398,-3.223340,-3.488073,107.199677,-7.276654
3.881250,35.546356,-8.135256,-3.178135,-3.279326,102.957924,-7.067704
3.887500,33.991253,-8.558095,-3.108294,-3.078115,98.696800,-6.870560
3.893750,32.534058,-9.015854,-3.251086,-2.885096,94.418701,-6.685865
3.900000,31.197481,-9.510905,-3.831535,-2.700853,90.125450,-6.514069
3.906250,30.013231,-10.045489,-2.886002,-2.525835,85.819519,-6.355798
3.912500,29.023335,-10.620611,-1.948200,-2.360453,81.503098,-6.211404
3.918750,28.283789,-11.234760,-0.656966,-2.204995,77.179543,-6.081389
3.925000,27.859503,-11.884313,-0.563259,-2.059673,72.852585,-5.965996
3.931250,27.812532,-12.563276,0.263805,-1.924526,68.526939,-5.865241
3.937500,28.207687,-13.263039,1.549067,-1.799817,64.206314,-5.779180
3.943750,29.108334,-13.971922,2.994916,-1.685741,59.893070,-5.708127
3.950000,30.564629,-14.676503,4.298085,-1.582241,55.590858,-5.652082
3.956250,32.608021,-15.362529,5.161464,-1.488969,51.304569,-5.610786
3.962500,35.253845,-16.015217,5.311017,-1.405684,47.038616,-5.583971
3.968750,38.501858,-16.619505,6.675219,-1.332388,42.794964,-5.571584
3.975000,42.337154,-17.159462,7.701490,-1.268917,38.576237,-5.573420
3.981250,46.724766,-17.619625,8.750950,-1.215124,34.384727,-5.589236
3.987500,51.607059,-17.985907,8.290615,-1.170624,30.223148,-5.618805
3.993750,56.901672,-18.246815,8.283562,-1.135174,26.093111,-5.661857
4.000000,62.503643,-18.394640,8.504187,-1.108531,21.995548,-5.718228
4.006250,68.288780,-18.426176,8.716511,-1.090381,17.931168,-5.787570
4.012500,74.121300,-18.343554,8.686719,-1.080508,13.899584,-5.869685
4.018750,79.867691,-18.153341,8.194686,-1.078488,9.901291,-5.964320
4.025000,85.405098,-17.865389,7.044884,-1.083954,5.936536,-6.071108
4.031250,90.629761,-17.491463,5.076456,-1.096627,2.003943,-6.189752
4.037500,95.459198,-17.044445,4.338477,-1.116274,-1.897415,-6.320053
4.043750,99.826477,-16.538076,3.398739,-1.142425,-5.768832,-6.461726
4.050000,103.680847,-15.987123,2.732981,-1.174817,-9.610318,-6.614368
4.056250,106.987846,-15.407000,0.908495,-1.213344,-13.423931,-6.777870
4.062500,109.731804,-14.813015,-0.026658,-1.257691,-17.211395,-6.951976
4.068750,111.917885,-14.219746,-0.233207,-1.307476,-20.973656,-7.136451
4.075000,113.572945,-13.639668,0.093737,-1.362596,-24.713058,-7.331137
4.081250,114.748573,-13.081699,0.730977,-1.422899,-28.432295,-7.536038
4.087500,115.507744,-12.551360,1.442565,-1.488270,-32.134472,-7.751234
4.093750,115.918213,-12.051152,1.992033,-1.558289,-35.820312,-7.976495
4.100000,116.040451,-11.582141,2.152458,-1.632793,-39.492874,-8.211652
4.106250,115.925293,-11.143913,3.884374,-1.711818,-43.155636,-8.457047
4.112500,115.621414,-10.735314,5.649482,-1.795243,-46.813187,-8.712823
4.118750,115.166588,-10.354917,5.913200,-1.882766,-50.467106,-8.979209
4.125000,114.587547,-10.001782,6.638231,-1.973999,-54.120899,-9.256120
4.131250,113.909912,-9.674732,7.596210,-2.068897,-57.779770,-9.544200
4.137500,113.160118,-9.371936,8.549479,-2.167542,-61.450108,-9.843905
4.143750,112.363098,-9.090775,9.263309,-2.269612,-65.135246,-10.155490
4.150000,111.538704,-8.828104,9.518697,-2.374804,-68.839943,-10.478827
4.156250,110.698181,-8.581429,9.118278,-2.483282,-72.573059,-10.814364
4.162500,109.847099,-8.348713,7.899637,-2.595039,-76.344231,-11.162288
4.168750,108.985703,-8.128627,7.911734,-2.710114,-80.161209,-11.522676
4.175000,108.111870,-7.920683,7.724216,-2.828416,-84.034248,-11.895565
4.181250,107.223885,-7.724792,5.916184,-2.950032,-87.974754,-12.280785
4.187500,106.323608,-7.540791,4.569922,-3.074960,-91.993637,-12.678472
4.193750,105.417923,-7.367863,3.580268,-3.203047,-96.102539,-13.088128
4.200000,104.514397,-7.204617,2.825395,-3.334221,-100.314491,-13.509262
4.206250,103.618164,-7.049532,2.172393,-3.468495,-104.645737,-13.941079
4.212500,102.730362,-6.901419,1.485785,-3.605607,-107.218643,-14.382483
4.218750,101.847847,-6.759605,0.633857,-3.745254,-109.671982,-14.831657
4.225000,100.966957,-6.624084,-0.504237,-3.887362,-111.490654,-15.286290
4.231250,100.084473,-6.495022,-2.034596,-4.031677,-112.199570,-15.743560
4.237500,99.198936,-6.372648,-1.871952,-4.177892,-111.382736,-16.200415
4.243750,98.312981,-6.256873,-3.329521,-4.325780,-108.713455,-16.653372
4.250000,97.430931,-6.147252,-4.322405,-4.475494,-103.965683,-17.098267
4.256250,96.557243,-6.042942,-4.955754,-4.626904,-97.027390,-17.530333
4.262500,95.693787,-5.943308,-5.347377,-4.779764,-87.905312,-17.944279
4.268750,94.839989,-5.847706,-5.626990,-4.934005,-76.722130,-18.334244
4.275000,93.993629,-5.756011,-5.929692,-5.089880,-63.711727,-18.694632
4.281250,93.152428,-5.668294,-6.386305,-5.247492,-49.201557,-19.020132
4.287500,92.315086,-5.584642,-7.116652,-5.406400,-33.600235,-19.305477
4.293750,91.481537,-5.505026,-8.224630,-5.566341,-17.370962,-19.546539
4.300000,90.652573,-5.429233,-7.628057,-5.727077,-1.017570,-19.740232
4.306250,89.830063,-5.356943,-8.642866,-5.888326,14.949283,-19.884417
4.312500,89.014351,-5.287928,-9.184745,-6.049511,30.036985,-19.977613
4.318750,88.204758,-5.221918,-9.359716,-6.209990,43.796551,-20.019501
4.325000,87.400276,-5.158943,-9.288942,-6.369306,55.844082,-20.010891
4.331250,86.599854,-5.099034,-9.103788,-6.526877,65.883011,-19.953865
4.337500,85.803001,-5.042213,-8.937735,-6.682138,73.719177,-19.851301
4.343750,85.010857,-4.988413,-8.922500,-6.834798,79.272690,-19.707636
4.350000,84.224426,-4.937394,-9.178450,-6.984354,82.580452,-19.527954
4.356250,83.444939,-4.888929,-9.809043,-7.130183,83.797501,-19.317495
4.362500,82.672142,-4.842843,-8.730687,-7.271862,83.186440,-19.082043
4.368750,81.905556,-4.799110,-9.262181,-7.409709,81.100624,-18.827717
4.375000,81.144127,-4.757814,-9.321772,-7.543655,77.974670,-18.560200
4.381250,80.387711,-4.719009,-9.013082,-7.673072,74.304161,-18.283861
4.387500,79.637062,-4.682594,-8.458697,-7.797324,70.616402,-18.002741
4.393750,78.893494,-4.648445,-7.795688,-7.916407,65.280128,-17.720779
4.400000,78.158089,-4.616259,-7.163948,-8.030149,60.175617,-17.441576
4.406250,77.430931,-4.585711,-6.696783,-8.137776,55.293304,-17.167751
4.412500,76.710388,-4.556760,-6.518892,-8.238687,50.619785,-16.901682
4.418750,75.994705,-4.529646,-6.742203,-8.332850,46.133839,-16.645662
4.425000,75.281792,-4.504691,-5.287104,-8.419995,41.818340,-16.400885
4.431250,74.571747,-4.482242,-5.468953,-8.499205,37.657639,-16.167892
4.437500,73.865852,-4.462377,-5.205929,-8.570208,33.635658,-15.947087
4.443750,73.166832,-4.444852,-4.609252,-8.633330,29.737110,-15.739139
4.450000,72.478256,-4.429199,-3.803281,-8.688810,25.949343,-15.544232
4.456250,71.801392,-4.414937,-2.918160,-8.736421,22.265438,-15.361979
4.462500,71.135361,-4.401679,-2.091107,-8.776129,18.675505,-15.192369
4.468750,70.477814,-4.389506,-1.459833,-8.808963,15.168556,-15.035955
4.475000,69.825356,-4.378793,-1.150254,-8.835512,11.732876,-14.892774
4.481250,69.176552,-4.369920,-1.269112,-8.855756,8.363950,-14.762076
4.487500,68.532349,-4.363179,0.263767,-8.870086,5.054190,-14.643412
4.493750,67.895660,-4.358341,0.126950,-8.878853,1.795687,-14.536272
4.500000,67.270050,-4.354968,0.399807,-8.882145,-1.418927,-14.439974
4.506250,66.657974,-4.352357,0.973346,-8.880129,-4.595623,-14.353870
4.512500,66.059303,-4.349974,1.721498,-8.873221,-7.740544,-14.277680
4.518750,65.472130,-4.347646,2.509327,-8.861613,-10.857072,-14.211200
4.525000,64.891258,-4.345719,3.202715,-8.844913,-13.945962,-14.153522
4.531250,64.312920,-4.344910,3.671204,-8.823275,-17.007416,-14.103933
4.537500,63.735821,-4.345829,3.787587,-8.797776,-20.047724,-14.062953
4.543750,63.162361,-4.348774,3.445105,-8.769335,-23.068802,-14.030990
4.550000,62.597160,-4.353436,4.734542,-8.737433,-26.066206,-14.006790
4.556250,62.045059,-4.359103,4.344670,-8.702168,-29.039093,-13.989782
4.562500,61.508327,-4.365026,4.353519,-8.664957,-31.995325,-13.980646
4.568750,60.986626,-4.370665,4.652396,-8.626930,-34.940964,-13.980011
4.575000,60.475903,-4.375922,5.124064,-8.588049,-37.874355,-13.987015
4.581250,59.970764,-4.381310,5.640146,-8.548322,-40.793728,-14.000792
4.587500,59.466991,-4.387568,6.060599,-8.508929,-43.706757,-14.022030
4.593750,58.964172,-4.395327,6.249196,-8.470676,-46.619389,-14.050951
4.600000,58.465603,-4.404658,6.089376,-8.432751,-49.527431,-14.086311
4.606250,57.976662,-4.415086,5.478321,-8.394923,-52.430664,-14.127102
4.612500,57.501041,-4.425805,6.492293,-8.358198,-55.337772,-14.174016
4.618750,57.041176,-4.435924,5.812006,-8.323331,-58.254108,-14.227352
4.625000,56.595257,-4.445024,5.528181,-8.289788,-61.177094,-14.285951
4.631250,56.157784,-4.453216,5.542428,-8.256968,-64.102966,-14.348846
4.637500,55.723484,-4.461068,5.730497,-8.225899,-67.037598,-14.416618
4.643750,55.288586,-4.469439,5.958883,-8.197877,-69.987785,-14.489844
4.650000,54.853771,-4.478802,6.103609,-8.172372,-72.947998,-14.567613
4.656250,54.422817,-4.489050,6.042799,-8.148819,-75.914429,-14.649132
4.662500,54.000313,-4.499667,5.654617,-8.128044,-78.893898,-14.735198
4.668750,53.588814,-4.509909,4.832653,-8.110744,-81.893417,-14.827335
4.675000,53.187931,-4.519392,5.666802,-8.096122,-84.914742,-14.926559
4.681250,52.794102,-4.528154,4.848517,-8.083344,-87.951691,-15.032728
4.687500,52.403828,-4.536241,4.456611,-8.072711,-90.993797,-15.143956
4.693750,52.013844,-4.544205,4.381156,-8.064163,-94.041145,-15.260409
4.700000,51.620277,-4.553020,4.504463,-8.056444,-97.098534,-15.382251
4.706250,51.223812,-4.563301,4.696414,-8.048500,-100.160965,-15.508978
4.712500,50.829380,-4.575080,4.817938,-8.039944,-103.221542,-15.639434
4.718750,50.443573,-4.587751,4.732270,-8.030744,-106.268806,-15.771938
4.725000,50.072277,-4.600398,4.315310,-8.020623,-109.296585,-15.904139
4.731250,49.717278,-4.612138,3.460082,-8.009880,-112.299988,-16.033796
4.737500,49.377602,-4.622500,4.246814,-7.999271,-115.280296,-16.158978
4.743750,49.049778,-4.631334,3.359820,-7.989380,-118.241478,-16.277164
4.750000,48.729504,-4.638936,2.883724,-7.980844,-121.189270,-16.386045
4.756250,48.415016,-4.645500,2.713767,-7.974595,-124.137497,-16.484369
