Anritsu VNA Frequency[GHz],S21[deg],S21[dB],S11[deg],S11[dB],S22[deg],S22[dB]
1338031071.06,2012_05_26_12:17:51,+298.03,+297.86,+02.989,+297.73,+297.16,+298.10,+297.72,+298.13,243.348282,-6.620
3.006250,30.626003,-8.726280,7.222172,-6.081383,31.041729,-9.742711
3.012500,30.626003,-8.726280,7.222172,-6.081383,31.041729,-9.742711
3.018750,30.626003,-8.726280,7.222172,-6.081383,31.041729,-9.742711
3.025000,30.626003,-8.726280,7.222172,-6.081383,31.041729,-9.742711
3.031250,30.626003,-8.726280,7.222172,-6.081383,31.041729,-9.742711
3.037500,30.626003,-8.726280,7.222172,-6.081383,31.041729,-9.742711
3.043750,30.626003,-8.726280,7.222172,-6.081383,31.041729,-9.742711
3.050000,30.626003,-8.726280,7.222172,-6.081383,31.041729,-9.742711
3.056250,30.626003,-8.726280,7.222172,-6.081383,31.041729,-9.742711
3.062500,30.626003,-8.726280,7.222172,-6.081383,31.041729,-9.742711
3.068750,30.626003,-8.726280,7.222172,-6.081383,31.041729,-9.742711
3.075000,30.626003,-8.726280,7.222172,-6.081383,31.041729,-9.742711
3.081250,30.626003,-8.726280,7.222172,-6.081383,31.041729,-9.742711
3.087500,30.626003,-8.726280,7.222172,-6.081383,31.041729,-9.742711
3.093750,30.626003,-8.850888,7.222172,-5.843935,31.041729,-9.770170
3.100000,50.991207,-8.987562,5.664648,-5.606579,29.420963,-9.808358
3.106250,70.091644,-9.136549,4.808577,-5.371815,27.818342,-9.856632
3.112500,87.503365,-9.297760,4.501343,-5.141749,26.238859,-9.914356
3.118750,102.890656,-9.470736,4.558955,-4.917687,24.689093,-9.980434
3.125000,116.020370,-9.654833,4.774620,-4.699922,23.172985,-10.053834
3.131250,126.771057,-9.850217,4.923800,-4.489113,21.692518,-10.133944
3.137500,135.143066,-10.056497,4.771787,-4.286859,20.245693,-10.220534
3.143750,141.259491,-10.273308,4.103359,-4.093168,18.834343,-10.312685
3.150000,145.355530,-10.500949,4.893577,-3.907735,17.459675,-10.409345
3.156250,147.768860,-10.740157,5.614465,-3.730441,16.120163,-10.509771
3.162500,148.923737,-10.991845,6.631217,-3.561138,14.812542,-10.613354
3.168750,149.315247,-11.256818,6.397295,-3.399390,13.535352,-10.719113
3.175000,149.479828,-11.535580,6.846972,-3.244881,12.285859,-10.826160
3.181250,147.800629,-11.828391,7.705585,-3.097544,11.060481,-10.933937
3.187500,146.175323,-12.135595,8.678016,-2.957246,9.855689,-11.042003
3.193750,144.607147,-12.457873,9.461325,-2.823841,8.670397,-11.149651
3.200000,143.097672,-12.795972,9.759641,-2.697043,7.502873,-11.256399
3.206250,141.650360,-13.151310,9.298700,-2.576700,6.349868,-11.362085
3.212500,140.267059,-13.525390,10.007982,-2.462750,5.208610,-11.466531
3.218750,138.953949,-13.919716,10.336628,-2.355099,4.077837,-11.569674
3.225000,137.718048,-14.336416,10.645006,-2.253479,2.954971,-11.671555
3.231250,136.571518,-14.777303,11.293621,-2.157748,1.837133,-11.772474
3.237500,135.528336,-15.245055,10.729383,-2.067801,0.721748,-11.872540
3.243750,134.606430,-15.741395,10.881272,-1.983484,-0.395459,-11.972011
3.250000,133.831207,-16.269203,11.472727,-1.904648,-1.517922,-12.071105
3.256250,133.234070,-16.829929,12.203945,-1.831072,-2.649839,-12.170131
3.262500,132.859650,-17.424019,12.768692,-1.762658,-3.795907,-12.269250
3.268750,130.865204,-18.049469,12.868012,-1.699265,-4.960806,-12.368555
3.275000,128.930588,-18.702681,12.224645,-1.640843,-6.147333,-12.468171
3.281250,126.581497,-19.378714,12.766230,-1.587356,-7.359813,-12.568324
3.287500,123.385483,-20.069525,12.938471,-1.538809,-8.600134,-12.669314
3.293750,118.976501,-20.764448,13.100610,-1.495285,-9.869884,-12.771299
3.300000,113.070518,-21.450218,13.611218,-1.456819,-11.171793,-12.874653
3.306250,105.473671,-22.110750,12.915541,-1.423443,-12.505842,-12.979896
3.312500,96.086349,-22.729204,12.941058,-1.395146,-13.872359,-13.087492
3.318750,84.909561,-23.288301,13.409914,-1.371947,-15.273013,-13.198062
3.325000,72.041603,-23.771055,14.020879,-1.353909,-16.707945,-13.312168
3.331250,57.670158,-24.162020,14.465317,-1.341108,-18.178272,-13.430280
3.337500,42.063675,-24.447794,14.441865,-1.333642,-19.684839,-13.552835
3.343750,25.557491,-24.617636,13.672367,-1.331588,-21.229012,-13.680282
3.350000,8.530640,-24.664526,14.083004,-1.335089,-22.812300,-13.812872
3.356250,-8.610394,-24.585342,14.118645,-1.344193,-24.433853,-13.950966
3.362500,-25.455351,-24.381256,14.137224,-1.359004,-26.095043,-14.094940
3.368750,-41.608040,-24.058092,14.495231,-1.379744,-27.796675,-14.244867
3.375000,-56.709194,-23.625206,13.637525,-1.406522,-29.538877,-14.401373
3.381250,-70.450325,-23.095501,13.490387,-1.439583,-31.321474,-14.564475
3.387500,-82.594223,-22.483892,13.774172,-1.479269,-33.146358,-14.734495
3.393750,-92.982101,-21.806963,14.187658,-1.525898,-35.013096,-14.911840
3.400000,-101.550064,-21.082287,14.421647,-1.579697,-36.923611,-15.096878
3.406250,-108.329170,-20.326704,14.174663,-1.640932,-38.878998,-15.289712
3.412500,-113.450768,-19.556665,13.166869,-1.710018,-40.883198,-15.490621
3.418750,-117.137955,-18.786154,13.323963,-1.787234,-42.938957,-15.699800
3.425000,-119.696869,-18.028015,13.091204,-1.872723,-45.049004,-15.917184
3.431250,-121.507027,-17.291241,12.826348,-1.966653,-47.218067,-16.142756
3.437500,-123.000862,-16.582844,12.885655,-2.069420,-49.452385,-16.376762
3.443750,-124.651527,-15.907222,11.713839,-2.181230,-51.757938,-16.619093
3.450000,-124.775970,-15.267702,11.238237,-2.302232,-54.140156,-16.869501
3.456250,-125.210419,-14.665494,11.180312,-2.432595,-56.610466,-17.127815
3.462500,-125.896957,-14.099339,11.239017,-2.572562,-59.176559,-17.393738
3.468750,-126.783630,-13.567430,11.105918,-2.722386,-61.853649,-17.666840
3.475000,-127.830887,-13.067481,10.480329,-2.882050,-64.654694,-17.946291
3.481250,-129.009888,-12.597027,9.084210,-3.051584,-67.594292,-18.230934
3.487500,-130.299637,-12.154726,8.843887,-3.230956,-70.687866,-18.519646
3.493750,-131.680756,-11.738839,8.203490,-3.420112,-73.948555,-18.811201
3.500000,-133.138107,-11.347599,7.521926,-3.618775,-77.389343,-19.104212
3.506250,-134.658173,-10.979470,7.157841,-3.826669,-81.026390,-19.396725
3.512500,-136.228409,-10.632650,5.556067,-4.043275,-84.871475,-19.686943
3.518750,-137.839859,-10.305531,4.643654,-4.268139,-88.941185,-19.972750
3.525000,-139.487915,-9.997003,4.143312,-4.500553,-93.247879,-20.250677
3.531250,-141.169037,-9.706131,3.755870,-4.739574,-95.906937,-20.517075
3.537500,-142.881058,-9.432487,3.173662,-4.984112,-98.547295,-20.767746
3.543750,-144.620773,-9.175853,2.097258,-5.233072,-100.638741,-20.998739
3.550000,-146.383392,-8.935661,0.248813,-5.485431,-101.685303,-21.206444
3.556250,-148.162537,-8.711360,-0.442752,-5.739909,-101.251038,-21.387129
3.562500,-149.951874,-8.501950,-1.528498,-5.994675,-98.981316,-21.537308
3.568750,-151.745987,-8.306492,-2.646396,-6.247965,-94.619545,-21.653654
3.575000,-153.541977,-8.124199,-3.438349,-6.498624,-88.028534,-21.733650
3.581250,-155.338211,-7.954390,-3.563396,-6.745260,-79.184654,-21.775047
3.587500,-155.239441,-7.796629,-4.605965,-6.985752,-68.180130,-21.775770
3.593750,-154.866501,-7.650732,-4.683896,-7.217865,-55.214931,-21.734842
3.600000,-153.685196,-7.516400,-4.134799,-7.439856,-40.595024,-21.652426
3.606250,-151.201050,-7.393161,-3.330938,-7.650309,-24.710480,-21.530144
3.612500,-146.984299,-7.280501,-2.653254,-7.847431,-8.011278,-21.370392
3.618750,-140.691818,-7.177574,-2.473638,-8.029175,9.010788,-21.175558
3.625000,-132.085068,-7.083854,-0.973471,-8.194185,25.842661,-20.949509
3.631250,-121.043259,-6.998862,0.176664,-8.341329,41.978836,-20.696766
3.637500,-107.568085,-6.922313,1.223178,-8.469476,56.952721,-20.421190
3.643750,-91.782883,-6.854227,2.418984,-8.577549,70.353165,-20.126879
3.650000,-73.925888,-6.794629,4.010330,-8.664663,81.856598,-19.817663
3.656250,-54.337227,-6.743479,4.329348,-8.730401,91.234779,-19.497622
3.662500,-33.443195,-6.700599,5.196323,-8.774380,98.373650,-19.170990
3.668750,-11.733994,-6.665565,6.239485,-8.796428,103.275513,-18.841700
3.675000,10.257871,-6.638077,7.080249,-8.796725,106.057869,-18.513678
3.681250,31.985325,-6.617949,7.352653,-8.775681,106.948502,-18.190273
3.687500,52.914783,-6.605024,6.722742,-8.733727,106.277580,-17.874645
3.693750,72.551926,-6.599391,7.073968,-8.671468,104.454018,-17.568943
3.700000,90.467232,-6.601243,6.820970,-8.589637,101.954376,-17.274744
3.706250,106.319260,-6.610815,6.307023,-8.489202,99.293655,-16.993780
3.712500,119.870079,-6.628256,5.891451,-8.371200,94.835175,-16.727413
3.718750,130.998093,-6.653640,5.931970,-8.236859,90.459167,-16.477346
3.725000,139.702316,-6.687118,4.873478,-8.087358,86.153656,-16.244843
3.731250,146.102905,-6.728936,4.642664,-7.923700,81.906639,-16.030981
3.737500,150.435364,-6.779561,4.958755,-7.747094,77.706680,-15.836860
3.743750,153.037659,-6.839583,5.515350,-7.559242,73.540276,-15.664030
3.750000,154.335419,-6.909929,5.999092,-7.361775,69.395660,-15.513297
3.756250,154.819946,-6.991372,6.106838,-7.155483,65.267204,-15.385191
3.762500,155.025650,-7.084593,5.556696,-6.941297,61.146679,-15.280743
3.768750,153.332703,-7.190349,6.268210,-6.720968,57.023861,-15.201615
3.775000,151.636749,-7.309721,6.678562,-6.496031,52.888512,-15.148880
3.781250,149.939255,-7.443668,7.140246,-6.267580,48.735424,-15.123791
3.787500,148.243408,-7.593417,6.113925,-6.036458,44.559105,-15.127186
3.793750,146.553665,-7.760089,5.555517,-5.803895,40.347748,-15.160429
3.800000,144.876602,-7.944910,5.230730,-5.571101,36.092365,-15.225213
3.806250,143.218369,-8.149047,4.897525,-5.338957,31.782764,-15.323043
3.812500,141.588257,-8.373599,4.317581,-5.108276,27.408365,-15.455245
3.818750,139.995728,-8.619707,3.264255,-4.879929,22.954704,-15.624231
3.825000,138.451080,-8.888597,1.535819,-4.654865,18.406322,-15.831805
3.831250,136.967224,-9.181540,-1.033694,-4.433984,13.740645,-16.080568
3.837500,135.558746,-9.499826,-2.397997,-4.218051,8.931580,-16.372190
3.843750,134.244568,-9.844350,-3.992000,-4.007895,3.939487,-16.706303
3.850000,133.046387,-10.215484,-5.343639,-3.804326,-1.280030,-17.081938
3.856250,131.990417,-10.613089,-7.886024,-3.608074,-6.770319,-17.496239
3.862500,131.104477,-11.036336,-9.570532,-3.419782,-12.577579,-17.946678
3.868750,130.418793,-11.483740,-10.559962,-3.240177,-18.747957,-18.428524
3.875000,129.965973,-11.952756,-11.050892,-3.069979,-25.336233,-18.934206
3.881250,129.777756,-12.440040,-11.263534,-2.909680,-30.504715,-19.453234
3.887500,129.889648,-12.940955,-11.431226,-2.759759,-35.920414,-19.972837
3.893750,130.333694,-13.449558,-11.789705,-2.620564,-41.082253,-20.478773
3.900000,129.245102,-13.958561,-12.563134,-2.492347,-45.509109,-20.955509
3.906250,128.272400,-14.459449,-11.786689,-2.375266,-48.766296,-21.387745
3.912500,126.899353,-14.942798,-10.993328,-2.269306,-50.480476,-21.760509
3.918750,124.639511,-15.398741,-9.821540,-2.174412,-50.363445,-22.060354
3.925000,121.058807,-15.817616,-9.822280,-2.090521,-48.221199,-22.275297
3.931250,115.798203,-16.190128,-9.065026,-2.017340,-43.965118,-22.396681
3.937500,108.590080,-16.507719,-7.824553,-1.954747,-37.613369,-22.418760
3.943750,99.269279,-16.763197,-6.398158,-1.902477,-29.289024,-22.338640
3.950000,87.783203,-16.950848,-5.091757,-1.860150,-19.211523,-22.157234
3.956250,74.192947,-17.066305,-4.202659,-1.827475,-7.687393,-21.878899
3.962500,58.668171,-17.107267,-4.005776,-1.803990,4.907466,-21.511078
3.968750,41.475456,-17.073534,-2.572925,-1.789345,18.146431,-21.064610
3.975000,22.966261,-16.967531,-1.456763,-1.783155,31.575939,-20.552361
3.981250,3.556444,-16.793821,-0.297855,-1.785203,44.733414,-19.988924
3.987500,-16.288927,-16.558762,-0.631894,-1.795127,57.176975,-19.389454
3.993750,-36.083847,-16.270004,-0.495616,-1.812548,68.505173,-18.769083
4.000000,-55.343304,-15.936005,-0.115938,-1.837167,78.380768,-18.141399
4.006250,-73.610207,-15.565532,0.270757,-1.868643,86.546898,-17.518419
4.012500,-90.481987,-15.167163,0.429417,-1.906573,92.847893,-16.909124
4.018750,-105.630547,-14.749186,0.137558,-1.950596,97.235924,-16.320467
4.025000,-118.823853,-14.319745,-0.801904,-2.000502,99.785378,-15.758925
4.031250,-129.936508,-13.886625,-2.550305,-2.055951,100.684944,-15.228543
4.037500,-138.955612,-13.456756,-3.058835,-2.116412,100.219360,-14.732552
4.043750,-145.980988,-13.035798,-3.762008,-2.181686,98.758926,-14.270952
4.050000,-151.219193,-12.627783,-4.184795,-2.251603,96.737900,-13.842358
4.056250,-154.977509,-12.235345,-5.759765,-2.325830,94.643837,-13.444700
4.062500,-157.647034,-11.859540,-6.438241,-2.404187,90.822273,-13.075978
4.068750,-159.689819,-11.500512,-6.383390,-2.486491,87.140022,-12.734065
4.075000,-161.610535,-11.158132,-5.791582,-2.572598,83.574852,-12.417087
4.081250,-161.766464,-10.832173,-4.882791,-2.662303,80.109100,-12.123158
4.087500,-162.037384,-10.522895,-3.893913,-2.755451,76.729103,-11.850483
4.093750,-162.407196,-10.230251,-3.063977,-2.852184,73.421150,-11.597822
4.100000,-162.860092,-9.953896,-2.620447,-2.952407,70.176094,-11.363663
4.106250,-163.377945,-9.692866,-0.600203,-3.055712,66.988686,-11.146563
4.112500,-163.945129,-9.445623,1.460202,-3.161983,63.852386,-10.961248
4.118750,-164.549225,-9.210578,2.022598,-3.271236,60.710808,-10.775793
4.125000,-165.182602,-8.986259,3.048288,-3.383356,57.661175,-10.604933
4.131250,-165.843018,-8.771772,4.311449,-3.497846,54.648285,-10.447796
4.137500,-166.531219,-8.566913,5.575559,-3.614319,51.669586,-10.303697
4.143750,-167.248352,-8.372039,6.604438,-3.733066,48.721088,-10.172416
4.150000,-167.992050,-8.187519,7.176163,-3.854028,45.799126,-10.053634
4.156250,-166.862213,-8.013071,7.096375,-3.976884,42.902515,-9.946638
4.162500,-165.470917,-7.847835,6.203556,-4.101423,40.029625,-9.850969
4.168750,-163.278000,-7.690547,6.547429,-4.227808,37.176910,-9.766408
4.175000,-159.786377,-7.539883,6.694941,-4.356079,34.343094,-9.692682
4.181250,-154.568619,-7.394825,5.226483,-4.486184,31.527184,-9.629395
4.187500,-147.287201,-7.254972,4.224954,-4.617967,28.728643,-9.576184
4.193750,-137.710327,-7.120656,3.583775,-4.751523,25.945381,-9.532903
4.200000,-125.719398,-6.992414,3.181201,-4.886752,23.177902,-9.499428
4.206250,-111.314667,-6.870691,2.886372,-5.023314,20.426397,-9.475406
4.212500,-94.613754,-6.755366,2.562435,-5.160885,17.689779,-9.460754
4.218750,-75.848190,-6.645789,2.076853,-5.299376,14.967303,-9.455444
4.225000,-55.352829,-6.541124,1.309411,-5.438381,12.258488,-9.459301
4.231250,-33.554111,-6.440581,0.154390,-5.577385,9.564086,-9.472079
4.237500,-10.945827,-6.343761,0.696567,-5.716244,6.882654,-9.493829
4.243750,11.935856,-6.250875,-0.378742,-5.854581,4.213922,-9.524491
4.250000,34.540894,-6.162517,-0.984944,-5.992085,1.559195,-9.563760
4.256250,56.335236,-6.079252,-1.226120,-6.128687,-1.082205,-9.611728
4.262500,76.829422,-6.001355,-1.224862,-6.264446,-3.711666,-9.668574
4.268750,95.601685,-5.928311,-1.110699,-6.399157,-6.328434,-9.734277
4.275000,112.316788,-5.859428,-1.016254,-6.532609,-8.931149,-9.808512
4.281250,126.740944,-5.793824,-1.073276,-6.664673,-11.520504,-9.891361
4.287500,138.752731,-5.730850,-1.405770,-6.795403,-14.098765,-9.983050
4.293750,148.349426,-5.670317,-2.121125,-6.924482,-16.666552,-10.083555
4.300000,155.648163,-5.612363,-1.135871,-7.051353,-19.223619,-10.192614
4.306250,160.883118,-5.557468,-1.766782,-7.175444,-21.769728,-10.310234
4.312500,164.394119,-5.506009,-1.933187,-7.296417,-24.305206,-10.436330
4.318750,166.610458,-5.458004,-1.742366,-7.413693,-26.829670,-10.570903
4.325000,168.027405,-5.413080,-1.317299,-7.526388,-29.340986,-10.713801
4.331250,169.180374,-5.370774,-0.789785,-7.633955,-31.838676,-10.865124
4.337500,168.448608,-5.330601,-0.296605,-7.736143,-34.322563,-11.025062
4.343750,167.725006,-5.292511,0.032118,-7.832366,-36.790134,-11.193750
4.350000,167.006699,-5.256685,0.073387,-7.922270,-39.241188,-11.371373
4.356250,166.292130,-5.223544,-0.280232,-8.006271,-41.676796,-11.558603
4.362500,165.581100,-5.193347,1.053514,-8.084207,-44.097782,-11.755750
4.368750,164.876083,-5.166104,0.760913,-8.155789,-46.501991,-11.962627
4.375000,164.180649,-5.141451,0.923586,-8.220993,-48.889427,-12.179287
4.381250,163.496964,-5.118814,1.429877,-8.280382,-51.266335,-12.406311
4.387500,162.826385,-5.097651,2.152665,-8.334289,-53.636078,-12.644003
4.393750,162.167938,-5.077677,2.958853,-8.382419,-55.997353,-12.892127
4.400000,161.518951,-5.058981,3.709958,-8.424539,-58.352222,-13.150570
4.406250,160.876328,-5.041841,4.267605,-8.460897,-60.701824,-13.419724
4.412500,160.238541,-5.026633,4.504524,-8.491354,-63.047039,-13.699812
4.418750,159.606308,-5.013568,4.313540,-8.515171,-65.385185,-13.990439
4.425000,158.982040,-5.002620,5.774981,-8.532216,-67.714836,-14.291813
4.431250,158.369003,-4.993351,5.567762,-8.542804,-70.038498,-14.604788
4.437500,157.768860,-4.985327,5.774185,-8.546857,-72.353363,-14.930279
4.443750,157.181656,-4.978231,6.290531,-8.544069,-74.657066,-15.268324
4.450000,156.605743,-4.972026,6.995072,-8.534787,-76.947906,-15.620086
4.456250,156.038528,-4.966888,7.753323,-8.519914,-79.229225,-15.986970
4.462500,155.478455,-4.963092,8.429886,-8.499991,-81.501633,-16.370071
4.468750,154.925461,-4.960884,8.896215,-8.475204,-83.764061,-16.770094
4.475000,154.380936,-4.960068,9.029979,-8.446227,-86.015320,-17.188204
4.481250,153.847412,-4.960320,8.721393,-8.413907,-88.263794,-17.626040
4.487500,153.326599,-4.961239,10.051783,-8.378897,-90.511765,-18.085217
4.493750,152.818298,-4.962327,9.703812,-8.341408,-92.759399,-18.567163
4.500000,152.320541,-4.963376,9.757772,-8.301876,-95.008110,-19.074289
4.506250,151.830353,-4.964511,10.105755,-8.260482,-97.257118,-19.609827
4.512500,151.345123,-4.965940,10.624880,-8.217000,-99.508316,-20.178312
4.518750,150.862976,-4.968171,11.182211,-8.171349,-101.778137,-20.783382
4.525000,150.383621,-4.971409,11.638553,-8.124035,-104.098900,-21.429375
4.531250,149.909393,-4.975622,11.863114,-8.075237,-106.513741,-22.116871
4.537500,149.442413,-4.980595,11.738799,-8.024151,-107.149742,-22.851015
4.543750,148.984283,-4.986081,11.163120,-7.970820,-107.652374,-23.639086
4.550000,148.534927,-4.991876,12.215450,-7.916450,-107.558189,-24.484837
4.556250,148.093689,-4.997876,11.581036,-7.861715,-106.491783,-25.384523
4.562500,147.658798,-5.004267,11.351211,-7.806355,-104.170441,-26.324411
4.568750,147.229309,-5.011267,11.424743,-7.750326,-100.338608,-27.293726
4.575000,146.804642,-5.019012,11.676358,-7.694803,-94.841705,-28.282080
4.581250,146.385223,-5.027492,11.972870,-7.640563,-87.629608,-29.273409
4.587500,145.972290,-5.036613,12.182715,-7.587200,-78.780853,-30.244970
4.593750,145.566376,-5.046211,12.176497,-7.534725,-68.485184,-31.171124
4.600000,145.167816,-5.056130,11.825528,-7.484252,-57.016735,-32.024876
4.606250,144.775299,-5.066321,11.021919,-7.436225,-44.710007,-32.779728
4.612500,144.386688,-5.077022,11.854356,-7.389889,-31.945213,-33.410610
4.618750,144.001633,-5.088489,11.009654,-7.344748,-19.126333,-33.896320
4.625000,143.619675,-5.100906,10.567420,-7.301496,-6.666840,-34.222401
4.631250,143.242355,-5.114303,10.420234,-7.260700,5.042211,-34.380707
4.637500,142.871140,-5.128600,10.452994,-7.221632,15.652699,-34.369267
4.643750,142.507324,-5.143779,10.540371,-7.183868,24.861883,-34.194107
4.650000,142.152084,-5.159617,10.545547,-7.148337,32.428707,-33.870369
4.656250,141.806595,-5.176168,10.336892,-7.115675,38.187359,-33.420593
4.662500,141.471268,-5.193322,9.800779,-7.085534,42.075394,-32.871586
4.668750,141.146744,-5.210973,8.838524,-7.057219,44.123955,-32.254925
4.675000,140.833939,-5.228963,9.534471,-7.030729,44.465630,-31.598663
4.681250,140.535172,-5.246858,8.570737,-7.006310,43.349957,-30.926476
4.687500,140.251602,-5.264283,8.030559,-6.983764,41.037399,-30.269859
4.693750,139.981216,-5.281273,7.810473,-6.962398,37.868942,-29.653057
4.700000,139.723755,-5.297489,7.786940,-6.941793,34.297421,-29.092642
4.706250,139.479980,-5.312578,7.826621,-6.921696,30.817032,-28.597868
4.712500,139.249146,-5.326325,7.792369,-6.901658,27.941385,-28.176199
4.718750,139.029663,-5.338564,7.551315,-6.881388,23.974693,-27.823910
4.725000,138.820160,-5.349140,6.978436,-6.861045,20.694864,-27.529346
4.731250,138.619263,-5.358037,5.966201,-6.840875,17.992985,-27.278122
