Anritsu VNA Frequency[GHz],S21[deg],S21[dB],S11[deg],S11[dB],S22[deg],S22[dB]
1338031005.25,2012_05_26_12:16:45,+298.02,+297.85,+02.989,+297.73,+297.16,+298.09,+297.71,+298.13,243.344437,-6.617
3.006250,-7.826553,-7.526530,4.099635,-6.484066,53.102009,-14.050331
3.012500,-7.826553,-7.526530,4.099635,-6.484066,53.102009,-14.050331
3.018750,-7.826553,-7.526530,4.099635,-6.484066,53.102009,-14.050331
3.025000,-7.826553,-7.526530,4.099635,-6.484066,53.102009,-14.050331
3.031250,-7.826553,-7.526530,4.099635,-6.484066,53.102009,-14.050331
3.037500,-7.826553,-7.526530,4.099635,-6.484066,53.102009,-14.050331
3.043750,-7.826553,-7.526530,4.099635,-6.484066,53.102009,-14.050331
3.050000,-7.826553,-7.526530,4.099635,-6.484066,53.102009,-14.050331
3.056250,-7.826553,-7.526530,4.099635,-6.484066,53.102009,-14.050331
3.062500,-7.826553,-7.526530,4.099635,-6.484066,53.102009,-14.050331
3.068750,-7.826553,-7.526530,4.099635,-6.484066,53.102009,-14.050331
3.075000,-7.826553,-7.526530,4.099635,-6.484066,53.102009,-14.050331
3.081250,-7.826553,-7.526530,4.099635,-6.484066,53.102009,-14.050331
3.087500,-7.826553,-7.526530,4.099635,-6.484066,53.102009,-14.050331
3.093750,-7.826553,-7.505411,4.099635,-6.526776,53.102009,-13.776961
3.100000,-8.388419,-7.486187,4.437856,-6.573182,53.344292,-13.504171
3.106250,-8.943214,-7.468703,4.264966,-6.623394,53.376610,-13.234629
3.112500,-9.490856,-7.453018,3.384362,-6.677398,53.213078,-12.970656
3.118750,-10.029883,-7.438767,1.636474,-6.734765,52.870708,-12.713744
3.125000,-10.559493,-7.425655,1.067002,-6.795591,52.366337,-12.464775
3.131250,-11.079805,-7.413542,0.238941,-6.860367,51.716675,-12.225040
3.137500,-11.592274,-7.402300,-0.375175,-6.928981,50.932728,-11.995993
3.143750,-12.095629,-7.391606,-2.206586,-7.001099,50.030579,-11.777755
3.150000,-12.591478,-7.381228,-3.209243,-7.076639,49.025948,-11.570565
3.156250,-13.081993,-7.371298,-3.549053,-7.155606,47.929249,-11.374594
3.162500,-13.569489,-7.362077,-3.425719,-7.238084,46.748951,-11.189739
3.168750,-14.055272,-7.353836,-3.061258,-7.323913,45.494904,-11.015900
3.175000,-14.538350,-7.346735,-2.691930,-7.413026,44.173004,-10.852485
3.181250,-15.017207,-7.340590,-2.558397,-7.505723,42.786381,-10.699406
3.187500,-15.490107,-7.335061,-2.890565,-7.602264,41.338856,-10.556404
3.193750,-15.955895,-7.329794,-1.726411,-7.702717,39.836792,-10.422903
3.200000,-16.415268,-7.324405,-0.601825,-7.807034,38.283333,-10.298033
3.206250,-16.869509,-7.318800,0.838597,-7.915483,36.681999,-10.181497
3.212500,-17.321693,-7.313118,1.037502,-8.028426,35.034805,-10.072910
3.218750,-17.773773,-7.307425,1.920056,-8.146189,33.345875,-9.971809
3.225000,-18.226583,-7.301891,3.207562,-8.268909,31.618561,-9.877985
3.231250,-18.680340,-7.296446,4.597382,-8.396681,29.857538,-9.791037
3.237500,-19.134510,-7.291034,5.779252,-8.529682,28.065407,-9.710764
3.243750,-19.588867,-7.285205,6.448946,-8.668369,26.243671,-9.637190
3.250000,-20.044823,-7.278697,6.325918,-8.813025,24.393648,-9.570388
3.256250,-20.505331,-7.271744,7.334008,-8.963824,22.517405,-9.510118
3.262500,-20.974667,-7.264682,7.915740,-9.120940,20.616096,-9.456094
3.268750,-21.455828,-7.258057,8.424191,-9.284990,18.687386,-9.408304
3.275000,-21.949945,-7.252288,9.210478,-9.456735,16.728773,-9.366710
3.281250,-22.455856,-7.247438,8.714951,-9.636729,14.739798,-9.330913
3.287500,-22.971436,-7.243297,8.858449,-9.825621,12.720433,-9.300365
3.293750,-23.495226,-7.239345,9.354582,-10.024545,10.668851,-9.274644
3.300000,-24.028215,-7.235081,9.890986,-10.234904,8.581098,-9.253743
3.306250,-24.573366,-7.230162,10.146367,-10.458351,6.456405,-9.237169
3.312500,-25.137083,-7.224806,9.805622,-10.696282,4.295188,-9.224335
3.318750,-25.727623,-7.219715,8.569860,-10.950833,2.095903,-9.214972
3.325000,-26.351759,-7.215951,8.335655,-11.223969,-0.145206,-9.209032
3.331250,-27.014444,-7.214547,7.510212,-11.516462,-2.429481,-9.206295
3.337500,-27.717487,-7.216299,6.402081,-11.826941,-4.757909,-9.206212
3.343750,-28.462246,-7.221789,5.311721,-12.152850,-7.133320,-9.208645
3.350000,-29.250414,-7.231547,4.519803,-12.490827,-9.561354,-9.213535
3.356250,-30.087500,-7.246377,4.271360,-12.836366,-12.046070,-9.220763
3.362500,-30.981981,-7.268069,4.753399,-13.182260,-14.592345,-9.230198
3.368750,-31.946142,-7.299763,6.081555,-13.518877,-17.207254,-9.241863
3.375000,-32.991837,-7.346189,8.298092,-13.834069,-19.900778,-9.256233
3.381250,-34.124989,-7.413042,9.480625,-14.113850,-22.682003,-9.273938
3.387500,-35.339226,-7.506036,11.158272,-14.343373,-25.561279,-9.295670
3.393750,-36.614193,-7.630048,14.814776,-14.507839,-28.550476,-9.322562
3.400000,-37.913036,-7.787342,18.392410,-14.593593,-31.660576,-9.356004
3.406250,-39.189476,-7.978098,21.713665,-14.589030,-34.902092,-9.397665
3.412500,-40.406029,-8.203356,24.597055,-14.485552,-38.285141,-9.449697
3.418750,-41.531094,-8.464699,26.867107,-14.278136,-41.816708,-9.514230
3.425000,-42.518810,-8.762284,28.367395,-13.965508,-45.499779,-9.593556
3.431250,-43.308010,-9.092786,28.966961,-13.550870,-49.333874,-9.690008
3.437500,-43.828815,-9.449304,28.568789,-13.042151,-53.317204,-9.806109
3.443750,-44.013210,-9.821492,27.119125,-12.451245,-57.442024,-9.943959
3.450000,-43.806637,-10.196512,24.612627,-11.793574,-61.695919,-10.104691
3.456250,-43.172325,-10.560179,21.093849,-11.087390,-66.062363,-10.289083
3.462500,-42.097572,-10.897924,18.821653,-10.353171,-70.523697,-10.497128
3.468750,-40.595093,-11.196071,14.676680,-9.612229,-75.062263,-10.727895
3.475000,-38.701187,-11.442810,10.951113,-8.885435,-79.657272,-10.979407
3.481250,-36.473362,-11.628794,7.751046,-8.192114,-84.286743,-11.248495
3.487500,-33.984722,-11.747699,5.159966,-7.548816,-88.932259,-11.531769
3.493750,-31.317364,-11.795729,3.235996,-6.968806,-93.578644,-11.825304
3.500000,-28.558664,-11.771739,2.016786,-6.460663,-98.213478,-12.124261
3.506250,-25.798319,-11.677269,1.522013,-6.028236,-102.825905,-12.423469
3.512500,-23.126297,-11.516585,1.755813,-5.671946,-107.413216,-12.717870
3.518750,-20.630016,-11.296900,2.712922,-5.390227,-111.976898,-13.002644
3.525000,-18.390013,-11.028275,4.381312,-5.178942,-114.627853,-13.273001
3.531250,-16.474909,-10.723028,6.733712,-5.031243,-116.994453,-13.524416
3.537500,-14.934935,-10.395143,7.833611,-4.938084,-118.556419,-13.753207
3.543750,-13.795594,-10.058673,9.255796,-4.890248,-118.834885,-13.957083
3.550000,-13.055087,-9.726088,10.425402,-4.878371,-117.416565,-14.134337
3.556250,-12.685608,-9.406958,10.810691,-4.893569,-113.969231,-14.283760
3.562500,-12.640518,-9.107438,12.111586,-4.928329,-108.266159,-14.404858
3.568750,-12.866296,-8.830627,12.582651,-4.976536,-100.195488,-14.498313
3.575000,-13.309945,-8.577432,12.437895,-5.033318,-89.762772,-14.565203
3.581250,-13.932157,-8.349262,11.945856,-5.094477,-77.090553,-14.606458
3.587500,-14.704303,-8.148240,11.412969,-5.156471,-62.411255,-14.623237
3.593750,-15.589540,-7.974440,11.164592,-5.216971,-46.059372,-14.617024
3.600000,-16.540459,-7.825159,9.632574,-5.274747,-28.454882,-14.590048
3.606250,-17.517632,-7.696373,8.750813,-5.328978,-10.077844,-14.544353
3.612500,-18.494312,-7.584242,8.271150,-5.378806,8.556452,-14.481538
3.618750,-19.458157,-7.485262,7.937072,-5.423737,26.917122,-14.403352
3.625000,-20.405376,-7.396926,7.494253,-5.463919,44.484154,-14.311694
3.631250,-21.336622,-7.317430,6.705869,-5.499377,60.778576,-14.208673
3.637500,-22.256443,-7.245658,5.363433,-5.529935,75.386322,-14.095438
3.643750,-23.170008,-7.181127,3.295049,-5.555471,87.977058,-13.973264
3.650000,-24.080664,-7.123652,2.538733,-5.576269,98.322823,-13.843701
3.656250,-24.989571,-7.072872,1.652670,-5.592449,106.308723,-13.708125
3.662500,-25.895214,-7.028241,1.103471,-5.603943,111.940948,-13.567976
3.668750,-26.795876,-6.988918,-0.547672,-5.610885,115.346268,-13.424727
3.675000,-27.691393,-6.954089,-1.258107,-5.613453,116.763252,-13.279743
3.681250,-28.582939,-6.923232,-1.194749,-5.611509,116.533264,-13.134599
3.687500,-29.474123,-6.896061,-0.558549,-5.604832,115.082321,-12.990354
3.693750,-30.368433,-6.872613,0.424703,-5.593308,112.900825,-12.848104
3.700000,-31.269817,-6.853163,1.515371,-5.576790,110.516571,-12.708826
3.706250,-32.179855,-6.837847,2.471354,-5.555148,106.303818,-12.573508
3.712500,-33.098312,-6.826635,3.062971,-5.528326,102.153130,-12.443048
3.718750,-34.024094,-6.819333,5.247532,-5.496289,98.060501,-12.318344
3.725000,-34.957527,-6.815598,7.486820,-5.458671,94.022369,-12.200014
3.731250,-35.899971,-6.815434,8.240006,-5.415407,90.035522,-12.088648
3.737500,-36.854725,-6.818929,9.465111,-5.366677,86.093307,-11.985157
3.743750,-37.825069,-6.826503,10.929948,-5.312677,82.190514,-11.890584
3.750000,-38.814156,-6.838752,12.394961,-5.253299,78.323608,-11.805321
3.756250,-39.823971,-6.856211,13.622266,-5.188153,74.489838,-11.729524
3.762500,-40.853683,-6.879169,14.385028,-5.117203,70.683426,-11.664057
3.768750,-41.902050,-6.907838,14.480701,-5.040891,66.896515,-11.609794
3.775000,-42.969509,-6.942548,13.741711,-4.959402,63.124851,-11.567393
3.781250,-44.056454,-6.983656,14.214601,-4.872415,59.366920,-11.537285
3.787500,-45.163052,-7.031662,14.463645,-4.779836,55.618546,-11.519810
3.793750,-46.290077,-7.087173,13.062210,-4.682009,51.871822,-11.516032
3.800000,-47.436409,-7.150769,12.090385,-4.579008,48.123436,-11.526420
3.806250,-48.600189,-7.222857,11.440364,-4.470789,44.368858,-11.551539
3.812500,-49.779736,-7.303818,10.987279,-4.357442,40.602993,-11.591808
3.818750,-50.972416,-7.393923,10.595128,-4.239264,36.819111,-11.648003
3.825000,-52.176949,-7.493539,10.125755,-4.116752,33.010086,-11.720814
3.831250,-53.393360,-7.603270,9.443205,-3.990294,29.170347,-11.810919
3.837500,-54.621746,-7.723890,8.422977,-3.860255,25.293978,-11.918973
3.843750,-55.861649,-7.856402,6.956834,-3.727167,21.373375,-12.045956
3.850000,-57.110321,-8.001525,7.125487,-3.591532,17.400234,-12.192720
3.856250,-58.364597,-8.159903,5.610876,-3.453810,13.365945,-12.360301
3.862500,-59.620144,-8.331998,4.494099,-3.314594,9.259324,-12.549754
3.868750,-60.874184,-8.518332,3.666783,-3.174519,5.069835,-12.762378
3.875000,-62.124214,-8.719542,3.005628,-3.034122,0.782221,-12.999312
3.881250,-63.369125,-8.936657,2.377802,-2.894028,-3.620212,-13.261587
3.887500,-64.608459,-9.171021,1.647258,-2.754770,-8.155569,-13.549745
3.893750,-65.839462,-9.424240,0.680856,-2.616848,-12.847394,-13.863679
3.900000,-67.057541,-9.697946,-0.641931,-2.480787,-17.721203,-14.202854
3.906250,-68.255379,-9.993624,-2.426866,-2.347251,-22.805658,-14.565818
3.912500,-69.423889,-10.312632,-2.588274,-2.216576,-28.129818,-14.949770
3.918750,-70.552132,-10.656489,-2.546600,-2.089297,-33.723282,-15.351149
3.925000,-71.631020,-11.027162,-3.733131,-1.965803,-39.618114,-15.765149
3.931250,-72.648148,-11.426950,-4.097663,-1.846574,-45.842812,-16.185534
3.937500,-73.589203,-11.859013,-3.800621,-1.731980,-50.531040,-16.605194
3.943750,-74.434845,-12.326646,-3.037023,-1.622328,-55.324596,-17.015217
3.950000,-75.155006,-12.832702,-2.026954,-1.517920,-59.704674,-17.406050
3.956250,-75.705124,-13.378399,-1.003089,-1.418979,-63.181263,-17.767784
3.962500,-76.029930,-13.962549,-0.201149,-1.325722,-65.319000,-18.090332
3.968750,-76.064293,-14.581947,0.153596,-1.238259,-65.753578,-18.364107
3.975000,-75.753914,-15.231639,2.025556,-1.156695,-64.212456,-18.580137
3.981250,-75.037766,-15.905862,3.880025,-1.081285,-60.526558,-18.731249
3.987500,-73.859093,-16.596081,4.182845,-1.012111,-54.637085,-18.811916
3.993750,-72.156822,-17.291094,4.898154,-0.949238,-46.596466,-18.818491
4.000000,-69.877029,-17.976978,5.801169,-0.892861,-36.566719,-18.749554
4.006250,-66.978477,-18.637300,6.655890,-0.842996,-24.808664,-18.605867
4.012500,-63.438808,-19.254143,7.230289,-0.799598,-11.671086,-18.390532
4.018750,-59.259808,-19.808941,7.304089,-0.762708,2.429197,-18.108637
4.025000,-54.471519,-20.284279,6.682235,-0.732456,17.030001,-17.767052
4.031250,-49.134235,-20.664825,5.204385,-0.708793,31.646030,-17.374037
4.037500,-43.332394,-20.938530,4.921710,-0.691577,45.793900,-16.938801
4.043750,-37.174316,-21.096903,4.402475,-0.680638,59.019833,-16.471117
4.050000,-30.778217,-21.135155,2.227828,-0.676061,70.918114,-15.980796
4.056250,-24.272146,-21.052456,0.482826,-0.677863,81.159424,-15.477091
4.062500,-17.784451,-20.851326,-0.936032,-0.685812,89.505974,-14.968317
4.068750,-11.443645,-20.537905,-2.148922,-0.699871,95.822762,-14.461952
4.075000,-5.371777,-20.121784,-3.286213,-0.720026,100.089561,-13.964571
4.081250,0.316831,-19.615898,-4.481187,-0.746217,102.402527,-13.481136
4.087500,5.523032,-19.036360,-5.864042,-0.778227,102.968681,-13.015592
4.093750,10.169432,-18.401134,-7.556118,-0.816110,102.095673,-12.571101
4.100000,14.204991,-17.728764,-9.662637,-0.859950,100.175064,-12.149402
4.106250,17.611258,-17.036732,-10.098291,-0.909609,97.668747,-11.751176
4.112500,20.395990,-16.340635,-10.283282,-0.964857,95.077057,-11.376650
4.118750,22.591955,-15.652882,-11.649748,-1.025705,90.751709,-11.025361
4.125000,24.248981,-14.982902,-12.148298,-1.092127,86.562729,-10.696843
4.131250,25.424379,-14.337364,-11.939134,-1.163886,82.492218,-10.390369
4.137500,26.175022,-13.721277,-11.218506,-1.240710,78.523727,-10.104854
4.143750,26.554567,-13.138853,-10.207282,-1.322523,74.643517,-9.839503
4.150000,26.611202,-12.592989,-9.139533,-1.409538,70.839218,-9.593647
4.156250,26.407497,-12.084870,-8.250674,-1.501533,67.102310,-9.366444
4.162500,26.000187,-11.612512,-7.765687,-1.598328,63.425137,-9.157059
4.168750,25.445257,-11.172868,-5.721820,-1.699983,59.800869,-8.964816
4.175000,24.783064,-10.762085,-3.655044,-1.806617,56.222710,-8.789137
4.181250,24.041832,-10.376427,-3.099493,-1.918158,52.686356,-8.629415
4.187500,23.238024,-10.013186,-2.092198,-2.034505,49.188347,-8.485062
4.193750,22.380163,-9.670448,-0.861003,-2.155707,45.725250,-8.355509
4.200000,21.473179,-9.347494,0.357699,-2.281721,42.294376,-8.240503
4.206250,20.521603,-9.043520,1.330448,-2.412451,38.893688,-8.139468
4.212500,19.533651,-8.757690,1.835599,-2.547570,35.521053,-8.052032
4.218750,18.519033,-8.488704,1.676191,-2.687012,32.174828,-7.977986
4.225000,17.489201,-8.234831,0.691773,-2.830625,28.853111,-7.917037
4.231250,16.450844,-7.994378,0.931535,-2.978163,25.554796,-7.868817
4.237500,15.406878,-7.765904,0.965271,-3.129477,22.278715,-7.833053
4.243750,14.355078,-7.548730,-0.626721,-3.284407,19.023386,-7.809544
4.250000,13.293348,-7.342812,-1.758152,-3.442799,15.788431,-7.798079
4.256250,12.218994,-7.148469,-2.532724,-3.604595,12.573379,-7.798417
4.262500,11.134768,-6.965744,-3.071526,-3.769794,9.376449,-7.810394
4.268750,10.046556,-6.794110,-3.504560,-3.938387,6.197291,-7.833760
4.275000,8.962377,-6.632435,-3.964561,-4.110286,3.035955,-7.868264
4.281250,7.888065,-6.479360,-4.581884,-4.285205,-0.107453,-7.913726
4.287500,6.825462,-6.333838,-5.478636,-4.463172,-3.234721,-7.970077
4.293750,5.773151,-6.195097,-6.759421,-4.643916,-6.345808,-8.037228
4.300000,4.727583,-6.062925,-6.339618,-4.826972,-9.440943,-8.114860
4.306250,3.685076,-5.937662,-7.533793,-5.011977,-12.519716,-8.202868
4.312500,2.643693,-5.819632,-8.258831,-5.198451,-15.582505,-8.301044
4.318750,1.605848,-5.708795,-8.618389,-5.385850,-18.628569,-8.409379
4.325000,0.575853,-5.604630,-8.732099,-5.573662,-21.656818,-8.527688
4.331250,-0.441882,-5.506348,-8.730193,-5.761376,-24.667599,-8.655924
4.337500,-1.445544,-5.413179,-8.746724,-5.948591,-27.660376,-8.794160
4.343750,-2.436437,-5.324796,-8.909807,-6.134723,-30.634676,-8.942251
4.350000,-3.417797,-5.241245,-9.339434,-6.319454,-33.591045,-9.100206
4.356250,-4.391859,-5.162882,-10.141258,-6.502995,-36.532589,-9.268523
4.362500,-5.359317,-5.089962,-9.231957,-6.685094,-39.460995,-9.447203
4.368750,-6.317503,-5.022440,-9.923676,-6.864963,-42.375263,-9.635843
4.375000,-7.262243,-4.959883,-10.132233,-7.042173,-45.276516,-9.834136
4.381250,-8.190020,-4.901444,-9.967876,-7.216787,-48.170200,-10.042277
4.387500,-9.098708,-4.846324,-9.558041,-7.388603,-51.060322,-10.260512
4.393750,-9.989249,-4.794066,-9.033365,-7.556811,-53.947659,-10.488461
4.400000,-10.865473,-4.744567,-8.530331,-7.720440,-56.831970,-10.725863
4.406250,-11.730941,-4.698176,-8.186178,-7.879285,-59.717190,-10.972991
4.412500,-12.587906,-4.655298,-8.125993,-8.032715,-62.605057,-11.230034
4.418750,-13.435518,-4.616158,-8.456365,-8.179371,-65.494156,-11.496525
4.425000,-14.270080,-4.580519,-7.095512,-8.318628,-68.383942,-11.772473
4.431250,-15.087903,-4.547804,-7.363274,-8.450449,-71.279167,-12.058360
4.437500,-15.886667,-4.517276,-7.178409,-8.574565,-74.181915,-12.354585
4.443750,-16.666313,-4.488486,-6.644301,-8.690301,-77.091164,-12.661053
4.450000,-17.429411,-4.461295,-5.883008,-8.797582,-80.008850,-12.978048
4.456250,-18.179886,-4.435986,-5.031440,-8.897132,-82.941177,-13.306387
4.462500,-18.919897,-4.412971,-4.227895,-8.989456,-85.892601,-13.646577
4.468750,-19.649506,-4.392403,-3.602982,-9.074338,-88.863472,-13.998829
4.475000,-20.365978,-4.374154,-3.282110,-9.152098,-91.859680,-14.363060
4.481250,-21.066336,-4.357694,-3.378875,-9.223408,-94.890533,-14.740262
4.487500,-21.748215,-4.342319,-1.816008,-9.288674,-97.964333,-15.131033
4.493750,-22.411497,-4.327361,-1.914078,-9.347805,-101.088928,-15.535715
4.500000,-23.059381,-4.312527,-1.595235,-9.400921,-104.273651,-15.954360
4.506250,-23.696463,-4.297978,-0.972022,-9.448102,-107.531853,-16.387129
4.512500,-24.326817,-4.284136,-0.169029,-9.488783,-110.874611,-16.833082
4.518750,-24.953003,-4.271631,0.679137,-9.522903,-114.316742,-17.290930
4.525000,-25.574728,-4.260686,1.430445,-9.550955,-115.980583,-17.760506
4.531250,-26.188509,-4.251170,1.951439,-9.573361,-117.503647,-18.241014
4.537500,-26.791521,-4.242641,2.124963,-9.589354,-118.363007,-18.730633
4.543750,-27.381884,-4.234697,1.847744,-9.599008,-118.084877,-19.226601
4.550000,-27.960159,-4.226999,3.197313,-9.603941,-116.269127,-19.726797
4.556250,-28.528782,-4.219535,2.856056,-9.605306,-112.600372,-20.227922
4.562500,-29.090408,-4.212611,2.914230,-9.603123,-106.860062,-20.724468
4.568750,-29.647106,-4.206685,3.270766,-9.597541,-98.940735,-21.210993
4.575000,-30.199604,-4.201994,3.797466,-9.590041,-88.858139,-21.682610
4.581250,-30.745972,-4.198648,4.357717,-9.582059,-76.748337,-22.134491
4.587500,-31.283609,-4.196312,4.819848,-9.573273,-62.840469,-22.560434
4.593750,-31.810814,-4.194645,5.052538,-9.563864,-47.472515,-22.954632
4.600000,-32.327026,-4.193264,4.925244,-9.555492,-31.072969,-23.312155
4.606250,-32.834728,-4.192158,4.328218,-9.549082,-14.133286,-23.628313
4.612500,-33.336479,-4.191600,5.350425,-9.544064,2.833467,-23.897600
4.618750,-33.834293,-4.192028,4.681066,-9.539835,19.302391,-24.115887
4.625000,-34.328175,-4.193767,4.400175,-9.537484,34.766270,-24.281893
4.631250,-34.816010,-4.196854,4.400286,-9.538055,48.769882,-24.395231
4.637500,-35.294605,-4.201041,4.569276,-9.540848,60.937096,-24.456491
4.643750,-35.761173,-4.205953,4.786393,-9.545288,70.979103,-24.468126
4.650000,-36.212971,-4.211129,4.916900,-9.552352,78.703896,-24.436264
4.656250,-36.649990,-4.216209,4.831301,-9.562858,84.034058,-24.368809
4.662500,-37.072971,-4.221003,4.419165,-9.575966,87.029854,-24.272863
4.668750,-37.482895,-4.225413,3.586250,-9.590175,87.866638,-24.155828
4.675000,-37.880291,-4.229273,4.415215,-9.605457,86.837860,-24.023674
4.681250,-38.264652,-4.232161,3.584249,-9.622238,84.337936,-23.881895
4.687500,-38.635704,-4.233932,3.177616,-9.639787,80.832771,-23.737335
4.693750,-38.995495,-4.234391,3.092317,-9.656688,76.850197,-23.595394
4.700000,-39.343788,-4.232977,3.201177,-9.672507,72.964882,-23.460442
4.706250,-39.681450,-4.229283,3.364623,-9.687314,67.583740,-23.333906
4.712500,-40.012360,-4.223143,3.442771,-9.700785,62.616188,-23.215431
4.718750,-40.340431,-4.214742,3.300006,-9.713045,58.059517,-23.102503
4.725000,-40.670135,-4.204372,2.808290,-9.724886,53.898144,-22.993242
4.731250,-41.003658,-4.192455,1.858412,-9.737194,50.106777,-22.884632
4.737500,-41.342793,-4.179187,2.533875,-9.750726,46.658764,-22.773628
4.743750,-41.687710,-4.164682,1.518520,-9.766729,43.522118,-22.657377
