Anritsu VNA Frequency[GHz],S21[deg],S21[dB],S11[deg],S11[dB],S22[deg],S22[dB]
1338030400.99,2012_05_26_12:06:40,+298.00,+297.82,+02.989,+297.70,+297.14,+298.06,+297.69,+298.09,243.317642,-6.615
3.006250,14.314902,-10.008292,3.033324,-8.973138,-87.417694,-12.224077
3.012500,14.314902,-10.008292,3.033324,-8.973138,-87.417694,-12.224077
3.018750,14.314902,-10.008292,3.033324,-8.973138,-87.417694,-12.224077
3.025000,14.314902,-10.008292,3.033324,-8.973138,-87.417694,-12.224077
3.031250,14.314902,-10.008292,3.033324,-8.973138,-87.417694,-12.224077
3.037500,14.314902,-10.008292,3.033324,-8.973138,-87.417694,-12.224077
3.043750,14.314902,-10.008292,3.033324,-8.973138,-87.417694,-12.224077
3.050000,14.314902,-10.008292,3.033324,-8.973138,-87.417694,-12.224077
3.056250,14.314902,-10.008292,3.033324,-8.973138,-87.417694,-12.224077
3.062500,14.314902,-10.008292,3.033324,-8.973138,-87.417694,-12.224077
3.068750,14.314902,-10.008292,3.033324,-8.973138,-87.417694,-12.224077
3.075000,14.314902,-10.008292,3.033324,-8.973138,-87.417694,-12.224077
3.081250,14.314902,-10.008292,3.033324,-8.973138,-87.417694,-12.224077
3.087500,14.314902,-10.008292,3.033324,-8.973138,-87.417694,-12.224077
3.093750,14.314902,-9.860452,3.033324,-9.047132,-87.417694,-12.648776
3.100000,13.671165,-9.725598,3.185910,-9.120934,-88.163673,-13.047016
3.106250,13.011295,-9.602400,2.701472,-9.194016,-87.126854,-13.411827
3.112500,12.345733,-9.489376,1.416142,-9.265991,-84.053238,-13.736466
3.118750,11.679922,-9.385236,1.377169,-9.336468,-78.794739,-14.014482
3.125000,11.015221,-9.289304,1.150538,-9.405177,-71.316093,-14.240314
3.131250,10.350866,-9.201177,-0.688424,-9.471990,-61.697559,-14.410101
3.137500,9.687591,-9.120589,-2.058542,-9.536780,-50.129368,-14.521240
3.143750,9.026436,-9.047380,-3.067483,-9.599316,-36.898983,-14.572468
3.150000,8.369318,-8.981318,-3.841005,-9.659275,-22.377470,-14.563883
3.156250,7.720220,-8.921731,-4.514588,-9.716441,-7.003675,-14.497049
3.162500,7.082119,-8.867951,-5.227889,-9.770686,8.741393,-14.375230
3.168750,6.456708,-8.819522,-6.115394,-9.821719,24.360073,-14.202531
3.175000,5.843891,-8.776044,-7.301559,-9.869152,39.365028,-13.984050
3.181250,5.243397,-8.737403,-8.895889,-9.912750,53.299965,-13.725771
3.187500,4.656734,-8.703309,-8.816795,-9.952426,65.768410,-13.434502
3.193750,4.084470,-8.673356,-8.486724,-9.987896,76.452660,-13.117061
3.200000,3.528839,-8.647025,-9.339801,-10.019000,85.130432,-12.780149
3.206250,2.991045,-8.623837,-9.328576,-10.045613,91.684372,-12.430441
3.212500,2.470603,-8.603402,-8.617073,-10.067961,96.111565,-12.073972
3.218750,1.966547,-8.585496,-7.403500,-10.086057,98.523956,-11.715866
3.225000,1.477020,-8.570035,-5.909438,-10.099928,99.143982,-11.360359
3.231250,1.001435,-8.557055,-4.371286,-10.109650,98.293602,-11.010914
3.237500,0.539873,-8.546511,-3.028595,-10.115221,96.379143,-10.669976
3.243750,0.092877,-8.538167,-2.110141,-10.116749,93.871155,-10.340021
3.250000,-0.338340,-8.531580,0.342983,-10.114322,91.280365,-10.022724
3.256250,-0.752703,-8.526236,2.792408,-10.107839,86.961990,-9.719299
3.262500,-1.151994,-8.521955,3.699690,-10.097042,82.790909,-9.430028
3.268750,-1.540041,-8.518882,5.024134,-10.081879,78.745941,-9.155290
3.275000,-1.919369,-8.517558,6.535728,-10.062318,74.806610,-8.895091
3.281250,-2.291271,-8.518323,7.994381,-10.038337,70.956795,-8.649394
3.287500,-2.652195,-8.521021,9.164493,-10.009677,67.183556,-8.417835
3.293750,-2.999159,-8.525290,9.824679,-9.976337,63.474499,-8.200081
3.300000,-3.328515,-8.530416,9.776480,-9.938496,59.817562,-7.995964
3.306250,-3.638404,-8.535386,8.856007,-9.896317,56.203632,-7.805507
3.312500,-3.930372,-8.539587,9.112466,-9.849816,52.625629,-7.628223
3.318750,-4.209148,-8.543015,9.113170,-9.798970,49.077969,-7.463837
3.325000,-4.482165,-8.546331,7.434766,-9.744040,45.553947,-7.312160
3.331250,-4.753933,-8.550627,6.159120,-9.685313,42.047672,-7.173191
3.337500,-5.024922,-8.556504,5.179349,-9.622615,38.555889,-7.046697
3.343750,-5.290695,-8.564065,4.373291,-9.555778,35.076439,-6.932299
3.350000,-5.545010,-8.572866,3.607330,-9.484747,31.605835,-6.829919
3.356250,-5.782760,-8.581831,2.743465,-9.409461,28.140451,-6.739519
3.362500,-6.001212,-8.589893,1.649246,-9.329626,24.678926,-6.661028
3.368750,-6.204512,-8.596504,0.201830,-9.244897,21.219694,-6.594125
3.375000,-6.400317,-8.602171,-1.706422,-9.155207,17.760174,-6.538895
3.381250,-6.596605,-8.608270,-1.994647,-9.060586,14.297191,-6.495490
3.387500,-6.795937,-8.615650,-2.084184,-8.960929,10.829534,-6.463747
3.393750,-6.993742,-8.624425,-3.408350,-8.855973,7.356980,-6.443476
3.400000,-7.182646,-8.633993,-3.919357,-8.745917,3.877637,-6.434665
3.406250,-7.357546,-8.643312,-3.782437,-8.630875,0.389825,-6.437264
3.412500,-7.515452,-8.651209,-3.196035,-8.510915,-3.106931,-6.451226
3.418750,-7.658244,-8.656507,-2.382940,-8.386169,-6.612129,-6.476383
3.425000,-7.792417,-8.659019,-1.580428,-8.256772,-10.125845,-6.512699
3.431250,-7.929303,-8.659759,-1.028644,-8.122980,-13.646870,-6.560116
3.437500,-8.078849,-8.660530,-0.957904,-7.984943,-17.174206,-6.618619
3.443750,-8.244023,-8.662789,0.590919,-7.842926,-20.706932,-6.688282
3.450000,-8.418716,-8.667037,2.078779,-7.697134,-24.243690,-6.769053
3.456250,-8.594357,-8.672760,1.965518,-7.547874,-27.782267,-6.860949
3.462500,-8.762939,-8.679078,2.211202,-7.395309,-31.321501,-6.963892
3.468750,-8.921894,-8.685107,2.586103,-7.239902,-34.860489,-7.077870
3.475000,-9.073408,-8.690386,2.850419,-7.082154,-38.398056,-7.202799
3.481250,-9.223267,-8.695131,2.767558,-6.922492,-41.932789,-7.338403
3.487500,-9.380159,-8.700689,2.115324,-6.761521,-45.462261,-7.484393
3.493750,-9.548970,-8.708685,0.695735,-6.600069,-48.985954,-7.640537
3.500000,-9.728566,-8.720209,-1.654827,-6.439167,-52.503349,-7.806581
3.506250,-9.910370,-8.735442,-2.886873,-6.279589,-56.011559,-7.981927
3.512500,-10.083943,-8.753383,-4.432264,-6.121997,-59.508812,-8.165851
3.518750,-10.241290,-8.773022,-5.816051,-5.967536,-62.993050,-8.357772
3.525000,-10.380041,-8.793229,-8.470354,-5.817250,-66.463425,-8.557061
3.531250,-10.501984,-8.813486,-10.344077,-5.671979,-69.918137,-8.762774
3.537500,-10.612963,-8.834182,-11.595819,-5.532431,-73.354141,-8.973932
3.543750,-10.719127,-8.856397,-12.419131,-5.399592,-76.770706,-9.189651
3.550000,-10.821686,-8.881364,-13.032880,-5.274610,-80.167000,-9.409339
3.556250,-10.915454,-8.909399,-13.666932,-5.158139,-83.540588,-9.631966
3.562500,-10.989369,-8.939597,-14.550162,-5.050573,-86.887581,-9.856164
3.568750,-11.033068,-8.970675,-15.904477,-4.952607,-90.206985,-10.080924
3.575000,-11.040629,-9.001327,-15.762323,-4.865169,-93.500023,-10.305708
3.581250,-11.011102,-9.030055,-15.652229,-4.788569,-96.766212,-10.529288
3.587500,-10.946023,-9.055918,-15.205907,-4.722785,-100.003777,-10.750191
3.593750,-10.851227,-9.078497,-15.968570,-4.667841,-103.213135,-10.967059
3.600000,-10.733942,-9.098130,-16.006245,-4.624036,-106.396881,-11.178717
3.606250,-10.598827,-9.115266,-15.589603,-4.591393,-109.557281,-11.384009
3.612500,-10.445930,-9.129817,-15.009568,-4.569518,-112.695084,-11.581301
3.618750,-10.272807,-9.140893,-14.565326,-4.557930,-115.810051,-11.768970
3.625000,-10.077436,-9.147532,-14.551412,-4.556424,-118.905579,-11.945678
3.631250,-9.862068,-9.148858,-15.239428,-4.564517,-121.985382,-12.110222
3.637500,-9.632488,-9.144299,-14.694923,-4.581433,-125.050323,-12.261209
3.643750,-9.396358,-9.133778,-14.465777,-4.606361,-128.103165,-12.397346
3.650000,-9.163423,-9.117946,-14.189437,-4.638681,-131.147385,-12.517458
3.656250,-8.941163,-9.097552,-13.503857,-4.677697,-134.187424,-12.620649
3.662500,-8.734995,-9.073630,-13.959814,-4.722699,-135.330978,-12.706105
3.668750,-8.545354,-9.046621,-13.626586,-4.772986,-136.202744,-12.772882
3.675000,-8.371481,-9.016553,-12.779797,-4.828032,-136.273056,-12.820526
3.681250,-8.212454,-8.983402,-11.717636,-4.887232,-135.052765,-12.848637
3.687500,-8.069209,-8.947014,-10.746204,-4.949891,-132.117188,-12.856973
3.693750,-7.945174,-8.907768,-10.164115,-5.015361,-127.127007,-12.845366
3.700000,-7.844951,-8.866106,-10.248158,-5.083103,-119.848465,-12.813842
3.706250,-7.772279,-8.823026,-9.072291,-5.152688,-110.163376,-12.762600
3.712500,-7.729914,-8.779400,-8.191273,-5.223734,-98.074814,-12.691935
3.718750,-7.717741,-8.736017,-7.246976,-5.295875,-83.706863,-12.602169
3.725000,-7.732804,-8.693152,-5.880888,-5.368741,-67.298424,-12.493673
3.731250,-7.772924,-8.650869,-5.648309,-5.441862,-49.191998,-12.366728
3.737500,-7.835427,-8.609214,-4.623907,-5.515016,-29.817410,-12.222127
3.743750,-7.920786,-8.568546,-3.088596,-5.588211,-9.670403,-12.061038
3.750000,-8.030061,-8.529364,-1.344126,-5.661295,10.714810,-11.884636
3.756250,-8.163554,-8.492018,0.300871,-5.733841,30.792011,-11.693645
3.762500,-8.320521,-8.457296,1.544222,-5.805511,50.028275,-11.489183
3.768750,-8.499497,-8.425769,2.105482,-5.876394,67.927887,-11.272783
3.775000,-8.696438,-8.397661,3.909209,-5.946607,84.061005,-11.046009
3.781250,-8.906463,-8.372959,5.400343,-6.015961,98.086288,-10.810345
3.787500,-9.125666,-8.351426,6.937815,-6.084264,109.768066,-10.566896
3.793750,-9.351851,-8.333113,6.984050,-6.151587,118.983940,-10.317209
3.800000,-9.584497,-8.318466,7.500012,-6.218132,125.732689,-10.062862
3.806250,-9.822505,-8.307878,8.258877,-6.283895,130.137161,-9.805303
3.812500,-10.063584,-8.301609,9.024041,-6.348897,132.436066,-9.545824
3.818750,-10.302319,-8.299707,9.560229,-6.413116,132.970154,-9.285664
3.825000,-10.533998,-8.301954,9.645405,-6.476754,132.167877,-9.026052
3.831250,-10.752579,-8.307641,9.082013,-6.539861,130.521271,-8.768228
3.837500,-10.954342,-8.316031,7.707294,-6.602497,128.564102,-8.513224
3.843750,-11.137961,-8.326636,7.569226,-6.664709,124.675224,-8.262097
3.850000,-11.306102,-8.339586,7.234736,-6.726526,120.750214,-8.015903
3.856250,-11.461407,-8.355542,5.283160,-6.787717,116.790535,-7.775526
3.862500,-11.602862,-8.374905,3.797013,-6.848164,112.797318,-7.541928
3.868750,-11.725184,-8.397616,2.669793,-6.907822,108.771332,-7.316209
3.875000,-11.820044,-8.422797,1.779387,-6.966609,104.713676,-7.099303
3.881250,-11.880276,-8.449253,0.994661,-7.024297,100.626465,-6.892028
3.887500,-11.900311,-8.475346,0.180946,-7.080698,96.510895,-6.695283
3.893750,-11.880066,-8.499768,-0.793644,-7.135747,92.368454,-6.509980
3.900000,-11.824102,-8.522038,-2.049588,-7.189425,88.201019,-6.336774
3.906250,-11.741069,-8.542716,-3.692379,-7.241373,84.012184,-6.176187
3.912500,-11.635558,-8.562420,-3.637908,-7.291649,79.804306,-6.028956
3.918750,-11.506402,-8.581273,-5.203550,-7.340461,75.579735,-5.895707
3.925000,-11.347982,-8.598618,-6.305708,-7.387758,71.343163,-5.776742
3.931250,-11.153515,-8.612886,-7.048944,-7.433236,67.100578,-5.672073
3.937500,-10.919615,-8.622454,-7.556911,-7.476661,62.855633,-5.581880
3.943750,-10.646835,-8.625390,-7.964029,-7.518222,58.610722,-5.506554
3.950000,-10.342382,-8.620563,-8.407131,-7.557733,54.370155,-5.446174
3.956250,-10.020457,-8.608346,-9.018754,-7.594854,50.139538,-5.400512
3.962500,-9.694855,-8.589951,-9.921527,-7.629156,45.923515,-5.369232
3.968750,-9.374229,-8.566669,-11.224361,-7.660725,41.724346,-5.352466
3.975000,-9.058923,-8.538899,-10.845474,-7.689437,37.544800,-5.350038
3.981250,-8.743786,-8.506108,-12.100387,-7.715109,33.388939,-5.361679
3.987500,-8.425088,-8.467074,-12.906309,-7.737588,29.259720,-5.387094
3.993750,-8.101715,-8.420593,-13.370040,-7.756875,25.159422,-5.426013
4.000000,-7.780121,-8.365783,-13.614634,-7.773124,21.089533,-5.478176
4.006250,-7.471210,-8.302757,-13.772913,-7.786397,17.051664,-5.543261
4.012500,-7.190905,-8.233111,-13.981297,-7.796893,13.046379,-5.620926
4.018750,-6.952539,-8.159386,-14.373640,-7.804828,9.073392,-5.710864
4.025000,-6.761406,-8.083713,-15.072705,-7.810420,5.133222,-5.812654
4.031250,-6.612430,-8.007133,-16.186323,-7.813680,1.225650,-5.925873
4.037500,-6.495082,-7.929259,-15.633944,-7.814794,-2.651048,-6.050130
4.043750,-6.400953,-7.849110,-14.838773,-7.813900,-6.498385,-6.185239
4.050000,-6.327492,-7.765804,-15.234591,-7.810969,-10.316655,-6.330591
4.056250,-6.279617,-7.679190,-14.773809,-7.805964,-14.107002,-6.485795
4.062500,-6.266391,-7.590185,-13.621161,-7.799101,-17.872368,-6.650738
4.068750,-6.299022,-7.500784,-11.974650,-7.790613,-21.615019,-6.825191
4.075000,-6.383115,-7.413265,-10.053977,-7.780383,-25.335773,-7.008761
4.081250,-6.514887,-7.328989,-8.093562,-7.768395,-29.035137,-7.201146
4.087500,-6.683219,-7.248017,-6.331645,-7.755290,-32.718224,-7.402556
4.093750,-6.874718,-7.169246,-4.996290,-7.741331,-36.388531,-7.613082
4.100000,-7.081860,-7.091465,-2.122190,-7.726557,-40.046482,-7.832302
4.106250,-7.302795,-7.013597,0.756556,-7.710939,-43.693565,-8.060050
4.112500,-7.542137,-6.935589,2.100505,-7.694996,-47.335148,-8.296616
4.118750,-7.807589,-6.858220,3.870086,-7.679289,-50.976761,-8.542369
4.125000,-8.107946,-6.783246,5.839737,-7.663694,-54.621578,-8.797203
4.131250,-8.444426,-6.712238,7.774286,-7.647924,-58.271751,-9.060815
4.137500,-8.810076,-6.645739,9.436900,-7.632099,-61.934361,-9.333553
4.143750,-9.194198,-6.583238,10.602567,-7.616711,-65.618095,-9.616063
4.150000,-9.587040,-6.523685,11.076418,-7.601533,-69.329453,-9.908275
4.156250,-9.984115,-6.466123,10.699119,-7.586200,-73.072296,-10.209905
4.162500,-10.386446,-6.410078,11.518643,-7.570744,-76.855408,-10.520892
4.168750,-10.797662,-6.355578,12.101891,-7.555317,-80.687523,-10.841247
4.175000,-11.223343,-6.303304,11.029787,-7.539961,-84.577141,-11.170664
4.181250,-11.667310,-6.254315,10.388260,-7.524634,-88.531601,-11.508867
4.187500,-12.128747,-6.209350,10.072929,-7.509501,-92.560020,-11.855553
4.193750,-12.602346,-6.168489,9.962302,-7.494733,-96.671814,-12.210602
4.200000,-13.079898,-6.130915,9.926744,-7.480325,-100.876213,-12.573213
4.206250,-13.556311,-6.095747,9.831815,-7.466315,-105.183273,-12.942643
4.212500,-14.030940,-6.062304,9.544979,-7.452841,-107.711510,-13.317805
4.218750,-14.506268,-6.030497,8.944216,-7.439935,-110.094978,-13.697164
4.225000,-14.986624,-6.000670,7.923952,-7.427373,-111.814056,-14.078518
4.231250,-15.474803,-5.973481,8.567120,-7.414949,-112.388802,-14.459855
4.237500,-15.971910,-5.949565,7.557008,-7.402634,-111.403786,-14.838951
4.243750,-16.474817,-5.929164,6.977113,-7.390049,-108.526962,-15.213035
4.250000,-16.978437,-5.912008,6.723553,-7.376875,-103.528259,-15.579052
4.256250,-17.477465,-5.897526,6.674025,-7.363085,-96.293114,-15.933687
4.262500,-17.969364,-5.885172,6.696457,-7.348741,-86.826492,-16.273394
4.268750,-18.454060,-5.874551,6.658201,-7.333548,-75.247688,-16.594234
4.275000,-18.933744,-5.865676,6.430388,-7.317401,-61.788490,-16.891886
4.281250,-19.410419,-5.858781,5.891058,-7.300485,-46.780857,-17.162849
4.287500,-19.885349,-5.854194,4.933238,-7.283115,-30.638103,-17.403833
4.293750,-20.357883,-5.851984,5.641612,-7.265298,-13.831409,-17.611816
4.300000,-20.826475,-5.852002,4.702225,-7.246920,3.132257,-17.784147
4.306250,-21.287907,-5.853973,4.197285,-7.227971,19.733248,-17.919291
4.312500,-21.741507,-5.857647,4.018364,-7.208635,35.465141,-18.016220
4.318750,-22.187807,-5.862823,4.042656,-7.188686,49.865120,-18.074303
4.325000,-22.627832,-5.869574,4.138596,-7.167825,62.536564,-18.093437
4.331250,-23.062143,-5.878025,4.168651,-7.145988,73.168991,-18.074345
4.337500,-23.490572,-5.888275,3.999537,-7.123003,81.554855,-18.018541
4.343750,-23.911598,-5.900190,3.509533,-7.098602,87.602211,-17.928204
4.350000,-24.323717,-5.913589,2.592777,-7.072635,91.337708,-17.806234
4.356250,-24.725216,-5.928152,3.331849,-7.045407,92.906425,-17.656565
4.362500,-25.115419,-5.943607,2.411291,-7.016828,92.565948,-17.483023
4.368750,-25.495161,-5.959994,1.917206,-6.986627,90.674187,-17.289639
4.375000,-25.865170,-5.977333,1.744261,-6.954940,87.668755,-17.080214
4.381250,-26.226200,-5.995772,1.768398,-6.922423,84.045937,-16.859116
4.387500,-26.576918,-6.015262,1.857238,-6.889342,80.339622,-16.629801
4.393750,-26.915871,-6.035590,1.877925,-6.855653,74.930389,-16.395164
4.400000,-27.241583,-6.056346,1.698351,-6.821422,69.710663,-16.158274
4.406250,-27.553095,-6.077155,1.194661,-6.787037,64.675659,-15.922306
4.412500,-27.852425,-6.097878,0.259638,-6.752613,59.818207,-15.689692
4.418750,-28.141830,-6.118676,0.977336,-6.717782,55.131516,-15.462219
4.425000,-28.423727,-6.139960,0.031157,-6.682642,50.603828,-15.241669
4.431250,-28.698736,-6.162047,-0.498275,-6.647333,46.221806,-15.029396
4.437500,-28.965740,-6.184973,-0.716251,-6.611794,41.972462,-14.826337
4.443750,-29.221811,-6.208542,-0.742921,-6.575634,37.844669,-14.632786
4.450000,-29.463905,-6.232169,-0.709424,-6.538999,33.825756,-14.448921
4.456250,-29.690685,-6.255248,-0.751366,-6.502254,29.904648,-14.275335
4.462500,-29.902649,-6.277275,-0.999548,-6.465513,26.072142,-14.112119
4.468750,-30.103895,-6.298248,-1.572582,-6.428710,22.322041,-13.958982
4.475000,-30.298214,-6.318563,-2.574423,-6.392103,18.646870,-13.815849
4.481250,-30.488504,-6.338755,-1.922830,-6.356023,15.037087,-13.682909
4.487500,-30.674437,-6.359095,-2.933162,-6.320790,11.486991,-13.559975
4.493750,-30.853682,-6.379464,-3.521486,-6.286446,7.990917,-13.446763
4.500000,-31.021963,-6.399313,-3.793733,-6.253186,4.545189,-13.343206
4.506250,-31.176773,-6.417918,-3.872069,-6.221016,1.145313,-13.248824
4.512500,-31.318378,-6.434603,-3.887779,-6.189569,-2.210864,-13.163225
4.518750,-31.449642,-6.449121,-3.976975,-6.158864,-5.527516,-13.086267
4.525000,-31.576717,-6.461889,-4.272773,-6.129084,-8.809366,-13.017906
4.531250,-31.704376,-6.473663,-4.896305,-6.100164,-12.059182,-12.958116
4.537500,-31.835203,-6.485257,-5.949860,-6.071380,-15.277182,-12.906155
4.543750,-31.967117,-6.497013,-5.348671,-6.042661,-18.466290,-12.861967
4.550000,-32.096085,-6.508685,-6.411536,-6.014714,-21.633347,-12.825856
4.556250,-32.217220,-6.519630,-7.053939,-5.987841,-24.782623,-12.797921
4.562500,-32.327759,-6.528926,-7.376290,-5.961603,-27.913210,-12.777406
4.568750,-32.429562,-6.535997,-7.497731,-5.935884,-31.026608,-12.763785
4.575000,-32.527561,-6.540763,-7.552777,-5.911213,-34.129257,-12.757253
4.581250,-32.628662,-6.543947,-7.677004,-5.888074,-37.225117,-12.757785
4.587500,-32.738689,-6.546491,-7.999414,-5.865966,-40.313881,-12.764435
4.593750,-32.859688,-6.549318,-8.640217,-5.844658,-43.394863,-12.776813
4.600000,-32.988667,-6.552731,-9.709933,-5.824815,-46.473091,-12.795307
4.606250,-33.120163,-6.556383,-9.126038,-5.806483,-49.551384,-12.819787
4.612500,-33.249508,-6.559491,-10.201046,-5.788975,-52.626961,-12.849556
4.618750,-33.374557,-6.561386,-10.850432,-5.771749,-55.698193,-12.883946
4.625000,-33.498085,-6.561669,-11.183110,-5.755106,-58.769630,-12.923313
4.631250,-33.625217,-6.560633,-11.323171,-5.739300,-61.846268,-12.967844
4.637500,-33.762646,-6.559355,-11.399756,-5.723744,-64.927086,-13.017099
4.643750,-33.914616,-6.559033,-11.543992,-5.707990,-68.011436,-13.070482
4.650000,-34.079479,-6.560596,-11.891648,-5.692615,-71.105019,-13.128664
4.656250,-34.251995,-6.564272,-12.566822,-5.678308,-74.213554,-13.192398
4.662500,-34.424145,-6.569531,-13.672369,-5.664989,-77.336380,-13.261633
4.668750,-34.589798,-6.575568,-13.121623,-5.652559,-80.473740,-13.336396
4.675000,-34.745586,-6.581429,-12.337719,-5.641573,-83.627930,-13.417792
4.681250,-34.892010,-6.586654,-12.756259,-5.632864,-86.798920,-13.505561
4.687500,-35.034679,-6.591602,-12.327847,-5.626404,-89.976227,-13.597951
4.693750,-35.177364,-6.596841,-11.211153,-5.621939,-93.157982,-13.694605
4.700000,-35.320980,-6.602923,-9.604144,-5.619724,-96.348610,-13.795643
4.706250,-35.461918,-6.609967,-7.729499,-5.620039,-99.543839,-13.900685
4.712500,-35.594631,-6.617505,-5.820032,-5.625407,-102.733002,-14.008080
4.718750,-35.712624,-6.624317,-4.107334,-5.630532,-105.906708,-14.116131
4.725000,-35.812611,-6.629178,-2.819718,-5.637887,-109.059402,-14.222681
4.731250,-35.895096,-6.631055,0.010764,-5.647253,-112.187477,-14.325880
4.737500,-35.965290,-6.629329,2.851313,-5.658291,-115.292442,-14.423668
4.743750,-36.030956,-6.624200,4.169116,-5.670814,-118.378883,-14.514580
4.750000,-36.100018,-6.616352,5.928090,-5.684639,-121.457314,-14.597171
