Anritsu VNA Frequency[GHz],S21[deg],S21[dB],S11[deg],S11[dB],S22[deg],S22[dB]
1337938715.57,2012_05_25_10:38:35,+297.74,+297.57,+02.989,+297.46,+296.90,+297.76,+297.45,+297.80,243.096451,-6.567
4.006250,168.426041,-14.421909,-148.413544,-1.828911,-131.289429,-18.449888
4.012500,167.604126,-14.934181,-114.502357,-1.722859,-140.270386,-18.110573
4.018750,166.682312,-15.467793,-80.543724,-1.630983,-148.836197,-17.674604
4.025000,165.105316,-16.125847,-46.650417,-1.553953,-157.360382,-17.225534
4.031250,163.509949,-16.992474,-12.760795,-1.499461,-165.283508,-16.695967
4.037500,162.261719,-18.020813,21.225845,-1.460282,-172.589539,-16.221954
4.043750,162.213196,-19.076340,55.207199,-1.433481,-179.207794,-15.727446
4.050000,164.072418,-20.127003,89.291763,-1.407336,174.576752,-15.291044
4.056250,167.847122,-20.970980,123.190025,-1.393630,168.820770,-14.902911
4.062500,173.626724,-21.547201,157.110580,-1.366404,163.320526,-14.540583
4.068750,-179.672424,-21.850775,-168.987061,-1.350860,157.998322,-14.208169
4.075000,-172.206909,-21.910982,-135.086838,-1.337848,152.793976,-13.888934
4.081250,-164.954361,-21.759045,-101.131691,-1.323568,147.551941,-13.578964
4.087500,-158.401855,-21.471411,-67.153412,-1.318928,142.308990,-13.263720
4.093750,-151.989243,-21.033236,-33.047638,-1.323408,137.071259,-12.959445
4.100000,-146.324036,-20.430758,1.175531,-1.341544,131.940460,-12.644198
4.106250,-140.992828,-19.656534,35.355728,-1.365405,126.885300,-12.347584
4.112500,-136.249664,-18.712063,69.572380,-1.401360,122.056854,-12.050387
4.118750,-132.789383,-17.672113,103.778320,-1.453384,117.464241,-11.772491
4.125000,-131.009277,-16.678585,138.061783,-1.515357,113.102585,-11.500689
4.131250,-131.320786,-15.849045,172.255157,-1.559812,108.869171,-11.245399
4.137500,-132.900696,-15.223445,-153.467300,-1.613633,104.828896,-11.031905
4.143750,-135.019928,-14.807826,-119.209305,-1.682689,100.895058,-10.840785
4.150000,-136.746628,-14.446246,-85.006584,-1.743059,97.036766,-10.669715
4.156250,-137.659088,-14.013078,-50.740429,-1.822362,93.020988,-10.532560
4.162500,-137.814529,-13.433227,-16.455713,-1.908376,89.065170,-10.410736
4.168750,-137.955139,-12.705880,18.127748,-2.003016,85.083084,-10.291458
4.175000,-138.875381,-11.983905,52.609520,-2.093469,81.125946,-10.187490
4.181250,-141.342041,-11.377025,87.064728,-2.185790,77.092010,-10.078266
4.187500,-145.143066,-11.011680,121.456108,-2.300392,72.857376,-9.978938
4.193750,-149.367645,-10.861835,156.065399,-2.411852,68.814873,-9.866299
4.200000,-153.137314,-10.834840,-169.162537,-2.510865,64.919167,-9.734698
4.206250,-155.641815,-10.766792,-134.433395,-2.629656,61.077595,-9.611941
4.212500,-156.959335,-10.561213,-99.554787,-2.750541,57.191265,-9.522435
4.218750,-157.361450,-10.153611,-64.534531,-2.857789,53.511745,-9.441358
4.225000,-157.855591,-9.628028,-29.116390,-2.949569,49.982624,-9.364659
4.231250,-159.342056,-9.098746,6.026544,-3.032997,46.504681,-9.313454
4.237500,-162.184860,-8.694336,40.979588,-3.142857,42.996597,-9.319737
4.243750,-165.906586,-8.459889,75.841164,-3.256974,39.447594,-9.331704
4.250000,-169.933060,-8.368706,110.749634,-3.359382,35.927273,-9.347463
4.256250,-173.442795,-8.330810,145.530746,-3.447790,32.432796,-9.362724
4.262500,-176.069244,-8.252665,-179.869934,-3.554953,28.679548,-9.397632
4.268750,-177.922653,-8.063111,-145.027466,-3.660758,24.813683,-9.425236
4.275000,-179.509171,-7.784852,-110.033821,-3.743887,20.953527,-9.430616
4.281250,178.603226,-7.495990,-75.011566,-3.852809,17.090223,-9.442160
4.287500,176.056046,-7.253808,-39.952950,-3.965385,13.138317,-9.452707
4.293750,172.981628,-7.114234,-4.531285,-4.109627,9.390222,-9.474473
4.300000,169.741180,-7.043460,30.814795,-4.255854,5.689629,-9.491831
4.306250,166.777039,-6.998089,66.098396,-4.407288,2.152795,-9.530846
4.312500,164.341278,-6.916884,101.305420,-4.566187,-1.444913,-9.583934
4.318750,162.435257,-6.750246,136.636887,-4.723307,-4.859948,-9.661018
4.325000,160.539429,-6.516831,171.805328,-4.879280,-8.294785,-9.736620
4.331250,158.336823,-6.285645,-152.921310,-5.026095,-11.867390,-9.842330
4.337500,155.550446,-6.105244,-117.561508,-5.165655,-15.351933,-9.941048
4.343750,152.432617,-6.017208,-82.149300,-5.305331,-18.917320,-10.055438
4.350000,149.203064,-5.997967,-46.724205,-5.441686,-22.688528,-10.189231
4.356250,146.317322,-5.988237,-11.290955,-5.588213,-26.489218,-10.308747
4.362500,143.883209,-5.931760,24.376120,-5.704376,-30.243109,-10.413489
4.368750,141.756500,-5.823166,60.119106,-5.836538,-34.064831,-10.504783
4.375000,139.695709,-5.671584,95.800011,-5.973051,-37.839611,-10.608157
4.381250,137.241928,-5.537961,131.557190,-6.096903,-41.623287,-10.702845
4.387500,134.380096,-5.464886,167.365341,-6.221412,-45.332539,-10.799340
4.393750,131.224762,-5.487571,-156.766846,-6.347698,-49.075035,-10.913136
4.400000,128.277573,-5.549387,-120.953926,-6.506183,-52.743076,-11.042424
4.406250,125.893005,-5.594741,-84.932503,-6.626080,-56.303104,-11.168962
4.412500,124.093597,-5.543128,-48.738255,-6.735432,-59.743698,-11.295050
4.418750,122.703606,-5.376020,-12.747288,-6.870272,-63.411167,-11.467193
4.425000,121.183945,-5.128122,23.141008,-7.022799,-67.327583,-11.665685
4.431250,119.001282,-4.896558,59.352123,-7.124603,-70.864349,-11.810441
4.437500,115.835854,-4.779244,95.665947,-7.183276,-74.554382,-11.925775
4.443750,112.027756,-4.818589,131.624313,-7.315309,-78.727112,-12.134830
4.450000,108.135521,-4.978447,167.219513,-7.485048,-83.397034,-12.366134
4.456250,104.979561,-5.178358,-156.560242,-7.554633,-87.633003,-12.535092
4.462500,102.759499,-5.314858,-119.864014,-7.530583,-91.367569,-12.576591
4.468750,101.462997,-5.306990,-83.577934,-7.528080,-95.426651,-12.660710
4.475000,100.655014,-5.146473,-47.724113,-7.619216,-99.974609,-12.823461
4.481250,99.557579,-4.901794,-11.615387,-7.679302,-104.353691,-12.970675
4.487500,97.501091,-4.708026,24.969780,-7.682525,-108.363617,-13.092982
4.493750,94.438393,-4.641926,61.482933,-7.727096,-112.256493,-13.332487
4.500000,90.729240,-4.744017,97.638397,-7.829836,-116.386864,-13.693105
4.506250,87.284035,-4.931144,134.102844,-7.869337,-119.821777,-14.003180
4.512500,84.632141,-5.110638,170.839478,-7.842394,-122.476761,-14.217856
4.518750,82.877441,-5.192512,-153.012268,-7.877315,-125.162178,-14.417729
4.525000,81.878326,-5.141957,-117.370659,-7.975890,-128.214951,-14.616016
4.531250,80.973251,-4.961972,-81.403427,-8.014754,-131.385406,-14.719170
4.537500,79.540459,-4.753890,-45.078442,-7.979701,-134.522263,-14.740469
4.543750,77.219513,-4.617562,-9.007149,-7.981977,-138.316406,-14.789525
4.550000,74.017448,-4.630988,26.671591,-8.046943,-142.851196,-14.897493
4.556250,70.515213,-4.775064,62.807278,-8.045242,-146.856674,-14.940972
4.562500,67.495758,-4.980691,99.396652,-7.969580,-150.388138,-14.862790
4.568750,65.390045,-5.135739,135.671585,-7.920461,-154.025772,-14.801563
4.575000,64.249352,-5.170751,171.518661,-7.928614,-157.883133,-14.801172
4.581250,63.676388,-5.032984,-152.658218,-7.949073,-161.720840,-14.828896
4.587500,62.963711,-4.789556,-116.658783,-7.972665,-165.182632,-14.881165
4.593750,61.308331,-4.562673,-80.690857,-8.016474,-168.460754,-14.979582
4.600000,58.577702,-4.453344,-44.612392,-8.036479,-171.846115,-15.081416
4.606250,55.077671,-4.514140,-8.337770,-8.029473,-174.957260,-15.161054
4.612500,51.558792,-4.700385,27.706770,-8.044410,-177.994415,-15.267760
4.618750,48.676857,-4.912646,63.565407,-8.117698,178.559982,-15.423842
4.625000,46.743763,-5.064556,99.742500,-8.135260,175.337616,-15.487713
4.631250,45.768391,-5.091715,136.419800,-8.050133,172.426865,-15.453773
4.637500,45.162579,-4.962460,172.678513,-8.001713,168.961411,-15.401322
4.643750,44.357861,-4.741144,-151.706009,-8.041822,165.160202,-15.423711
4.650000,42.739651,-4.529394,-115.990608,-8.073689,161.288055,-15.408438
4.656250,40.122341,-4.427103,-79.783684,-8.001341,158.072052,-15.331850
4.662500,36.829128,-4.476261,-43.765182,-7.941121,154.751724,-15.263750
4.668750,33.431923,-4.636082,-8.296913,-7.970975,151.031311,-15.312901
4.675000,30.660221,-4.817651,27.446634,-7.955205,147.739700,-15.321810
4.681250,28.837471,-4.937412,63.795132,-7.832715,145.274429,-15.240232
4.687500,27.755724,-4.923892,99.767509,-7.784574,142.502655,-15.198137
4.693750,26.993847,-4.794752,135.069122,-7.857318,139.056244,-15.259653
4.700000,25.852791,-4.604664,170.760895,-7.924895,135.909592,-15.335569
4.706250,23.881865,-4.465497,-152.795013,-7.862168,133.382202,-15.296578
4.712500,20.999279,-4.447480,-116.411354,-7.806819,130.753174,-15.290544
4.718750,17.768358,-4.558994,-80.975250,-7.884826,127.557945,-15.435102
4.725000,14.693799,-4.747276,-45.524471,-7.948601,124.612595,-15.556892
4.731250,12.285314,-4.935017,-9.234945,-7.861334,122.622856,-15.529644
4.737500,10.737924,-5.045464,26.896713,-7.764963,120.688545,-15.495891
4.743750,9.920177,-5.038780,62.197720,-7.791590,117.756050,-15.558380
4.750000,9.237600,-4.929222,97.523827,-7.797418,115.089767,-15.573254
4.756250,8.269907,-4.778384,133.725479,-7.660294,113.212639,-15.335652
4.762500,6.776005,-4.607629,169.789261,-7.484167,111.775955,-14.890036
4.768750,4.782721,-4.441537,-155.267838,-7.541605,108.464584,-14.648581
4.775000,2.036193,-4.433647,-120.965141,-7.726334,102.872307,-14.731847
4.781250,-1.275896,-4.553900,-85.390823,-7.783925,98.285423,-14.827787
4.787500,-4.055482,-4.703818,-49.194969,-7.781181,95.021172,-14.877391
4.793750,-5.893192,-4.778699,-13.560994,-7.853118,91.913467,-15.000308
4.800000,-7.082018,-4.752964,21.703482,-7.981989,88.607552,-15.212086
4.806250,-8.178599,-4.646637,57.549332,-8.017880,85.892570,-15.393846
4.812500,-9.643261,-4.527481,93.774742,-7.986189,83.862801,-15.544779
4.818750,-11.624782,-4.447598,129.536758,-7.988443,81.452423,-15.721341
4.825000,-14.066319,-4.438424,164.927551,-8.053311,78.809105,-15.936966
4.831250,-16.677422,-4.485539,-159.445404,-8.088717,76.300972,-16.035238
4.837500,-19.090809,-4.564690,-123.447334,-8.098208,73.824997,-16.115545
4.843750,-21.137085,-4.606709,-87.598404,-8.124907,71.024879,-16.216269
4.850000,-22.803162,-4.594457,-51.829952,-8.182076,67.897453,-16.338755
4.856250,-24.292027,-4.535361,-16.070295,-8.222023,65.151215,-16.420727
4.862500,-25.988642,-4.461730,19.743891,-8.254235,62.419384,-16.511957
4.868750,-28.007170,-4.410450,55.372250,-8.318633,59.791576,-16.604025
4.875000,-30.342705,-4.405313,90.984970,-8.384395,57.225105,-16.775024
4.881250,-32.704315,-4.437156,126.662315,-8.436731,54.870235,-16.973110
4.887500,-34.976509,-4.485363,162.443008,-8.489161,52.379868,-17.319395
4.893750,-36.984886,-4.512823,-161.789291,-8.553198,50.039280,-17.735977
4.900000,-38.837807,-4.524026,-126.001099,-8.613846,48.803001,-18.011951
4.906250,-40.579170,-4.498969,-90.174355,-8.674123,48.470840,-18.144039
4.912500,-42.304386,-4.458714,-54.314758,-8.727057,47.458511,-18.293972
4.918750,-44.261429,-4.425107,-18.369654,-8.776449,45.794193,-18.468294
4.925000,-46.421959,-4.426192,17.604883,-8.815900,43.629932,-18.680412
4.931250,-48.651413,-4.460827,53.438408,-8.871477,41.223064,-18.941530
4.937500,-50.858578,-4.502610,89.269974,-8.927092,38.661045,-19.215351
4.943750,-52.740547,-4.527806,125.193192,-8.963726,36.315788,-19.442217
4.950000,-54.513535,-4.513876,161.199966,-9.018369,34.032753,-19.671814
4.956250,-56.187496,-4.465495,-162.969894,-9.116984,31.480631,-19.916229
4.962500,-58.046318,-4.408333,-126.947609,-9.215912,29.281246,-20.161119
4.968750,-60.169102,-4.381827,-90.635033,-9.279400,27.706345,-20.365139
4.975000,-62.539623,-4.409527,-54.134357,-9.326605,26.592484,-20.583532
4.981250,-65.039497,-4.480212,-17.869728,-9.405592,25.835579,-20.755461
4.987500,-67.384628,-4.583612,18.367954,-9.432503,25.811602,-20.751259
4.993750,-69.421700,-4.704832,54.752216,-9.390222,26.274849,-20.569710
5.000000,-70.873833,-4.751295,90.911072,-9.343639,25.187107,-20.509403
5.006250,-71.800583,-4.678213,126.224579,-9.379830,21.497295,-20.881130
5.012500,-72.768501,-4.520869,161.341690,-9.452025,16.553326,-21.567886
5.018750,-74.284996,-4.382203,-162.927460,-9.460567,12.464940,-22.366266
5.025000,-76.509125,-4.305905,-126.992188,-9.479762,8.611802,-23.277681
5.031250,-79.038864,-4.300072,-91.435608,-9.604753,4.870701,-24.232924
5.037500,-81.735474,-4.346937,-55.700790,-9.751020,0.996868,-25.124481
5.043750,-84.194427,-4.414326,-18.970051,-9.780729,-1.702708,-25.777208
5.050000,-86.265968,-4.472417,17.860683,-9.793583,-4.851014,-26.451088
5.056250,-88.019981,-4.481605,54.057663,-9.931335,-9.214291,-27.224697
5.062500,-89.594429,-4.434565,89.933167,-10.105549,-13.869476,-28.225752
5.068750,-91.278664,-4.360520,126.535454,-10.162843,-16.686703,-29.005533
5.075000,-93.202164,-4.300722,163.448166,-10.158889,-18.340288,-30.069323
5.081250,-95.418213,-4.281960,-160.307693,-10.250358,-19.729836,-31.630369
5.087500,-97.812431,-4.302881,-124.541832,-10.374691,-20.212650,-33.304913
5.093750,-100.207466,-4.345600,-87.920883,-10.371712,-17.898308,-35.761055
5.100000,-102.426765,-4.378372,-50.954868,-10.303509,-14.582364,-39.462318
5.106250,-104.357010,-4.403734,-14.564914,-10.323489,-5.791412,-46.679001
5.112500,-106.225067,-4.396791,21.375608,-10.403351,19.599783,-45.769630
5.118750,-108.089966,-4.377479,57.866043,-10.398015,110.816727,-39.108376
5.125000,-110.092575,-4.348076,94.824326,-10.345341,133.361176,-35.260021
5.131250,-112.243301,-4.351841,131.307602,-10.366517,140.089783,-32.758076
5.137500,-114.468933,-4.376104,167.460175,-10.410499,142.352371,-31.081861
5.143750,-116.598343,-4.407320,-155.807953,-10.383232,143.758636,-29.581755
5.150000,-118.571777,-4.412151,-118.929497,-10.339558,143.570938,-28.561319
5.156250,-120.459061,-4.401223,-82.388062,-10.321633,142.376801,-27.640656
5.162500,-122.328735,-4.369746,-45.977894,-10.312464,139.967102,-26.833735
5.168750,-124.401970,-4.337301,-9.232098,-10.264969,137.256760,-26.055876
5.175000,-126.674187,-4.339426,27.560699,-10.240350,133.335175,-25.383698
5.181250,-129.070770,-4.387092,63.884312,-10.267214,130.100006,-24.654163
5.187500,-131.478134,-4.459465,100.446526,-10.221918,126.922272,-23.859684
5.193750,-133.639648,-4.532085,137.547821,-10.060923,124.422226,-23.017172
5.200000,-135.402206,-4.563505,174.001785,-9.956589,121.768143,-22.199953
5.206250,-136.938583,-4.529598,-150.319336,-9.971316,118.599556,-21.566500
5.212500,-138.449051,-4.447393,-114.405800,-9.923482,115.819817,-20.960403
5.218750,-140.261368,-4.361296,-77.604576,-9.740727,113.983360,-20.356829
5.225000,-142.560226,-4.311379,-41.017094,-9.588492,111.964874,-19.828438
5.231250,-145.349197,-4.342567,-5.339058,-9.596361,109.765045,-19.496717
5.237500,-148.267044,-4.451359,30.766735,-9.552527,107.783592,-19.101887
5.243750,-150.933350,-4.602935,67.876328,-9.379276,106.878136,-18.619915
5.250000,-153.098770,-4.728667,104.736839,-9.218229,105.233704,-18.190563
5.256250,-154.589294,-4.781383,140.719162,-9.214308,102.509834,-17.912195
5.262500,-155.710434,-4.735039,176.517197,-9.180692,99.811989,-17.695375
5.268750,-156.971039,-4.612457,-146.980942,-9.034885,97.880852,-17.403095
5.275000,-158.628860,-4.499599,-110.572525,-8.895570,95.673882,-17.124264
5.281250,-161.021301,-4.448288,-74.975975,-8.857491,93.012329,-16.889473
5.287500,-163.917374,-4.502736,-39.468056,-8.792768,90.477600,-16.630627
5.293750,-166.938141,-4.635311,-3.312160,-8.631491,88.486404,-16.307310
5.300000,-169.595734,-4.797487,32.852154,-8.465072,86.255333,-16.013662
5.306250,-171.574142,-4.913092,68.525253,-8.352639,83.527313,-15.759416
5.312500,-172.874100,-4.930151,104.199760,-8.244007,80.866837,-15.525199
5.318750,-173.970108,-4.837021,140.251419,-8.102182,78.636566,-15.251690
5.325000,-175.343887,-4.701438,176.072205,-8.008102,76.256783,-15.011042
5.331250,-177.445648,-4.599874,-148.362595,-7.959044,73.794769,-14.820672
5.337500,179.742203,-4.598784,-112.548599,-7.870688,71.520332,-14.621581
5.343750,176.487671,-4.728831,-76.352409,-7.724099,69.660805,-14.383776
5.350000,173.410004,-4.932948,-40.489254,-7.617636,67.495247,-14.222411
5.356250,170.951645,-5.142940,-4.995237,-7.565088,64.911118,-14.128478
5.362500,169.387283,-5.256896,30.688166,-7.470125,62.509148,-13.998257
5.368750,168.509735,-5.243742,66.551872,-7.338139,60.491901,-13.808086
5.375000,167.704483,-5.120340,102.196411,-7.251400,58.141651,-13.662141
5.381250,166.429382,-4.952653,137.414200,-7.199810,55.447937,-13.564368
5.387500,164.327606,-4.837912,172.819168,-7.142965,52.791565,-13.461186
5.393750,161.460846,-4.836916,-151.583649,-7.028713,50.467617,-13.310331
5.400000,158.264709,-4.944508,-116.008308,-6.915295,48.049637,-13.155512
5.406250,155.198868,-5.131001,-80.700546,-6.827524,45.513058,-13.039306
5.412500,152.766205,-5.298841,-45.403843,-6.727519,43.130257,-12.893674
5.418750,151.102646,-5.381650,-10.023690,-6.624003,40.781120,-12.760431
5.425000,149.842560,-5.363203,25.440598,-6.530184,38.211430,-12.667893
5.431250,148.523773,-5.286182,60.927879,-6.450207,35.615246,-12.582030
5.437500,146.676529,-5.215263,96.569725,-6.367773,33.083900,-12.495653
5.443750,144.125061,-5.228446,132.188080,-6.292804,30.508354,-12.430894
5.450000,141.260483,-5.343336,167.667343,-6.235182,27.936172,-12.364085
5.456250,138.531693,-5.519480,-156.844742,-6.193485,25.360680,-12.265725
5.462500,136.334442,-5.674829,-121.368233,-6.142582,22.766504,-12.166767
5.468750,134.913467,-5.728183,-86.106171,-6.102689,20.000463,-12.099396
5.475000,133.984818,-5.663461,-50.845539,-6.059948,17.223047,-12.053370
5.481250,132.965317,-5.510126,-15.576465,-5.978967,14.593886,-11.975210
5.487500,131.265625,-5.352634,19.720139,-5.883735,11.971093,-11.914091
5.493750,128.626495,-5.296939,54.689793,-5.825756,9.324153,-11.897141
5.500000,125.273544,-5.376849,89.671600,-5.776964,6.454469,-11.856888
5.506250,121.726189,-5.586121,124.973335,-5.696923,3.792627,-11.786482
5.512500,118.713295,-5.830841,160.462494,-5.597197,1.010692,-11.709975
5.518750,116.643044,-6.023188,-164.258041,-5.536491,-2.157711,-11.676657
5.525000,115.384300,-6.085491,-129.034348,-5.504176,-5.615255,-11.652642
5.531250,114.479256,-6.019616,-93.703545,-5.452366,-8.735421,-11.629504
5.537500,113.264076,-5.900187,-58.228859,-5.403684,-11.845149,-11.584867
5.543750,111.293137,-5.841456,-22.964384,-5.383305,-15.109391,-11.581474
5.550000,108.463219,-5.913190,12.246169,-5.357725,-18.425056,-11.569862
5.556250,105.323151,-6.111573,47.556477,-5.321722,-21.701025,-11.581994
5.562500,102.639717,-6.341665,82.819817,-5.281505,-25.144897,-11.658584
5.568750,100.855446,-6.505223,117.803848,-5.263821,-28.788931,-11.801220
5.575000,100.044693,-6.508663,152.940475,-5.226285,-32.150280,-11.928594
5.581250,99.523300,-6.353106,-171.960052,-5.178703,-35.395920,-12.091024
5.587500,98.502304,-6.138875,-137.077606,-5.178183,-38.633770,-12.304161
5.593750,96.361824,-5.980494,-102.399193,-5.210603,-41.769901,-12.530241
5.600000,93.145508,-5.965313,-67.215164,-5.191331,-44.180428,-12.649277
5.606250,89.340652,-6.131593,-31.641676,-5.106383,-45.963314,-12.641356
5.612500,85.691002,-6.426885,3.757056,-5.049199,-47.902020,-12.584111
5.618750,82.763741,-6.756255,38.702332,-5.045041,-50.470249,-12.564576
5.625000,81.220787,-6.979643,73.920372,-5.034680,-53.041965,-12.485915
5.631250,80.790718,-6.994368,109.541809,-4.977939,-55.396297,-12.340775
5.637500,80.828537,-6.791434,145.003891,-4.969916,-58.224525,-12.219793
5.643750,80.338501,-6.467963,-179.838913,-4.990867,-61.575047,-12.170890
5.650000,78.542221,-6.192526,-144.452332,-4.982707,-64.808502,-12.114443
5.656250,75.118477,-6.097653,-108.892807,-4.925187,-67.767769,-11.984786
5.662500,70.661995,-6.248647,-73.618210,-4.904099,-71.067329,-11.929581
5.668750,66.226372,-6.573340,-38.846230,-4.906495,-74.987457,-11.910887
5.675000,62.850338,-6.907804,-3.935103,-4.876386,-78.607803,-11.851130
5.681250,60.964825,-7.099900,31.329567,-4.817656,-82.291847,-11.782461
5.687500,60.181290,-7.079436,66.333961,-4.793223,-86.279350,-11.744294
5.693750,59.443466,-6.875862,101.195244,-4.756196,-90.612877,-11.707666
5.700000,57.685638,-6.664381,136.403503,-4.681467,-94.736649,-11.624301
