Anritsu VNA Frequency[GHz],S21[deg],S21[dB],S11[deg],S11[dB],S22[deg],S22[dB]
1337938578.59,2012_05_25_10:36:18,+297.73,+297.56,+02.989,+297.45,+296.89,+297.75,+297.44,+297.79,243.085953,-6.569
4.006250,-59.915848,-6.374635,179.430984,-7.144514,-137.893875,-18.066269
4.012500,-61.097740,-6.225070,-145.088821,-7.147502,-146.528442,-17.629082
4.018750,-62.717274,-6.070200,-109.952309,-7.228447,-155.148834,-17.223248
4.025000,-65.159332,-5.999201,-74.695007,-7.282252,-163.416000,-16.720720
4.031250,-68.249374,-6.071880,-39.045895,-7.273195,-170.325195,-16.143297
4.037500,-71.447243,-6.258551,-3.416533,-7.278105,-176.890198,-15.590679
4.043750,-74.102676,-6.474505,31.733105,-7.330002,177.004059,-15.137797
4.050000,-75.759995,-6.602468,66.770050,-7.397171,171.123444,-14.770694
4.056250,-76.514748,-6.588157,102.109909,-7.418937,165.918167,-14.409575
4.062500,-76.934296,-6.418636,137.648468,-7.401938,160.909378,-14.061467
4.068750,-77.849686,-6.167856,172.990311,-7.401037,155.956192,-13.764017
4.075000,-79.855011,-5.989833,-151.784485,-7.413321,150.654709,-13.477008
4.081250,-82.951958,-5.984512,-116.341217,-7.407487,145.297501,-13.157035
4.087500,-86.624557,-6.153000,-80.817032,-7.410755,140.031311,-12.829353
4.093750,-89.997452,-6.423935,-45.309628,-7.433436,134.683533,-12.514878
4.100000,-92.363640,-6.666113,-9.629463,-7.450236,129.546509,-12.190457
4.106250,-93.525764,-6.776824,26.085272,-7.450260,124.845886,-11.871337
4.112500,-93.849770,-6.693274,61.652985,-7.488758,120.193619,-11.589453
4.118750,-94.285583,-6.490660,97.094681,-7.537139,115.760300,-11.346635
4.125000,-95.582420,-6.289675,132.654800,-7.558656,111.620544,-11.108724
4.131250,-98.123253,-6.210933,168.218872,-7.546913,107.590385,-10.863220
4.137500,-101.452873,-6.326139,-156.337692,-7.555005,103.574036,-10.689791
4.143750,-104.818497,-6.578257,-121.090790,-7.577638,99.474564,-10.538115
4.150000,-107.365265,-6.837638,-85.661018,-7.576319,95.535172,-10.376026
4.156250,-108.778183,-6.986360,-50.178074,-7.568829,91.703995,-10.224164
4.162500,-109.151840,-6.944605,-14.823795,-7.599705,87.661301,-10.111944
4.168750,-109.302338,-6.721555,20.599180,-7.664947,83.695641,-10.027225
4.175000,-110.337685,-6.483698,56.396889,-7.667023,79.918961,-9.898543
4.181250,-112.595764,-6.347147,92.353134,-7.644523,76.256401,-9.755477
4.187500,-116.093353,-6.427114,128.027359,-7.675106,72.195831,-9.665420
4.193750,-119.884514,-6.686081,163.514236,-7.722363,68.010010,-9.590978
4.200000,-123.024101,-7.031010,-160.669739,-7.726833,64.158157,-9.490103
4.206250,-124.898529,-7.325166,-124.725929,-7.703010,60.540756,-9.336234
4.212500,-125.522675,-7.438701,-89.069664,-7.702362,56.797058,-9.226515
4.218750,-125.231575,-7.344111,-53.538376,-7.740060,52.995163,-9.165847
4.225000,-125.047440,-7.098901,-17.782160,-7.749458,49.416500,-9.090709
4.231250,-125.855408,-6.849852,18.148775,-7.719351,46.183632,-9.022593
4.237500,-127.979866,-6.716921,53.978024,-7.705554,42.871185,-8.996418
4.243750,-131.080612,-6.752776,89.526360,-7.725908,39.346233,-9.022345
4.250000,-134.347733,-6.929641,125.106400,-7.727335,35.800880,-9.037418
4.256250,-137.079361,-7.144300,160.824921,-7.708979,32.353924,-9.044598
4.262500,-138.856842,-7.302090,-163.535461,-7.697105,28.718658,-9.065033
4.268750,-139.873901,-7.341275,-127.905045,-7.683944,24.931429,-9.073951
4.275000,-140.512329,-7.272585,-92.176079,-7.668351,21.129967,-9.068377
4.281250,-141.505630,-7.170762,-56.387791,-7.637619,17.374994,-9.052772
4.287500,-143.060043,-7.116374,-20.552023,-7.617040,13.637667,-9.049656
4.293750,-145.247940,-7.141436,15.224802,-7.617882,9.921592,-9.061297
4.300000,-147.552917,-7.240974,51.038635,-7.616047,6.299682,-9.077372
4.306250,-149.604645,-7.350389,86.842766,-7.610260,2.860280,-9.107366
4.312500,-151.076508,-7.409637,122.634109,-7.606487,-0.637305,-9.153859
4.318750,-152.024414,-7.383317,158.372681,-7.605391,-4.194037,-9.199636
4.325000,-152.927124,-7.267418,-165.943710,-7.591679,-7.746915,-9.252941
4.331250,-154.229004,-7.140620,-130.294373,-7.563310,-11.331531,-9.304815
4.337500,-156.116898,-7.076693,-94.659317,-7.535360,-14.934047,-9.374469
4.343750,-158.423370,-7.094401,-58.931438,-7.507870,-18.527620,-9.448857
4.350000,-160.798874,-7.167039,-23.209894,-7.474110,-22.106512,-9.511066
4.356250,-162.868759,-7.263619,12.482301,-7.440886,-25.687704,-9.596679
4.362500,-164.429337,-7.307374,48.266628,-7.420053,-29.307594,-9.713869
4.368750,-165.607025,-7.271244,84.117004,-7.390347,-32.917297,-9.821056
4.375000,-166.859024,-7.184845,119.976067,-7.372209,-36.653728,-9.946741
4.381250,-168.450592,-7.118102,155.743179,-7.359755,-40.444447,-10.059234
4.387500,-170.569412,-7.112489,-168.503662,-7.340155,-44.346870,-10.159944
4.393750,-172.961304,-7.192304,-132.736084,-7.310296,-48.222942,-10.221894
4.400000,-175.143936,-7.318821,-97.043816,-7.290103,-52.105492,-10.294972
4.406250,-176.823425,-7.414158,-61.478924,-7.278433,-55.992443,-10.375687
4.412500,-177.802643,-7.410926,-25.762421,-7.241703,-59.798710,-10.459890
4.418750,-178.359085,-7.277671,10.041519,-7.177613,-63.369270,-10.533528
4.425000,-179.129044,-7.050645,45.756050,-7.136658,-66.978348,-10.652966
4.431250,179.330383,-6.846855,81.329025,-7.126167,-70.767319,-10.817269
4.437500,176.750977,-6.759855,116.963722,-7.092381,-74.532082,-10.991965
4.443750,173.456787,-6.843200,152.921051,-7.023421,-78.134857,-11.107498
4.450000,170.081970,-7.056209,-171.272034,-6.960976,-82.122238,-11.231313
4.456250,167.422531,-7.322369,-135.884003,-6.960365,-86.719231,-11.412845
4.462500,165.884537,-7.511952,-100.398888,-6.947997,-91.262550,-11.582312
4.468750,165.399673,-7.529232,-64.523056,-6.882236,-95.480965,-11.683064
4.475000,165.401077,-7.381827,-28.675915,-6.802460,-99.592461,-11.781002
4.481250,165.195312,-7.139174,6.909175,-6.757308,-103.722221,-11.926418
4.487500,163.960327,-6.926199,42.306816,-6.747073,-108.099869,-12.130795
4.493750,161.542465,-6.846156,77.916466,-6.707063,-111.936897,-12.321744
4.500000,158.520142,-6.916302,113.550278,-6.678663,-115.524010,-12.525240
4.506250,155.647003,-7.064992,148.832077,-6.704429,-119.239357,-12.751020
4.512500,153.517487,-7.199389,-175.812637,-6.740934,-122.734993,-12.957683
4.518750,152.286713,-7.242043,-140.080933,-6.715552,-125.851021,-13.061666
4.525000,151.609085,-7.139395,-104.304680,-6.677273,-128.844238,-13.122954
4.531250,151.016235,-6.921353,-68.857857,-6.661565,-132.248093,-13.173281
4.537500,149.788773,-6.670597,-33.458088,-6.665244,-135.920929,-13.239733
4.543750,147.487183,-6.527693,2.323516,-6.609440,-139.437012,-13.242769
4.550000,144.216385,-6.549184,38.191376,-6.541134,-143.050140,-13.231415
4.556250,140.667007,-6.735658,73.690987,-6.540552,-147.069901,-13.319394
4.562500,137.750076,-6.977750,109.139404,-6.554564,-151.382339,-13.424443
4.568750,135.954987,-7.138697,144.905914,-6.531937,-155.466476,-13.469036
4.575000,135.298416,-7.161000,-179.123810,-6.489188,-159.272430,-13.498912
4.581250,135.182755,-6.980401,-143.439240,-6.468443,-163.150986,-13.512586
4.587500,134.782547,-6.690394,-107.897011,-6.436160,-167.079010,-13.508180
4.593750,133.216812,-6.428541,-72.353813,-6.410047,-170.761292,-13.521090
4.600000,130.313644,-6.320291,-36.921146,-6.407241,-174.325912,-13.533982
4.606250,126.570076,-6.416062,-1.547624,-6.412182,-177.877869,-13.627446
4.612500,122.719086,-6.675211,33.942619,-6.388573,178.870621,-13.698890
4.618750,119.756424,-6.968810,69.616615,-6.345634,175.757050,-13.753962
4.625000,117.979218,-7.189706,105.099304,-6.356897,172.442673,-13.872392
4.631250,117.510338,-7.235178,140.465256,-6.394363,168.916107,-13.984654
4.637500,117.475540,-7.100183,176.159561,-6.380475,165.434296,-14.014603
4.643750,117.080841,-6.852512,-147.867920,-6.333307,162.102432,-13.966463
4.650000,115.731270,-6.631468,-112.193665,-6.320419,158.413925,-13.931185
4.656250,113.223610,-6.543401,-76.871170,-6.355944,154.341873,-13.908152
4.662500,109.934059,-6.622664,-41.313957,-6.337152,150.867950,-13.800697
4.668750,106.631905,-6.819935,-5.537714,-6.297165,147.577133,-13.686247
4.675000,104.143822,-7.025895,29.976591,-6.317072,144.140778,-13.655792
4.681250,102.724838,-7.141718,65.262115,-6.349241,140.643311,-13.708411
4.687500,102.202057,-7.096579,101.019791,-6.328596,137.549911,-13.736317
4.693750,101.763969,-6.917648,137.158539,-6.258724,134.738876,-13.721655
4.700000,100.826004,-6.688240,172.802536,-6.244724,131.831543,-13.768321
4.706250,98.815254,-6.535567,-151.910339,-6.291539,128.507278,-13.860472
4.712500,95.853416,-6.533061,-116.443367,-6.304359,125.553307,-13.910310
4.718750,92.477234,-6.680232,-80.436066,-6.245334,122.937050,-13.887222
4.725000,89.442642,-6.889696,-44.739845,-6.230403,119.825668,-13.943864
4.731250,87.222748,-7.083316,-9.557810,-6.280960,116.340942,-14.082461
4.737500,86.053726,-7.158731,25.929230,-6.258994,113.334061,-14.183146
4.743750,85.446373,-7.092951,61.941483,-6.175515,110.806122,-14.212543
4.750000,84.817841,-6.923107,97.623787,-6.097377,108.295601,-14.214726
4.756250,83.466782,-6.763165,132.799835,-6.103943,105.843346,-14.143186
4.762500,81.151329,-6.713094,167.926376,-6.084998,103.757309,-13.854676
4.768750,78.221710,-6.791129,-156.624649,-6.077391,101.960564,-13.398786
4.775000,75.399147,-6.934556,-121.582962,-6.160918,98.194588,-13.174064
4.781250,73.072578,-7.105376,-86.563026,-6.286973,92.971664,-13.250663
4.787500,71.338234,-7.240021,-51.057369,-6.364155,88.528000,-13.413815
4.793750,70.403572,-7.269934,-15.013785,-6.370660,85.305710,-13.527660
4.800000,69.836014,-7.191496,21.032629,-6.341919,82.611000,-13.674215
4.806250,69.110306,-7.033674,56.623066,-6.374011,79.775703,-13.851230
4.812500,67.882362,-6.874416,92.012100,-6.434828,76.813904,-14.069551
4.818750,65.903648,-6.785057,127.707275,-6.443567,73.853844,-14.255479
4.825000,63.441193,-6.786979,163.542175,-6.441512,70.873672,-14.392953
4.831250,60.825916,-6.849157,-160.796509,-6.460761,67.328796,-14.564002
4.837500,58.450054,-6.925613,-125.295364,-6.503286,63.882130,-14.684873
4.843750,56.659889,-6.961604,-89.571754,-6.536460,60.430943,-14.749483
4.850000,55.137161,-6.935658,-53.877991,-6.575583,57.321846,-14.795985
4.856250,53.746647,-6.859922,-18.296993,-6.633504,54.258041,-14.880738
4.862500,52.050812,-6.786679,17.175587,-6.708868,51.164150,-14.971365
4.868750,49.863560,-6.765035,52.811031,-6.801960,48.310013,-15.106036
4.875000,47.345108,-6.812238,88.514732,-6.920355,45.322746,-15.305684
4.881250,44.739616,-6.947215,124.373810,-7.060272,42.232365,-15.590210
4.887500,42.377975,-7.138399,160.807632,-7.119308,39.126240,-15.988878
4.893750,40.827343,-7.261190,-161.670807,-6.947318,36.370857,-16.394907
4.900000,40.156227,-7.218159,-124.043243,-6.643223,34.660339,-16.651058
4.906250,39.629299,-7.087308,-87.874985,-6.455904,33.333412,-16.849417
4.912500,38.507881,-6.963956,-52.807930,-6.375236,31.518286,-17.024368
4.918750,36.711323,-6.887290,-17.896835,-6.364395,29.169313,-17.258358
4.925000,34.581371,-6.861435,17.287947,-6.377035,26.509165,-17.535236
4.931250,32.362385,-6.881662,52.522114,-6.399699,23.645235,-17.831106
4.937500,30.307734,-6.905986,87.902153,-6.415400,20.600700,-18.141731
4.943750,28.559496,-6.884915,123.325523,-6.450911,17.417110,-18.449524
4.950000,26.974504,-6.847016,158.785538,-6.458177,13.917143,-18.754080
4.956250,25.315125,-6.760821,-165.605377,-6.461673,10.411358,-19.083641
4.962500,23.488506,-6.696916,-130.011642,-6.462839,7.208112,-19.358021
4.968750,21.309008,-6.673068,-94.528488,-6.488200,4.197634,-19.718647
4.975000,18.878241,-6.697008,-58.967102,-6.514391,1.841291,-20.101711
4.981250,16.484789,-6.758899,-23.270088,-6.524844,0.415088,-20.459110
4.987500,14.280767,-6.834271,12.384917,-6.529266,0.102887,-20.672993
4.993750,12.389729,-6.910374,47.900421,-6.574829,0.147291,-20.757452
5.000000,10.858778,-6.924407,83.520866,-6.609574,-0.661189,-20.776508
5.006250,9.666570,-6.854381,119.364708,-6.588562,-4.240249,-21.061115
5.012500,8.440764,-6.735200,155.087402,-6.589183,-10.496821,-21.642653
5.018750,6.649336,-6.634953,-169.332535,-6.628416,-17.583557,-22.408527
5.025000,4.364535,-6.620228,-133.571106,-6.640203,-24.534540,-23.112122
5.031250,1.878653,-6.670780,-97.516144,-6.596817,-31.349943,-23.669273
5.037500,-0.578914,-6.750754,-61.637379,-6.586918,-38.265701,-24.242674
5.043750,-2.628104,-6.815890,-26.210201,-6.654958,-45.729492,-24.900185
5.050000,-4.309968,-6.834321,9.345426,-6.708568,-52.337589,-25.635906
5.056250,-5.713391,-6.792623,45.386898,-6.695249,-58.605328,-26.377811
5.062500,-7.237602,-6.719837,81.336754,-6.662600,-65.359795,-27.128853
5.068750,-9.046195,-6.652393,116.856712,-6.696627,-73.862572,-27.938122
5.075000,-11.192364,-6.634019,152.352859,-6.727317,-84.081924,-28.638081
5.081250,-13.593129,-6.673121,-171.783615,-6.692491,-95.915367,-28.940699
5.087500,-15.870309,-6.742400,-135.861572,-6.648903,-109.020744,-28.895647
5.093750,-17.924170,-6.803017,-100.407326,-6.686648,-122.915703,-28.691158
5.100000,-19.660336,-6.818935,-64.858917,-6.746919,-136.286362,-28.173077
5.106250,-21.171303,-6.788896,-28.826822,-6.743539,-147.952179,-27.537106
5.112500,-22.818066,-6.732628,7.249718,-6.703884,-157.878098,-26.797058
5.118750,-24.660736,-6.690565,43.064903,-6.713533,-166.965424,-26.053358
5.125000,-26.898764,-6.696395,78.681915,-6.740035,-175.060791,-25.202093
5.131250,-29.299618,-6.755010,114.456337,-6.739499,177.134293,-24.341219
5.137500,-31.631905,-6.845946,150.280197,-6.718364,170.883408,-23.560595
5.143750,-33.514256,-6.911892,-174.134705,-6.731400,165.052185,-22.816477
5.150000,-35.084797,-6.919624,-138.578918,-6.745938,159.914444,-22.156782
5.156250,-36.383675,-6.862868,-102.761986,-6.731077,155.850998,-21.569353
5.162500,-37.875374,-6.771945,-66.981926,-6.705160,152.091736,-21.030731
5.168750,-39.825542,-6.710702,-31.332209,-6.716896,148.183746,-20.568243
5.175000,-42.217793,-6.715106,4.424870,-6.710507,144.379883,-20.102489
5.181250,-44.940094,-6.804895,40.349834,-6.681527,140.489471,-19.630039
5.187500,-47.539272,-6.961198,75.982803,-6.717021,135.914627,-19.200832
5.193750,-49.580711,-7.100650,111.504501,-6.770066,131.778809,-18.779127
5.200000,-50.937702,-7.146751,147.325821,-6.773750,127.721489,-18.327402
5.206250,-51.864971,-7.089012,-176.486221,-6.703078,124.526772,-17.854313
5.212500,-52.813389,-6.950572,-140.646515,-6.666825,121.571648,-17.428364
5.218750,-54.245403,-6.803184,-105.255142,-6.707013,118.362144,-17.072498
5.225000,-56.537655,-6.729124,-69.657242,-6.710973,115.679947,-16.727203
5.231250,-59.497604,-6.784505,-33.574959,-6.662006,113.505920,-16.352459
5.237500,-62.724037,-6.956202,2.240564,-6.631762,110.717110,-16.095678
5.243750,-65.458298,-7.178260,37.701229,-6.683194,107.768883,-15.906911
5.250000,-67.327950,-7.358341,73.372025,-6.707953,104.861603,-15.682878
5.256250,-68.314949,-7.410929,109.365631,-6.670783,102.206505,-15.406440
5.262500,-68.851952,-7.326892,145.282455,-6.633826,99.526947,-15.138084
5.268750,-69.580002,-7.153208,-179.346481,-6.647347,96.459435,-14.922169
5.275000,-71.005493,-6.997039,-143.880447,-6.664689,93.526581,-14.710396
5.281250,-73.305367,-6.939597,-107.968658,-6.644255,90.918732,-14.488093
5.287500,-76.337128,-7.021632,-72.042336,-6.591595,88.287804,-14.271305
5.293750,-79.407295,-7.203884,-36.452347,-6.591676,85.443069,-14.120290
5.300000,-81.857712,-7.405854,-0.785380,-6.589018,82.707565,-13.956886
5.306250,-83.419807,-7.536693,35.090672,-6.556906,80.084335,-13.766443
5.312500,-84.236099,-7.530520,70.878654,-6.534587,77.456688,-13.589104
5.318750,-84.833221,-7.394460,106.484291,-6.541779,74.613060,-13.434319
5.325000,-85.897087,-7.225471,142.144333,-6.526046,71.979179,-13.266820
5.331250,-87.812874,-7.102000,177.974396,-6.491950,69.512077,-13.079432
5.337500,-90.659012,-7.121538,-146.331818,-6.460848,67.045776,-12.929729
5.343750,-93.903282,-7.289098,-110.927383,-6.460851,64.510597,-12.835049
5.350000,-96.833260,-7.528224,-75.344666,-6.436635,62.220520,-12.722756
5.356250,-98.863747,-7.751176,-39.560844,-6.393723,60.086716,-12.612808
5.362500,-99.951775,-7.853685,-3.904635,-6.375956,57.651608,-12.528215
5.368750,-100.287514,-7.800443,31.575243,-6.394901,54.809917,-12.485980
5.375000,-100.607986,-7.628118,67.229958,-6.398277,52.185963,-12.433306
5.381250,-101.591858,-7.424754,103.098785,-6.367723,49.568317,-12.330020
5.387500,-103.586357,-7.300868,138.901077,-6.342083,46.838699,-12.223033
5.393750,-106.445152,-7.313439,174.402298,-6.332199,43.980602,-12.131037
5.400000,-109.503822,-7.441525,-150.082642,-6.312607,41.194004,-12.028484
5.406250,-112.279991,-7.640773,-114.515457,-6.280260,38.537411,-11.935592
5.412500,-114.316490,-7.815676,-79.006660,-6.251369,36.044296,-11.844743
5.418750,-115.515526,-7.866023,-43.533939,-6.214426,33.442017,-11.772137
5.425000,-116.294426,-7.818460,-7.952295,-6.179792,31.089922,-11.713335
5.431250,-117.299393,-7.709171,27.605116,-6.148765,28.597267,-11.660363
5.437500,-118.926247,-7.625293,63.190800,-6.127909,26.139015,-11.613752
5.443750,-121.299744,-7.644279,98.738457,-6.111351,23.525227,-11.581566
5.450000,-123.941956,-7.768866,134.347565,-6.102601,20.895037,-11.543931
5.456250,-126.361832,-7.951534,169.935333,-6.105138,18.200548,-11.510930
5.462500,-128.067429,-8.083102,-154.518707,-6.103920,15.469256,-11.475200
5.468750,-129.058563,-8.103924,-118.935707,-6.085548,12.870487,-11.448216
5.475000,-129.562195,-7.993359,-83.344261,-6.063979,10.293262,-11.410148
5.481250,-130.362671,-7.807702,-47.846054,-6.056600,7.497571,-11.396411
5.487500,-131.871048,-7.649731,-12.404007,-6.056383,4.517157,-11.400590
5.493750,-134.405457,-7.598574,23.071089,-6.037808,1.676267,-11.368879
5.500000,-137.571243,-7.705161,58.584293,-6.008147,-1.317577,-11.341636
5.506250,-140.736343,-7.942577,94.014839,-6.013646,-4.527404,-11.330161
5.512500,-143.242340,-8.193939,129.413361,-6.012802,-7.843909,-11.311086
5.518750,-144.718018,-8.370572,164.908188,-6.012570,-10.997621,-11.259657
5.525000,-145.393814,-8.401657,-159.416946,-5.982270,-14.024483,-11.209653
5.531250,-145.809692,-8.322890,-123.855850,-5.977229,-17.027546,-11.189961
5.537500,-146.642960,-8.206581,-88.319351,-5.978533,-20.234533,-11.225716
5.543750,-148.270920,-8.176873,-52.717175,-5.969862,-23.393845,-11.307168
5.550000,-150.534729,-8.264729,-16.886122,-5.952701,-26.560724,-11.429828
5.556250,-152.779480,-8.457113,19.003004,-5.928864,-29.904736,-11.629970
5.562500,-154.342636,-8.616164,54.983582,-5.872203,-33.235519,-11.850403
5.568750,-154.926559,-8.647313,91.035049,-5.768699,-36.420826,-12.028642
5.575000,-154.711639,-8.494625,126.861458,-5.674815,-39.433311,-12.190674
5.581250,-154.643372,-8.194788,162.308075,-5.609784,-42.112350,-12.301754
5.587500,-155.364761,-7.853136,-162.403976,-5.536312,-44.699135,-12.332348
5.593750,-157.382538,-7.603845,-127.162651,-5.448916,-46.870613,-12.268798
5.600000,-160.626877,-7.544831,-92.038963,-5.371371,-49.132298,-12.205953
5.606250,-164.439957,-7.689288,-57.242573,-5.351620,-51.719658,-12.212245
5.612500,-168.040024,-7.983226,-22.342707,-5.336715,-54.499199,-12.197547
5.618750,-170.536850,-8.278337,12.927173,-5.266119,-56.998676,-12.145421
5.625000,-171.613388,-8.442143,48.241444,-5.186942,-59.669991,-12.121453
5.631250,-171.489273,-8.383001,83.326874,-5.176517,-62.743801,-12.102948
5.637500,-171.062408,-8.104641,118.369431,-5.187726,-66.181503,-12.080852
5.643750,-171.323730,-7.742399,153.651260,-5.162853,-69.329323,-12.004913
5.650000,-173.075882,-7.450173,-170.983246,-5.149078,-72.609253,-11.918030
5.656250,-176.324692,-7.367132,-135.879303,-5.168458,-76.156578,-11.891963
5.662500,179.650375,-7.516693,-100.763672,-5.181994,-80.028702,-11.880114
5.668750,175.895294,-7.823150,-65.427742,-5.139107,-83.412766,-11.845622
5.675000,173.338287,-8.097122,-30.302395,-5.107992,-86.801094,-11.816091
5.681250,172.321640,-8.201123,4.636919,-5.124087,-90.758293,-11.836027
5.687500,172.243515,-8.089991,39.681179,-5.133913,-94.601822,-11.823115
5.693750,172.104248,-7.830904,74.888260,-5.099869,-98.415977,-11.733871
5.700000,170.771866,-7.583763,110.027016,-5.081102,-102.291809,-11.643995
