Anritsu VNA Frequency[GHz],S21[deg],S21[dB],S11[deg],S11[dB],S22[deg],S22[dB]
1337939110.8,2012_05_25_10:45:10,+297.77,+297.60,+02.989,+297.49,+296.93,+297.80,+297.48,+297.83,243.126190,-6.574
4.006250,-105.187126,-10.350257,-151.422119,-1.913397,53.808739,-6.262671
4.012500,-110.651917,-11.262798,-117.301773,-1.807512,49.718204,-6.232833
4.018750,-114.612686,-12.305294,-83.026611,-1.688426,45.872448,-6.208442
4.025000,-116.253998,-13.238762,-48.641876,-1.565971,42.128716,-6.200226
4.031250,-115.573151,-13.885221,-14.324489,-1.479373,38.359386,-6.220401
4.037500,-113.483597,-14.162458,19.933882,-1.418529,34.481377,-6.264779
4.043750,-111.907341,-14.260248,54.182343,-1.392044,30.488857,-6.332699
4.050000,-112.376221,-14.488946,88.530380,-1.349948,26.545673,-6.394853
4.056250,-115.451393,-15.154257,122.799103,-1.325482,22.536940,-6.465253
4.062500,-119.722313,-16.318117,156.932877,-1.298518,18.414930,-6.544718
4.068750,-122.956757,-17.787397,-168.979523,-1.278712,14.234225,-6.627662
4.075000,-123.403259,-19.396872,-134.979660,-1.251241,9.994269,-6.693274
4.081250,-120.046082,-20.820702,-100.974052,-1.219159,5.736514,-6.768174
4.087500,-112.975655,-21.797260,-66.907074,-1.184600,1.547968,-6.851167
4.093750,-102.762070,-22.165209,-32.787090,-1.152930,-2.548893,-6.941142
4.100000,-91.496834,-21.951378,1.442566,-1.139198,-6.617827,-7.032074
4.106250,-80.768707,-21.343250,35.642845,-1.125320,-10.587580,-7.161075
4.112500,-72.459068,-20.632795,69.814957,-1.124942,-14.450764,-7.307352
4.118750,-66.851685,-19.976707,104.060776,-1.156521,-18.227884,-7.472607
4.125000,-62.349052,-19.324587,138.316299,-1.200005,-22.090216,-7.669194
4.131250,-58.407509,-18.666153,172.473297,-1.239570,-25.967535,-7.881607
4.137500,-54.311760,-17.840651,-153.283401,-1.299811,-29.927343,-8.119864
4.143750,-50.599842,-16.801218,-119.036697,-1.378181,-34.010670,-8.349239
4.150000,-47.711414,-15.663007,-84.831223,-1.467873,-38.226734,-8.581971
4.156250,-46.980850,-14.559017,-50.694492,-1.573252,-42.628384,-8.805429
4.162500,-48.742931,-13.732847,-16.482533,-1.668202,-47.065048,-9.017961
4.168750,-52.013958,-13.220199,17.801907,-1.780504,-51.286438,-9.221911
4.175000,-55.850334,-12.976477,52.157078,-1.888799,-55.560558,-9.437495
4.181250,-58.741505,-12.802968,86.599533,-1.963997,-59.661690,-9.669810
4.187500,-60.288879,-12.559237,121.254311,-2.009270,-63.593269,-9.866668
4.193750,-60.546280,-12.125475,155.931732,-2.063907,-67.367073,-10.096708
4.200000,-60.341099,-11.527596,-169.446457,-2.130361,-71.265030,-10.374927
4.206250,-60.765152,-10.843162,-134.936661,-2.214723,-75.170738,-10.673037
4.212500,-62.653831,-10.245398,-100.149605,-2.303722,-79.197777,-10.963760
4.218750,-65.848770,-9.815742,-65.298988,-2.407833,-83.372017,-11.291679
4.225000,-69.714378,-9.595777,-30.410349,-2.557119,-87.924026,-11.640195
4.231250,-73.494087,-9.480518,4.329752,-2.713275,-92.693268,-11.985753
4.237500,-76.544456,-9.392473,39.193771,-2.855395,-97.515297,-12.278982
4.243750,-78.686279,-9.229208,74.027924,-2.998608,-102.449982,-12.557130
4.250000,-80.130089,-8.955969,108.609245,-3.145420,-107.609436,-12.799489
4.256250,-81.538376,-8.614209,143.072433,-3.277519,-112.787903,-13.026986
4.262500,-83.413696,-8.267378,177.506149,-3.393848,-117.733315,-13.260547
4.268750,-85.855164,-7.980450,-147.811401,-3.497476,-122.699875,-13.487493
4.275000,-88.811760,-7.754995,-113.087799,-3.603561,-127.591721,-13.746236
4.281250,-91.890076,-7.618909,-78.277519,-3.714716,-132.352219,-14.056441
4.287500,-94.629059,-7.497435,-43.056759,-3.823569,-136.931259,-14.364045
4.293750,-97.064102,-7.344499,-7.823776,-3.967612,-141.567535,-14.708866
4.300000,-99.298492,-7.153971,27.364117,-4.149661,-146.503922,-15.069223
4.306250,-101.566452,-6.951305,62.573326,-4.334350,-151.662933,-15.425552
4.312500,-104.080177,-6.772696,97.893661,-4.537795,-157.362991,-15.743073
4.318750,-106.871475,-6.640664,133.220459,-4.735250,-163.472626,-16.022421
4.325000,-109.836998,-6.541391,168.447220,-4.944857,-169.891266,-16.226397
4.331250,-112.665550,-6.475234,-156.264740,-5.139635,-176.613571,-16.362885
4.337500,-115.232613,-6.403749,-120.956688,-5.334887,176.953720,-16.427116
4.343750,-117.523148,-6.304641,-85.685020,-5.521073,170.390945,-16.451349
4.350000,-119.705109,-6.169921,-50.323406,-5.679953,164.380112,-16.477972
4.356250,-121.966789,-6.027554,-14.941785,-5.822213,158.752853,-16.527617
4.362500,-124.433739,-5.910995,20.478737,-5.968156,153.508331,-16.628498
4.368750,-127.144249,-5.831373,55.907188,-6.111692,148.406967,-16.745386
4.375000,-129.850754,-5.775202,91.526642,-6.239926,143.570236,-16.881439
4.381250,-132.460464,-5.728621,127.259911,-6.379944,138.470428,-16.997347
4.387500,-134.849274,-5.653748,163.044159,-6.531267,133.117401,-17.152382
4.393750,-137.119141,-5.549654,-160.957458,-6.689975,127.342255,-17.252176
4.400000,-139.407318,-5.435356,-124.783745,-6.843074,121.400978,-17.284695
4.406250,-141.922012,-5.350472,-88.649803,-7.033046,115.318375,-17.260950
4.412500,-144.722763,-5.319298,-52.484180,-7.229020,109.265640,-17.200073
4.418750,-147.640671,-5.333098,-16.103767,-7.404823,103.652336,-17.023558
4.425000,-150.409683,-5.397138,20.383839,-7.547090,98.387444,-16.826185
4.431250,-152.758484,-5.430615,56.562218,-7.737977,93.287376,-16.693274
4.437500,-154.710770,-5.409072,92.521378,-7.937324,88.160789,-16.631805
4.443750,-156.348694,-5.307223,128.907104,-8.053092,83.871948,-16.568302
4.450000,-158.060059,-5.158097,165.519531,-8.063158,79.967453,-16.490522
4.456250,-160.229187,-5.016660,-158.302795,-8.118306,76.145508,-16.532185
4.462500,-162.966232,-4.950041,-122.511978,-8.221353,71.882782,-16.626143
4.468750,-166.130447,-4.980347,-86.179070,-8.251464,67.994339,-16.647121
4.475000,-169.318634,-5.087924,-49.165211,-8.187881,64.494484,-16.624865
4.481250,-171.953033,-5.209233,-12.131390,-8.114764,60.637108,-16.544971
4.487500,-174.033829,-5.310110,24.561352,-8.072424,56.163261,-16.504751
4.493750,-175.374390,-5.294892,61.455563,-7.982642,51.880562,-16.365810
4.500000,-176.410919,-5.160973,98.336052,-7.844671,47.863518,-16.145943
4.506250,-177.696991,-4.966749,134.394577,-7.811367,43.504356,-15.976636
4.512500,-179.642944,-4.798951,169.616959,-7.906442,38.829624,-15.883362
4.518750,177.594925,-4.733870,-155.132889,-8.003445,34.416340,-15.794623
4.525000,174.367630,-4.793607,-119.453224,-8.060894,30.584761,-15.704292
4.531250,171.332626,-4.909948,-83.994736,-8.149333,26.559759,-15.707839
4.537500,168.952789,-5.000719,-48.756802,-8.279360,22.233309,-15.814391
4.543750,167.371979,-4.991652,-13.114703,-8.338410,18.330015,-15.901174
4.550000,166.214462,-4.857138,23.128492,-8.286914,15.045774,-15.918528
4.556250,164.831161,-4.655319,59.179874,-8.271344,11.388317,-15.994719
4.562500,162.788635,-4.469754,94.782745,-8.328051,7.257257,-16.131544
4.568750,159.776871,-4.398691,130.723480,-8.363076,3.286120,-16.230583
4.575000,156.247986,-4.479925,167.235367,-8.346499,-0.311657,-16.263395
4.581250,152.672577,-4.673201,-156.220108,-8.340994,-3.708691,-16.259653
4.587500,149.781998,-4.892391,-119.783264,-8.326100,-7.331776,-16.243732
4.593750,147.843369,-5.037619,-83.319702,-8.302031,-10.618140,-16.191542
4.600000,146.791183,-5.034084,-46.954929,-8.266406,-14.086964,-16.120867
4.606250,146.137817,-4.871110,-10.968608,-8.270919,-17.746054,-16.102499
4.612500,145.098694,-4.650405,24.840342,-8.244484,-21.401344,-16.053141
4.618750,143.097855,-4.459769,60.679295,-8.195969,-24.856804,-16.001440
4.625000,139.985992,-4.424245,95.985428,-8.251006,-28.874964,-16.021639
4.631250,136.327148,-4.557094,130.737747,-8.400253,-33.560543,-16.204210
4.637500,132.844315,-4.777029,165.972473,-8.497527,-37.880280,-16.346533
4.643750,130.217911,-5.008933,-157.886612,-8.472986,-41.295704,-16.383331
4.650000,128.564011,-5.147511,-121.819824,-8.439331,-44.623924,-16.437458
4.656250,127.711304,-5.136367,-86.250298,-8.454456,-48.626045,-16.556332
4.662500,127.147888,-4.988153,-50.590565,-8.444098,-52.425941,-16.635489
4.668750,126.093407,-4.794369,-14.369405,-8.365197,-55.814949,-16.660494
4.675000,124.168159,-4.637330,21.726044,-8.359149,-59.367954,-16.715021
4.681250,121.340668,-4.622322,57.311893,-8.464972,-63.583851,-16.854095
4.687500,118.094986,-4.734839,93.278442,-8.530434,-67.427696,-16.913561
4.693750,115.090340,-4.913577,130.160309,-8.477841,-70.538040,-16.817793
4.700000,112.752480,-5.093965,166.698517,-8.452093,-74.037033,-16.734011
4.706250,111.365013,-5.163994,-157.700882,-8.556480,-78.508255,-16.750557
4.712500,110.574936,-5.090527,-122.228691,-8.665575,-83.087471,-16.777889
4.718750,109.755829,-4.911336,-86.162483,-8.632822,-86.836884,-16.675844
4.725000,108.270355,-4.700103,-50.066719,-8.589585,-90.784180,-16.573179
4.731250,105.871078,-4.587921,-15.054694,-8.670300,-95.554146,-16.601074
4.737500,102.638969,-4.613089,20.089434,-8.705465,-100.321281,-16.622099
4.743750,99.143700,-4.780978,56.343212,-8.575841,-104.392570,-16.524088
4.750000,96.009895,-5.023968,92.631851,-8.402303,-108.983437,-16.419119
4.756250,93.687691,-5.261297,128.286697,-8.300700,-115.089035,-16.599510
4.762500,92.193909,-5.432334,163.613113,-8.190418,-122.860863,-17.333633
4.768750,91.596512,-5.454582,-160.683456,-8.090652,-130.575943,-18.557564
4.775000,91.437065,-5.305573,-125.744484,-8.159661,-133.868118,-19.195055
4.781250,90.830841,-5.106184,-91.066063,-8.365199,-131.329407,-19.084681
4.787500,89.221794,-4.954804,-55.854664,-8.596632,-130.313324,-18.789471
4.793750,86.887840,-4.899261,-19.804043,-8.700097,-131.354187,-18.444527
4.800000,84.229813,-4.920846,16.714796,-8.731396,-133.799179,-18.035662
4.806250,81.655258,-4.999613,52.542549,-8.804126,-137.257141,-17.758841
4.812500,79.547127,-5.067713,87.717392,-8.930102,-141.648544,-17.574673
4.818750,77.947395,-5.070290,123.154594,-8.994348,-145.716324,-17.373632
4.825000,76.544968,-5.015748,158.984573,-8.995974,-149.127853,-17.170740
4.831250,75.056602,-4.925531,-165.322906,-9.002040,-152.785065,-16.965553
4.837500,73.155998,-4.850274,-129.986893,-9.037648,-156.027466,-16.819830
4.843750,70.934036,-4.820594,-94.303299,-9.048625,-159.177444,-16.694710
4.850000,68.488083,-4.843819,-58.426659,-9.043378,-162.212112,-16.580318
4.856250,66.168556,-4.896611,-22.639494,-9.084461,-165.443375,-16.515209
4.862500,64.180054,-4.937794,13.125550,-9.135585,-169.012497,-16.455381
4.868750,62.456676,-4.931585,49.019264,-9.191342,-172.535477,-16.387695
4.875000,60.876453,-4.885817,84.948235,-9.266189,-176.727570,-16.293646
4.881250,59.238918,-4.824431,120.722122,-9.363898,178.712311,-16.219315
4.887500,57.249660,-4.790181,156.436035,-9.475466,173.188095,-16.263504
4.893750,55.113010,-4.785024,-167.697067,-9.601544,167.375458,-16.475161
4.900000,52.932850,-4.795749,-131.921066,-9.708254,162.491180,-16.721281
4.906250,50.916477,-4.813400,-96.120560,-9.800401,160.065155,-16.627039
4.912500,48.984283,-4.816173,-60.399475,-9.878182,159.008514,-16.350554
4.918750,47.208870,-4.788280,-24.780497,-9.960229,157.773575,-16.068596
4.925000,45.513088,-4.726108,10.826268,-10.027576,155.791122,-15.850702
4.931250,43.642162,-4.649593,46.474072,-10.099470,153.804596,-15.686770
4.937500,41.457993,-4.608147,82.267860,-10.144484,151.659348,-15.577409
4.943750,39.007175,-4.626185,118.085075,-10.218512,149.347214,-15.548635
4.950000,36.487652,-4.686070,154.000397,-10.315040,147.046997,-15.531608
4.956250,34.206310,-4.751413,-169.825806,-10.407883,144.591385,-15.488483
4.962500,32.337234,-4.786280,-133.547958,-10.532122,141.981491,-15.436630
4.968750,30.771128,-4.756643,-97.479813,-10.751143,138.871063,-15.393401
4.975000,29.289078,-4.663031,-61.231377,-11.030934,135.519882,-15.355669
4.981250,27.517323,-4.573327,-24.571072,-11.298674,132.400711,-15.242371
4.987500,25.146021,-4.537445,12.536873,-11.536518,129.624832,-15.113980
4.993750,22.346966,-4.607754,50.125622,-11.665999,126.878792,-14.900795
5.000000,19.519201,-4.771559,88.318260,-11.513386,124.718674,-14.587942
5.006250,17.245710,-4.935324,126.548347,-11.194983,122.864792,-14.185065
5.012500,15.695012,-5.041876,163.077454,-10.946029,120.279182,-13.868129
5.018750,14.771318,-5.030346,-161.836212,-10.858984,117.018448,-13.718339
5.025000,14.244553,-4.885251,-126.902336,-10.854992,113.648949,-13.668256
5.031250,13.527255,-4.651418,-91.184135,-10.773602,111.050575,-13.589725
5.037500,11.970607,-4.411974,-55.083813,-10.715605,108.573235,-13.537638
5.043750,9.421229,-4.271770,-19.371916,-10.816432,105.521645,-13.597466
5.050000,6.029386,-4.295037,16.438848,-10.957911,102.620781,-13.659964
5.056250,2.424562,-4.456570,53.210140,-10.993554,100.378548,-13.579665
5.062500,-0.663817,-4.681047,90.160728,-11.007987,98.063507,-13.457615
5.068750,-2.765634,-4.852214,126.411903,-11.118576,94.757721,-13.418108
5.075000,-3.785024,-4.880007,162.388031,-11.294557,91.130997,-13.429655
5.081250,-4.239705,-4.733340,-161.058914,-11.341753,88.091011,-13.351710
5.087500,-4.842089,-4.474127,-124.214409,-11.318475,85.444275,-13.209225
5.093750,-6.386278,-4.220384,-88.106468,-11.392690,82.443382,-13.164586
5.100000,-9.197059,-4.096796,-52.304523,-11.488285,79.351448,-13.154552
5.106250,-12.855702,-4.153104,-15.714551,-11.477868,77.066811,-13.070565
5.112500,-16.721247,-4.370774,21.304316,-11.364211,75.237747,-12.971838
5.118750,-19.965469,-4.650247,57.834839,-11.305628,72.798264,-12.957396
5.125000,-21.999590,-4.850353,94.018127,-11.308243,70.003807,-13.024903
5.131250,-22.813251,-4.884065,130.695892,-11.242421,67.741982,-13.052842
5.137500,-23.068684,-4.733716,167.716995,-11.129622,65.504028,-13.043799
5.143750,-23.602520,-4.447653,-155.685440,-11.086270,62.886505,-13.106773
5.150000,-25.183212,-4.191059,-119.130600,-11.064967,60.119205,-13.150153
5.156250,-28.116314,-4.072333,-82.250984,-11.014004,57.649273,-13.166000
5.162500,-31.999702,-4.157286,-45.330429,-10.969090,55.072754,-13.146952
5.168750,-35.993744,-4.418678,-8.772868,-10.984461,52.258923,-13.160766
5.175000,-39.189816,-4.714516,27.841257,-10.951751,49.649002,-13.110065
5.181250,-41.055897,-4.934472,64.738396,-10.869190,47.332790,-13.014108
5.187500,-41.729694,-4.952733,101.077789,-10.841047,44.613605,-13.005477
5.193750,-41.812153,-4.755767,136.970001,-10.846633,41.538029,-13.100074
5.200000,-42.296032,-4.461168,173.205933,-10.767151,38.912598,-13.168598
5.206250,-44.059822,-4.197808,-150.106461,-10.538115,37.184910,-13.136092
5.212500,-47.204571,-4.102297,-113.698982,-10.323541,35.131233,-13.178128
5.218750,-51.264805,-4.231877,-78.197151,-10.244934,32.389565,-13.341984
5.225000,-55.351940,-4.515832,-42.317623,-10.121037,30.128166,-13.421828
5.231250,-58.497372,-4.843561,-5.419074,-9.893494,28.667278,-13.362499
5.237500,-60.459530,-5.077511,31.286600,-9.704902,26.440111,-13.412899
5.243750,-61.059177,-5.118128,67.339691,-9.657855,23.229208,-13.572034
5.250000,-61.139164,-4.957997,103.467682,-9.626989,20.090057,-13.708052
5.256250,-61.588184,-4.695433,140.292770,-9.483443,17.761267,-13.705170
5.262500,-63.231125,-4.461438,176.970963,-9.360353,15.339939,-13.705741
5.268750,-66.152779,-4.378480,-147.327255,-9.355465,12.285422,-13.802043
5.275000,-69.871445,-4.480987,-111.865074,-9.335955,9.330666,-13.840560
5.281250,-73.515823,-4.726830,-75.644073,-9.215425,7.300508,-13.804976
5.287500,-76.455643,-4.975405,-39.545982,-9.044963,5.058555,-13.807719
5.293750,-78.247360,-5.129771,-4.138672,-8.928095,2.330306,-13.904774
5.300000,-79.153412,-5.122425,31.272169,-8.795413,-0.275228,-14.060139
5.306250,-79.809586,-4.989410,67.058243,-8.602362,-2.407902,-14.165003
5.312500,-80.985802,-4.804926,102.857323,-8.425049,-4.564409,-14.293469
5.318750,-83.155762,-4.692160,138.340851,-8.301591,-7.102119,-14.468783
5.325000,-86.230957,-4.714894,174.211899,-8.161505,-9.687764,-14.599639
5.331250,-89.621201,-4.882540,-149.662430,-7.986447,-12.293968,-14.667570
5.337500,-92.670021,-5.113550,-113.711548,-7.857819,-15.269608,-14.783494
5.343750,-94.920769,-5.313802,-78.154747,-7.791911,-18.639269,-14.940242
5.350000,-96.231468,-5.394622,-42.389904,-7.716363,-21.739491,-15.037666
5.356250,-97.015244,-5.343445,-6.430000,-7.604939,-24.260870,-15.083024
5.362500,-97.821617,-5.188198,29.291662,-7.545004,-27.076080,-15.180708
5.368750,-99.317612,-5.037135,64.567032,-7.530463,-30.123190,-15.339093
5.375000,-101.681793,-4.960682,100.093124,-7.485035,-32.695621,-15.492445
5.381250,-104.683372,-4.997405,135.859146,-7.374894,-35.246555,-15.628932
5.387500,-107.884239,-5.138818,171.424118,-7.251943,-37.828949,-15.782895
5.393750,-110.714302,-5.320141,-153.458099,-7.146287,-40.916805,-16.007620
5.400000,-112.885361,-5.454619,-118.349602,-7.023746,-44.125130,-16.196360
5.406250,-114.477676,-5.518032,-82.981018,-6.886868,-47.156284,-16.357721
5.412500,-115.708725,-5.498472,-47.736492,-6.746283,-50.405441,-16.534924
5.418750,-117.104927,-5.436129,-12.434765,-6.621674,-53.654526,-16.694736
5.425000,-118.963493,-5.397864,23.085953,-6.501138,-57.124287,-16.835323
5.431250,-121.259270,-5.411343,58.714954,-6.400726,-60.465801,-16.971806
5.437500,-123.865013,-5.493815,94.337425,-6.336025,-63.903309,-17.140234
5.443750,-126.350868,-5.601764,129.955124,-6.276864,-67.326195,-17.341803
5.450000,-128.401978,-5.690655,165.651855,-6.230796,-70.565529,-17.513788
5.456250,-130.048615,-5.721884,-158.790741,-6.214913,-74.193146,-17.734346
5.462500,-131.491974,-5.689824,-123.379868,-6.200336,-77.770378,-17.997755
5.468750,-133.098877,-5.618133,-87.999550,-6.147723,-81.450485,-18.235373
5.475000,-135.069061,-5.572224,-52.616142,-6.081675,-85.129875,-18.466217
5.481250,-137.562943,-5.594244,-17.459587,-6.027553,-89.142723,-18.718285
5.487500,-140.273575,-5.679434,17.614046,-5.955869,-93.390305,-18.962551
5.493750,-142.928879,-5.811262,52.832981,-5.829442,-97.703545,-19.121862
5.500000,-145.209991,-5.937046,88.099892,-5.700644,-102.276672,-19.282631
5.506250,-147.041428,-6.015105,123.223877,-5.616450,-107.277832,-19.419668
5.512500,-148.560196,-6.027908,158.355408,-5.558965,-112.483917,-19.599789
5.518750,-150.055511,-5.984974,-166.229477,-5.480161,-117.355804,-19.683243
5.525000,-151.903076,-5.937280,-130.463638,-5.395089,-121.821991,-19.777454
5.531250,-154.129974,-5.932407,-94.960144,-5.342684,-126.701065,-19.889715
5.537500,-156.632492,-5.988692,-59.550228,-5.316669,-131.604706,-20.023808
5.543750,-159.126328,-6.088040,-24.041677,-5.281796,-136.475739,-20.121393
5.550000,-161.391037,-6.181681,11.451246,-5.265531,-141.595734,-20.286922
5.556250,-163.255188,-6.240445,46.841084,-5.267075,-147.281326,-20.470070
5.562500,-164.907196,-6.230422,82.203445,-5.232816,-152.824951,-20.616095
5.568750,-166.723785,-6.193857,117.689804,-5.161726,-159.021866,-20.615284
5.575000,-168.808380,-6.182842,152.936417,-5.116412,-165.274933,-20.585781
5.581250,-171.391785,-6.235682,-171.937515,-5.073955,-172.047653,-20.452763
5.587500,-174.211838,-6.369080,-136.649826,-4.974643,-178.662689,-20.169962
5.593750,-176.839478,-6.550200,-101.247330,-4.846961,174.844437,-19.812340
5.600000,-178.971802,-6.706131,-66.073273,-4.760242,168.268341,-19.467140
5.606250,179.520142,-6.772992,-31.103075,-4.743468,161.582077,-19.179398
5.612500,178.366272,-6.727829,4.300034,-4.680992,155.334656,-18.850019
5.618750,177.080490,-6.621311,40.154865,-4.551836,149.460800,-18.523228
5.625000,175.151413,-6.514706,75.850716,-4.444542,143.368423,-18.238281
5.631250,172.424988,-6.512616,111.141792,-4.421758,136.515869,-18.039642
5.637500,169.210190,-6.634846,146.504959,-4.382780,129.579498,-17.818958
5.643750,165.996094,-6.830655,-177.942200,-4.309153,122.513069,-17.572416
5.650000,163.464310,-7.009491,-142.581924,-4.269524,115.042419,-17.349312
5.656250,161.788498,-7.069072,-107.574562,-4.272443,107.470596,-17.143108
5.662500,160.526733,-7.010756,-72.345818,-4.208081,100.332405,-16.870331
5.668750,159.035339,-6.904473,-36.963203,-4.088951,93.738907,-16.495979
5.675000,156.597656,-6.825553,-2.063661,-4.013452,87.440666,-16.162098
5.681250,153.349106,-6.881936,32.798412,-3.963624,81.328842,-15.862340
5.687500,149.585007,-7.097018,67.880814,-3.872592,75.784889,-15.503264
5.693750,146.053055,-7.375850,103.188522,-3.750485,70.428520,-15.183006
