Anritsu VNA Frequency[GHz],S21[deg],S21[dB],S11[deg],S11[dB],S22[deg],S22[dB]
1337934518.35,2012_05_25_09:28:38,+297.41,+297.30,+02.989,+297.19,+296.66,+297.46,+297.20,+297.49,242.846786,-6.530
3.009050,5.086719,-9.048342,-3.119790,-16.229218,-11.677670,-9.376718
3.021525,5.086719,-9.048342,-3.119790,-16.229218,-11.677670,-9.376718
3.034000,5.086719,-9.048342,-3.119790,-16.229218,-11.677670,-9.376718
3.046475,5.086719,-9.048342,-3.119790,-16.229218,-11.677670,-9.376718
3.058950,5.086719,-9.048342,-3.119790,-16.229218,-11.677670,-9.376718
3.071425,5.086719,-9.048342,-3.119790,-16.229218,-11.677670,-9.376718
3.083900,5.086719,-9.048342,-3.119790,-16.229218,-11.677670,-9.376718
3.096375,5.086719,-9.048342,-3.119790,-16.229218,-11.677670,-9.376718
3.108850,5.086719,-9.048342,-3.119790,-16.229218,-11.677670,-9.376718
3.121325,5.086719,-9.048342,-3.119790,-16.229218,-11.677670,-9.376718
3.133800,5.086719,-9.048342,-3.119790,-16.229218,-11.677670,-9.376718
3.146275,5.086719,-9.036128,-3.119790,-15.913835,-11.677670,-9.427333
3.158750,6.538846,-9.024542,-15.210972,-15.599826,-13.119093,-9.495598
3.171225,8.624266,-9.017979,-25.145647,-15.298249,-14.033364,-9.581749
3.183700,10.711660,-9.015642,-32.106556,-15.007902,-14.366800,-9.684160
3.196175,12.209323,-9.008407,-35.592007,-14.741089,-14.131906,-9.797887
3.208650,13.057760,-8.997068,-35.451660,-14.497783,-10.968974,-9.919315
3.221125,13.232784,-8.987667,-31.801689,-14.278392,-9.724427,-10.057758
3.233600,12.807391,-8.984985,-25.158255,-14.077405,-8.090817,-10.223008
3.246075,11.939589,-8.977438,-16.247385,-13.902733,-6.241630,-10.420328
3.258550,10.802973,-8.967244,-5.999192,-13.739603,-4.387973,-10.658880
3.271025,11.903598,-8.959046,4.572122,-13.594451,-2.753193,-10.961843
3.283500,10.652103,-8.954248,14.340815,-13.460065,-1.661831,-11.297119
3.295975,9.597795,-8.954276,22.292772,-13.342660,0.787437,-11.664795
3.308450,8.918032,-8.959124,27.470396,-13.242554,2.890215,-12.113736
3.320925,8.672477,-8.978185,29.124504,-13.156277,2.477820,-12.654515
3.333400,8.972775,-9.014707,26.781286,-13.077278,1.262643,-13.230572
3.345875,9.853684,-9.077624,22.663271,-13.000054,1.206734,-13.835576
3.358350,11.201086,-9.181129,15.071458,-12.929299,0.114928,-14.445588
3.370825,12.489560,-9.331984,5.515334,-12.867200,-1.440602,-15.015202
3.383300,13.236331,-9.518058,-4.245387,-12.820311,-2.904846,-15.491259
3.395775,13.375213,-9.746281,-12.604747,-12.793288,-3.752640,-15.823997
3.408250,13.007926,-10.035742,-18.092333,-12.788848,-6.523658,-15.972457
3.420725,12.291611,-10.366609,-22.393433,-12.808598,-7.180199,-15.911434
3.433200,11.593699,-10.717410,-23.309576,-12.863575,-8.332973,-15.632057
3.445675,11.156509,-11.072178,-21.328817,-12.955337,-9.617691,-15.142529
3.458150,11.162346,-11.411075,-17.060556,-13.079127,-10.696568,-14.461730
3.470625,11.275077,-11.707732,-11.377406,-13.254317,-11.254056,-13.621725
3.483100,11.145175,-11.943928,-5.330877,-13.469288,-11.010609,-12.671346
3.495575,10.980682,-12.097765,0.012028,-13.727888,-12.688760,-11.673822
3.508050,10.984311,-12.158042,3.592352,-14.025264,-12.418425,-10.692080
3.520525,11.324960,-12.125351,4.480001,-14.331226,-12.949128,-9.785596
3.533000,12.203965,-12.001157,4.388400,-14.638365,-14.013228,-9.003097
3.545475,13.733176,-11.790236,1.152514,-14.933665,-15.288609,-8.367667
3.557950,13.049691,-11.505070,-4.298703,-15.220893,-16.430706,-7.864448
3.570425,13.855873,-11.171154,-10.801156,-15.485186,-16.949032,-7.520417
3.582900,13.317538,-10.814467,-17.249575,-15.715852,-19.015772,-7.333995
3.595375,11.701291,-10.453468,-22.457750,-15.904967,-18.755358,-7.245408
3.607850,9.361794,-10.105842,-25.315376,-16.046883,-18.528553,-7.211830
3.620325,6.671642,-9.795165,-24.968102,-16.138058,-17.318583,-7.255319
3.632800,4.033208,-9.526898,-23.718042,-16.180487,-17.291876,-7.345220
3.645275,1.966569,-9.298081,-19.811165,-16.192085,-16.508249,-7.451992
3.657750,0.176921,-9.104094,-14.188097,-16.182171,-15.265431,-7.555446
3.670225,-1.777271,-8.958823,-7.986058,-16.156208,-13.842047,-7.640818
3.682700,-3.549445,-8.862159,-2.375847,-16.124031,-12.480244,-7.701876
3.695175,-4.916812,-8.787372,1.582336,-16.081099,-8.927083,-7.743603
3.707650,-5.646138,-8.733677,5.242527,-16.028238,-8.095505,-7.770736
3.720125,-5.797834,-8.710984,6.131321,-15.980163,-7.651373,-7.784636
3.732600,-5.306616,-8.711448,5.021755,-15.949217,-7.621478,-7.781921
3.745075,-4.116714,-8.719774,2.538628,-15.942993,-7.976250,-7.758353
3.757550,-2.928411,-8.741192,-0.451431,-15.961292,-8.648464,-7.708930
3.770025,-2.418994,-8.782354,-3.020108,-16.022362,-9.509932,-7.630809
3.782500,-2.687224,-8.851465,-4.393872,-16.104605,-7.981016,-7.528811
3.794975,-3.636029,-8.950719,-3.823951,-16.202293,-8.701660,-7.409605
3.807450,-5.115664,-9.068419,-0.667334,-16.331684,-9.108621,-7.276995
3.819925,-7.062086,-9.209176,2.601656,-16.500189,-9.065877,-7.131888
3.832400,-9.362183,-9.391506,7.347572,-16.719591,-8.482107,-6.973670
3.844875,-9.408333,-9.618929,12.375413,-16.999588,-7.313973,-6.798710
3.857350,-11.753508,-9.890936,16.576399,-17.313961,-5.565820,-6.606380
3.869825,-13.756346,-10.201911,20.876551,-17.630247,-3.278074,-6.400167
3.882300,-15.282677,-10.567055,22.780544,-17.964073,-1.077320,-6.187278
3.894775,-16.190882,-11.004712,22.646151,-18.308805,0.394581,-5.975107
3.907250,-16.292038,-11.496210,20.914898,-18.677107,1.109222,-5.767804
3.919725,-15.378890,-12.040332,18.135672,-19.035027,1.091696,-5.567403
3.932200,-13.416528,-12.636036,14.722696,-19.348021,0.409920,-5.373512
3.944675,-13.514017,-13.279105,11.408601,-19.606171,-0.827090,-5.184648
3.957150,-11.824446,-13.960613,8.849491,-19.786829,-2.463178,-5.002552
3.969625,-11.224666,-14.657810,7.581302,-19.876707,-1.885435,-4.834172
3.982100,-11.345986,-15.338834,8.088202,-19.868420,-3.695270,-4.686330
3.994575,-11.978219,-15.989221,7.731671,-19.773123,-5.287617,-4.563144
4.007050,-12.700455,-16.577335,7.927544,-19.583111,-6.488370,-4.465879
4.019525,-13.021520,-17.069035,7.557236,-19.291157,-7.162827,-4.393877
4.032000,-12.555944,-17.438971,8.095094,-18.911091,-7.228793,-4.344440
4.044475,-13.892570,-17.673796,6.892346,-18.455046,-6.655263,-4.315250
4.056950,-13.111372,-17.765902,4.372305,-17.935335,-5.460501,-4.308360
4.069425,-12.717081,-17.708599,1.175497,-17.381647,-4.254619,-4.326818
4.081900,-12.349505,-17.493256,-2.064342,-16.820265,-3.646665,-4.374019
4.094375,-11.611590,-17.137287,-4.701096,-16.277672,-3.648803,-4.449651
4.106850,-10.218717,-16.672180,-6.225831,-15.758249,-4.217904,-4.550896
4.119325,-7.809716,-16.113394,-6.095991,-15.268479,-5.274825,-4.674597
4.131800,-7.120677,-15.486248,-3.832325,-14.789715,-6.698586,-4.817153
4.144275,-4.310739,-14.814448,0.790095,-14.348410,-8.326347,-4.975591
4.156750,-2.205275,-14.138255,5.341695,-13.979795,-7.546957,-5.151496
4.169225,-0.603423,-13.478222,10.836659,-13.671114,-8.956140,-5.346756
4.181700,0.798365,-12.832517,16.024641,-13.415760,-9.944366,-5.561453
4.194175,2.204778,-12.223580,19.775402,-13.181076,-10.347715,-5.792636
4.206650,3.698493,-11.665127,21.035936,-12.976510,-10.044436,-6.036855
4.219125,5.342690,-11.157663,21.635773,-12.812403,-8.967889,-6.291251
4.231600,7.388844,-10.699542,19.270510,-12.675729,-7.092700,-6.552973
4.244075,9.202024,-10.281903,14.745981,-12.582648,-4.443349,-6.819939
4.256550,10.242833,-9.903204,9.191573,-12.525208,-1.639935,-7.092663
4.269025,10.381156,-9.573697,3.702580,-12.507149,0.706709,-7.371639
4.281500,9.775419,-9.278406,-0.533330,-12.521354,2.575855,-7.657381
4.293975,8.624315,-9.008478,-2.480947,-12.542834,3.977994,-7.947289
4.306450,6.992597,-8.758379,-1.153713,-12.586326,4.977132,-8.238166
4.318925,5.037833,-8.544727,1.250510,-12.657516,5.684929,-8.527821
4.331400,5.319622,-8.358253,6.349885,-12.762314,6.265984,-8.812649
4.343875,3.335683,-8.192232,13.155741,-12.890079,6.917486,-9.087800
4.356350,1.682091,-8.038209,20.544636,-13.044067,7.290303,-9.351851
4.368825,0.493454,-7.900450,27.411253,-13.214821,7.068545,-9.604074
4.381300,-0.168544,-7.790045,32.593376,-13.389084,6.523516,-9.844770
4.393775,-0.162697,-7.697998,35.256344,-13.564852,5.941240,-10.071820
4.406250,0.588728,-7.615909,34.661098,-13.755945,5.645378,-10.278312
4.418725,2.059276,-7.539433,30.399084,-13.960410,5.951379,-10.459533
4.431200,3.577286,-7.477035,24.599674,-14.180070,7.138893,-10.611803
4.443675,4.471056,-7.428193,15.622416,-14.418863,6.454858,-10.732215
4.456150,4.758671,-7.389436,4.938761,-14.665514,7.752804,-10.823631
4.468625,4.476003,-7.353995,-5.848870,-14.903163,8.271132,-10.891184
4.481100,3.718439,-7.322484,-15.044090,-15.129337,8.266109,-10.942544
4.493575,2.590937,-7.295010,-20.946087,-15.353454,8.028824,-10.981228
4.506050,1.195338,-7.275548,-25.221581,-15.583077,7.882122,-11.008344
4.518525,2.179338,-7.260252,-25.731890,-15.823348,8.161501,-11.022976
4.531000,0.936682,-7.245988,-22.917475,-16.067272,9.167321,-11.027914
4.543475,0.007189,-7.233357,-17.530195,-16.321327,8.164013,-11.024981
4.555950,-0.440857,-7.222039,-10.595568,-16.559216,9.041656,-11.022349
4.568425,-0.304487,-7.214915,-3.207821,-16.768417,9.063545,-11.026960
4.580900,0.505789,-7.207465,3.692542,-16.975855,8.536907,-11.043045
4.593375,2.016762,-7.201179,9.081419,-17.187233,7.790442,-11.068721
4.605850,4.180499,-7.190682,11.937803,-17.395340,7.185084,-11.096783
4.618325,6.355108,-7.185734,11.475770,-17.599142,7.068815,-11.118793
4.630800,7.893061,-7.181085,7.214061,-17.794666,7.760817,-11.133675
4.643275,8.762392,-7.176302,1.358314,-17.976496,6.497869,-11.144355
4.655750,9.007289,-7.174491,-7.892569,-18.111290,7.177930,-11.152918
4.668225,8.701065,-7.170448,-18.783062,-18.215984,7.067295,-11.163315
4.680700,7.980638,-7.164282,-29.549364,-18.313580,6.466853,-11.175693
4.693175,6.996099,-7.158376,-38.555283,-18.393959,5.692641,-11.190898
4.705650,8.329335,-7.152258,-44.374542,-18.480421,5.081348,-11.204564
4.718125,7.363426,-7.144753,-48.617668,-18.562283,4.963653,-11.216167
4.730600,6.694144,-7.132709,-49.149265,-18.658699,5.619876,-11.226779
4.743075,6.490852,-7.113605,-46.597427,-18.711201,4.310376,-11.241004
4.755550,6.837425,-7.091193,-41.439060,-18.770449,4.919664,-11.266191
4.768025,7.799293,-7.065699,-34.444569,-18.860357,4.725983,-11.305939
4.780500,9.389792,-7.043335,-26.714209,-18.990015,4.021611,-11.360105
4.792975,11.646950,-7.015534,-19.459394,-19.147417,3.138916,-11.424150
4.805450,13.899665,-6.982446,-13.764299,-19.341780,2.416877,-11.493303
4.817925,15.456331,-6.950922,-10.579211,-19.572462,2.194542,-11.564050
4.830400,16.308084,-6.925604,-10.690445,-19.830675,2.769768,-11.637965
4.842875,16.484058,-6.903952,-12.266262,-20.080826,1.404283,-11.718884
4.855350,16.118299,-6.885967,-16.787647,-20.364828,2.019339,-11.809457
4.867825,15.321886,-6.866386,-23.104177,-20.683254,1.907435,-11.907204
4.880300,14.217160,-6.853999,-29.974007,-21.025244,1.364797,-12.009977
4.892775,12.990499,-6.852882,-36.001141,-21.394434,0.706522,-12.112573
4.905250,11.303483,-6.855104,-39.608822,-21.782263,0.290547,-12.211380
4.917725,8.852136,-6.859058,-39.482231,-22.133516,0.447262,-12.304806
4.930200,5.920018,-6.861504,-38.994434,-22.426285,1.494983,-12.388013
4.942675,2.816322,-6.868178,-34.670219,-22.717205,0.690886,-12.463026
4.955150,-0.118868,-6.879660,-27.554028,-23.010540,1.939938,-12.533108
4.967625,-2.520675,-6.892134,-18.911091,-23.318293,2.517127,-12.597840
4.980100,-4.083384,-6.897537,-9.869292,-23.636780,2.694684,-12.652895
4.992575,-5.135561,-6.897997,-1.382056,-23.904329,2.758982,-12.693588
5.005050,-6.113679,-6.897328,5.459378,-24.154686,3.020381,-12.717891
5.017525,-6.824585,-6.895975,10.080922,-24.340944,3.783799,-12.730150
5.030000,-7.108547,-6.892478,12.520850,-24.531601,5.335471,-12.731470
5.042475,-6.789673,-6.879995,12.838188,-24.705669,4.947810,-12.724261
5.054950,-5.855252,-6.867812,11.425350,-24.891226,6.521326,-12.712048
5.067425,-4.297550,-6.853724,8.933381,-25.045345,7.324168,-12.695956
5.079900,-2.150746,-6.842420,5.138717,-25.129213,7.625576,-12.671510
5.092375,-0.044087,-6.835747,1.706625,-25.166533,7.716733,-12.637997
5.104850,1.416351,-6.827614,-0.885550,-25.153347,7.921155,-12.594239
5.117325,2.195819,-6.821930,-2.114464,-25.056051,8.610637,-12.541552
5.129800,2.281789,-6.822407,-4.223732,-24.931334,10.096938,-12.476573
5.142275,1.762185,-6.829660,-5.876957,-24.760277,9.665488,-12.396034
5.154750,0.768749,-6.842203,-7.948862,-24.542269,11.209752,-12.305112
5.167225,-0.487230,-6.859379,-8.788832,-24.248672,11.988001,-12.204431
5.179700,0.559233,-6.879226,-10.942060,-23.882793,12.265078,-12.092717
5.192175,-0.719856,-6.906243,-13.959666,-23.438923,12.308826,-11.969702
5.204650,-1.737178,-6.934885,-17.655506,-22.965479,12.434405,-11.833728
5.217125,-2.319430,-6.968187,-19.834166,-22.484884,12.997640,-11.686903
5.229600,-2.323693,-7.004612,-21.092485,-21.995449,14.298213,-11.530213
5.242075,-1.696720,-7.045519,-20.784246,-21.488186,13.611232,-11.361300
5.254550,-0.404471,-7.090102,-18.458216,-20.941959,14.822648,-11.184034
5.267025,1.529373,-7.139108,-14.049220,-20.362757,15.169463,-11.002178
5.279500,3.469128,-7.192819,-7.856452,-19.806028,14.907694,-10.818627
5.291975,4.785417,-7.249733,-0.273727,-19.261490,14.330483,-10.632614
5.304450,5.452812,-7.308604,7.868068,-18.755798,13.790988,-10.442342
5.316925,5.507809,-7.366965,15.559193,-18.287783,13.656217,-10.248840
5.329400,4.989555,-7.429723,21.705971,-17.859650,14.241411,-10.051744
5.341875,4.027547,-7.497164,25.235380,-17.410355,12.817384,-9.851749
5.354350,2.792336,-7.567823,25.121248,-16.960749,13.274178,-9.652964
5.366825,3.893540,-7.639496,24.371525,-16.561750,12.855840,-9.462229
5.379300,2.719262,-7.705745,20.244553,-16.196148,11.837535,-9.279560
5.391775,1.821388,-7.774187,14.023679,-15.859950,10.550625,-9.103158
5.404250,1.303324,-7.848604,7.085599,-15.558719,9.330823,-8.930176
5.416725,1.339116,-7.925520,0.864094,-15.283650,8.555683,-8.758473
5.429200,2.047718,-7.998815,-3.344540,-15.022145,8.538239,-8.589234
5.441675,3.405752,-8.072409,-4.244150,-14.756861,6.547066,-8.423153
5.454150,5.343924,-8.154254,-3.819364,-14.519027,6.467792,-8.264170
5.466625,7.224291,-8.248478,0.016373,-14.309127,5.545456,-8.115303
5.479100,8.472870,-8.340196,6.340515,-14.120837,4.063647,-7.975250
5.491575,9.098094,-8.429698,14.216391,-13.956879,2.353438,-7.840112
5.504050,9.074752,-8.522942,22.542738,-13.810521,0.759600,-7.707171
5.516525,8.374009,-8.636185,30.168192,-13.674877,-0.352900,-7.573115
5.529000,7.203809,-8.764952,35.969837,-13.542092,-0.676992,-7.438864
5.541475,5.802617,-8.896743,39.042984,-13.413663,-0.548149,-7.306300
5.553950,6.760815,-9.035875,38.867020,-13.301675,-0.343299,-7.177426
5.566425,5.382635,-9.190643,34.916855,-13.209824,0.106828,-7.053000
5.578900,4.235122,-9.369380,29.396921,-13.141189,0.943630,-6.931699
5.591375,3.514909,-9.565227,20.579786,-13.092292,2.282661,-6.809660
5.603850,3.426268,-9.769640,9.984716,-13.054637,4.201334,-6.684455
5.616325,3.971071,-9.996411,-0.836891,-13.011267,6.743048,-6.555345
5.628800,5.085769,-10.251641,-10.156634,-12.973713,9.893147,-6.424768
5.641275,6.822796,-10.544794,-16.334845,-12.947220,13.009931,-6.295728
5.653750,8.613196,-10.865426,-21.073425,-12.951371,15.447936,-6.170343
5.666225,9.842063,-11.204112,-22.230915,-12.981207,17.165525,-6.049430
5.678700,10.480336,-11.581354,-20.312899,-13.046591,18.169718,-5.931597
5.691175,10.500233,-12.001816,-16.103767,-13.156612,18.531652,-5.813915
5.703650,10.176030,-12.458116,-10.676736,-13.276307,18.380423,-5.694586
5.716125,9.689754,-12.941291,-5.027707,-13.428705,17.894743,-5.574643
5.728600,9.292651,-13.447894,-0.109958,-13.636528,17.265095,-5.457026
5.741075,9.172542,-13.975303,3.068789,-13.913281,16.110659,-5.344794
5.753550,6.718874,-14.495789,3.514713,-14.260618,14.081017,-5.240322
5.766025,5.925030,-14.990471,0.623194,-14.677444,11.447998,-5.145080
5.778500,4.138912,-15.443367,-5.837751,-15.195837,8.527555,-5.059073
5.790975,1.754026,-15.857912,-15.461963,-15.746704,5.667285,-4.980248
5.803450,-0.709600,-16.200035,-27.790731,-16.369228,3.210041,-4.909339
5.815925,-2.642098,-16.457415,-41.603302,-17.080967,1.473863,-4.848841
5.828400,-3.612741,-16.620907,-55.563183,-17.864016,0.146133,-4.802047
5.840875,-6.223510,-16.691864,-67.946701,-18.690138,-1.139922,-4.771242
5.853350,-6.419497,-16.678640,-77.055641,-19.551979,-2.208366,-4.757432
5.865825,-6.758295,-16.574287,-84.257240,-20.417309,-2.900594,-4.759286
5.878300,-6.854352,-16.376846,-86.871185,-21.227142,-3.091818,-4.773651
5.890775,-6.493074,-16.127520,-84.853355,-21.970507,-2.684662,-4.796161
5.903250,-5.398868,-15.843093,-78.376610,-22.602436,-1.618551,-4.825707
5.915725,-3.165617,-15.533979,-68.315376,-23.085377,0.114390,-4.862999
5.928200,0.340777,-15.194913,-55.376133,-23.422777,1.885289,-4.908198
5.940675,2.220532,-14.841272,-40.581882,-23.603767,3.042085,-4.961338
5.953150,5.970451,-14.512852,-25.269688,-23.631403,3.535660,-5.021300
5.965625,8.598425,-14.207993,-10.797361,-23.485151,3.377502,-5.085727
5.978100,10.341166,-13.915855,1.616769,-23.168007,2.638904,-5.150324
5.990575,11.209209,-13.648311,11.128394,-22.720900,1.449113,-5.212356
6.003050,11.278721,-13.411449,16.950010,-22.160707,-0.011899,-5.272880
6.015525,10.684291,-13.221192,18.603333,-21.519722,0.858308,-5.334377
6.028000,9.804123,-13.058669,18.441996,-20.817934,-0.579966,-5.398119
6.040475,8.869737,-12.905030,14.886863,-20.099062,-1.761473,-5.464947
6.052950,7.460250,-12.773900,9.426095,-19.382164,-2.554020,-5.533825
6.065425,5.162610,-12.686008,3.584102,-18.637329,-2.849427,-5.601500
6.077900,2.281659,-12.620184,-1.560315,-17.947294,-2.577195,-5.664220
6.090375,-0.666718,-12.570388,-4.783431,-17.276993,-1.684218,-5.722147
6.102850,-3.358295,-12.526356,-5.486526,-16.621572,2.237741,-5.777504
6.115325,-5.554147,-12.499478,-3.065533,-15.994900,4.291853,-5.832390
6.127800,-6.964400,-12.499306,2.204537,-15.430174,6.733874,-5.888127
6.140275,-7.853103,-12.498559,9.918153,-14.921142,9.371447,-5.945442
6.152750,-8.555935,-12.498216,19.229267,-14.458487,11.986087,-6.003618
6.165225,-9.002708,-12.514633,29.108967,-14.047953,14.361920,-6.059718
6.177700,-8.994117,-12.555312,38.357624,-13.652254,16.314722,-6.114735
6.190175,-8.281831,-12.596836,45.870983,-13.270824,17.711880,-6.175207
6.202650,-6.756282,-12.633293,50.987320,-12.922886,20.843784,-6.248414
6.215125,-4.382524,-12.664897,52.902626,-12.598089,20.793077,-6.341720
6.227600,-1.277128,-12.701098,51.036030,-12.294460,19.920004,-6.461953
6.240075,2.007153,-12.722394,45.261337,-12.007691,18.247416,-6.614757
6.252550,4.884231,-12.712858,35.701820,-11.746051,15.862795,-6.799336
6.265025,7.262437,-12.674060,22.806606,-11.499035,12.920133,-7.012588
6.277500,9.084477,-12.601033,9.656988,-11.271624,9.673507,-7.259011
6.289975,10.405532,-12.496101,-4.592787,-11.071686,8.807340,-7.542811
6.302450,11.358416,-12.336217,-17.723906,-10.898781,5.735058,-7.861447
6.314925,12.028446,-12.118773,-30.602446,-10.768487,3.068866,-8.208647
6.327400,12.402582,-11.876051,-40.105854,-10.674680,0.979604,-8.575520
6.339875,12.045074,-11.613045,-45.741024,-10.622744,-0.398010,-8.948772
6.352350,10.630332,-11.327457,-47.329914,-10.603842,-0.998710,-9.310369
6.364825,8.505546,-11.024917,-45.019245,-10.616955,-0.775527,-9.651638
6.377300,5.906759,-10.725440,-39.197350,-10.652147,2.696824,-9.972971
6.389775,3.104214,-10.445131,-30.519739,-10.698968,4.500243,-10.273601
6.402250,0.535876,-10.192560,-19.945194,-10.767387,6.846353,-10.551724
6.414725,-1.395286,-9.952956,-8.449150,-10.842099,9.502690,-10.807670
6.427200,-3.068780,-9.741082,2.774870,-10.918340,12.219113,-11.041852
6.439675,-4.863451,-9.569956,12.659265,-10.990785,14.730952,-11.245449
6.452150,-6.484421,-9.432232,20.194046,-11.055097,16.816763,-11.420126
6.464625,-7.667473,-9.307548,24.623100,-11.098808,18.378731,-11.581389
6.477100,-8.292175,-9.202549,25.435768,-11.120323,21.712219,-11.741138
6.489575,-8.320830,-9.120843,22.481529,-11.116073,21.875137,-11.905991
6.502050,-7.721372,-9.062373,15.901612,-11.085111,21.204634,-12.081258
6.514525,-4.062427,-9.012612,6.141017,-11.029726,19.691418,-12.266293
