Anritsu VNA Frequency[GHz],S21[deg],S21[dB],S11[deg],S11[dB],S22[deg],S22[dB]
1337938906.94,2012_05_25_10:41:46,+297.75,+297.58,+02.989,+297.47,+296.91,+297.78,+297.46,+297.81,243.106476,-6.572
4.006250,-14.935369,-12.327374,-151.737076,-1.949187,-109.579987,-18.519926
4.012500,-16.268440,-12.696190,-117.378227,-1.813535,-118.652290,-18.348354
4.018750,-17.678638,-13.033299,-83.006584,-1.690629,-127.825989,-18.126495
4.025000,-19.753223,-13.453038,-48.769169,-1.597136,-137.145935,-17.817295
4.031250,-22.399437,-14.060555,-14.511027,-1.518224,-145.983932,-17.442385
4.037500,-25.202692,-14.833126,19.815657,-1.459519,-154.327438,-17.005373
4.043750,-27.571245,-15.730566,54.138981,-1.413772,-162.140366,-16.553030
4.050000,-28.627645,-16.660505,88.429131,-1.377657,-169.467789,-16.114115
4.056250,-28.265659,-17.516092,122.620453,-1.358433,-176.440033,-15.702973
4.062500,-26.927513,-18.282623,156.751877,-1.326922,177.158203,-15.304809
4.068750,-24.706833,-18.978548,-169.139664,-1.300416,170.963669,-14.931269
4.075000,-22.248997,-19.696480,-135.076981,-1.277299,164.918121,-14.558509
4.081250,-19.684389,-20.470354,-101.061455,-1.246454,159.122330,-14.199056
4.087500,-16.357632,-21.342590,-66.984596,-1.212903,153.262543,-13.838804
4.093750,-11.294827,-22.073814,-32.807930,-1.187320,147.488098,-13.493952
4.100000,-3.857348,-22.413080,1.415875,-1.169145,141.822662,-13.158803
4.106250,5.672597,-22.289515,35.622269,-1.164956,136.247055,-12.809744
4.112500,15.753603,-21.638550,69.861046,-1.173255,130.914322,-12.481570
4.118750,24.984884,-20.626141,104.103928,-1.200814,125.821320,-12.162519
4.125000,32.081467,-19.512121,138.398163,-1.247915,120.966286,-11.845896
4.131250,36.053123,-18.440092,172.581436,-1.279874,116.254166,-11.562773
4.137500,37.697708,-17.603880,-153.133804,-1.336888,111.781418,-11.308414
4.143750,37.945496,-16.893417,-118.878113,-1.397124,107.418716,-11.078561
4.150000,37.774185,-16.337440,-84.614548,-1.468728,103.178276,-10.868888
4.156250,38.116131,-15.709197,-50.378399,-1.541390,98.865227,-10.693790
4.162500,38.933849,-14.966658,-16.166338,-1.627969,94.544731,-10.554327
4.168750,39.739021,-14.074208,18.044016,-1.718918,90.160233,-10.404503
4.175000,39.370007,-13.180511,52.341019,-1.793591,85.871841,-10.280356
4.181250,37.515556,-12.415562,86.603699,-1.871208,81.552544,-10.156292
4.187500,34.024509,-11.889337,120.825890,-1.972387,77.074547,-10.051588
4.193750,29.850307,-11.611828,155.165741,-2.076764,72.816643,-9.945116
4.200000,25.971716,-11.492267,-170.228973,-2.180096,68.772247,-9.832951
4.206250,23.119534,-11.406057,-135.621521,-2.300448,64.846275,-9.719495
4.212500,21.555052,-11.190059,-100.801071,-2.433882,60.986488,-9.612873
4.218750,21.113958,-10.785610,-65.830879,-2.553919,57.344715,-9.525509
4.225000,20.768993,-10.228826,-30.520250,-2.661318,53.739498,-9.419670
4.231250,19.577522,-9.649827,4.502363,-2.772828,50.204006,-9.348480
4.237500,17.095346,-9.178907,39.282848,-2.916554,46.515079,-9.318084
4.243750,13.556006,-8.889723,74.025215,-3.061584,42.809067,-9.304927
4.250000,9.621096,-8.744397,108.689583,-3.195353,39.107151,-9.289536
4.256250,6.139889,-8.670260,143.320404,-3.304487,35.356979,-9.283844
4.262500,3.504905,-8.554934,177.746017,-3.427138,31.466045,-9.302735
4.268750,1.640771,-8.335574,-147.603699,-3.541702,27.463068,-9.323580
4.275000,0.070233,-8.017137,-112.778549,-3.635884,23.470524,-9.330153
4.281250,-1.818536,-7.693076,-77.874886,-3.740326,19.519892,-9.336546
4.287500,-4.364091,-7.420986,-42.903492,-3.862420,15.530388,-9.367002
4.293750,-7.518774,-7.253528,-7.604078,-4.013342,11.666537,-9.391601
4.300000,-10.809437,-7.158649,27.681541,-4.174691,7.879386,-9.412159
4.306250,-13.843540,-7.098888,62.903633,-4.358528,4.193172,-9.456903
4.312500,-16.339258,-7.004970,98.211296,-4.551170,0.579881,-9.502230
4.318750,-18.336365,-6.830790,133.465546,-4.739255,-3.074114,-9.575111
4.325000,-20.275148,-6.587244,168.612457,-4.944398,-6.531792,-9.660939
4.331250,-22.510908,-6.337599,-156.136505,-5.125475,-10.117100,-9.763847
4.337500,-25.283752,-6.146133,-120.862808,-5.304766,-13.753905,-9.875041
4.343750,-28.459269,-6.045276,-85.588448,-5.485025,-17.405298,-9.989323
4.350000,-31.732782,-6.013282,-50.317757,-5.647248,-21.193096,-10.124010
4.356250,-34.687622,-5.996397,-15.031034,-5.808294,-25.126875,-10.247583
4.362500,-37.158257,-5.939922,20.485334,-5.942543,-28.906679,-10.360600
4.368750,-39.288174,-5.820197,56.069485,-6.076549,-32.676586,-10.476736
4.375000,-41.408871,-5.660431,91.716858,-6.222034,-36.549644,-10.579753
4.381250,-43.898205,-5.521482,127.431450,-6.358672,-40.257915,-10.689328
4.387500,-46.803627,-5.444133,163.323303,-6.495805,-43.936455,-10.785266
4.393750,-50.007412,-5.458564,-160.737274,-6.654165,-47.543114,-10.912125
4.400000,-53.042873,-5.519281,-124.798851,-6.844477,-51.201771,-11.066006
4.406250,-55.543884,-5.565777,-88.635895,-7.007407,-54.708172,-11.208750
4.412500,-57.429825,-5.521183,-52.339733,-7.162337,-58.154953,-11.343949
4.418750,-58.849342,-5.358909,-16.190550,-7.353811,-61.832409,-11.523006
4.425000,-60.390793,-5.121693,19.811672,-7.559714,-65.681602,-11.733535
4.431250,-62.573566,-4.892898,56.067711,-7.697438,-69.287415,-11.886982
4.437500,-65.715843,-4.772226,92.412262,-7.804611,-72.918953,-12.024929
4.443750,-69.550720,-4.808820,128.382050,-7.961956,-77.115776,-12.244397
4.450000,-73.473854,-4.961637,164.053116,-8.144254,-81.673500,-12.516740
4.456250,-76.739311,-5.162874,-159.643204,-8.206450,-85.664665,-12.690642
4.462500,-79.062332,-5.311893,-122.777649,-8.168090,-89.084587,-12.779055
4.468750,-80.446243,-5.327988,-86.252800,-8.150950,-92.958000,-12.898245
4.475000,-81.389908,-5.195219,-50.106117,-8.201666,-97.164467,-13.083030
4.481250,-82.524796,-4.984836,-13.497725,-8.199332,-101.144859,-13.213440
4.487500,-84.563271,-4.810032,23.622808,-8.124374,-104.656433,-13.324250
4.493750,-87.515533,-4.763097,60.579033,-8.080148,-108.017830,-13.481395
4.500000,-91.022751,-4.862913,97.034386,-8.089514,-111.508736,-13.695121
4.506250,-94.413406,-5.061534,133.507690,-8.049934,-114.505409,-13.841196
4.512500,-96.989388,-5.251023,169.819519,-7.998046,-117.015129,-13.916086
4.518750,-98.620804,-5.348241,-154.651733,-8.046319,-120.043755,-14.009153
4.525000,-99.445869,-5.286451,-119.651863,-8.182437,-123.604736,-14.179819
4.531250,-100.123917,-5.087217,-84.427422,-8.280720,-127.474846,-14.291914
4.537500,-101.387802,-4.846398,-48.668468,-8.300689,-131.252243,-14.341840
4.543750,-103.653580,-4.687511,-13.040383,-8.365181,-135.556808,-14.451117
4.550000,-106.897369,-4.682061,22.261492,-8.461631,-140.282776,-14.582877
4.556250,-110.489639,-4.819957,58.248962,-8.489388,-144.670761,-14.656127
4.562500,-113.590195,-5.026192,94.756363,-8.425509,-148.337860,-14.627688
4.568750,-115.797821,-5.187133,131.096466,-8.382089,-152.062424,-14.585634
4.575000,-116.930473,-5.227733,167.148987,-8.401074,-156.048950,-14.604552
4.581250,-117.572350,-5.096261,-156.813370,-8.418248,-159.691711,-14.661225
4.587500,-118.277321,-4.854485,-120.465828,-8.433415,-163.075134,-14.711631
4.593750,-119.921074,-4.626326,-84.167908,-8.463465,-166.271317,-14.791345
4.600000,-122.645256,-4.520488,-47.711014,-8.443912,-169.297211,-14.859017
4.606250,-126.161201,-4.587269,-11.200910,-8.375878,-172.054886,-14.875170
4.612500,-129.797684,-4.790176,24.772659,-8.352765,-175.053665,-14.873733
4.618750,-132.715057,-5.031708,60.172855,-8.423598,-178.563522,-14.915360
4.625000,-134.562866,-5.205378,95.598030,-8.491810,177.725388,-14.945652
4.631250,-135.379166,-5.224988,131.353058,-8.497150,174.143967,-14.921419
4.637500,-135.763123,-5.079296,166.948578,-8.529203,170.257355,-14.912301
4.643750,-136.405548,-4.830651,-157.818085,-8.626442,165.842361,-14.993553
4.650000,-137.932526,-4.592865,-122.288834,-8.685246,161.739853,-15.029314
4.656250,-140.620056,-4.486247,-86.111885,-8.628088,158.230927,-14.992965
4.662500,-144.022614,-4.525394,-50.008060,-8.590022,154.804489,-14.972386
4.668750,-147.508453,-4.694134,-14.398108,-8.633167,151.056168,-15.031178
4.675000,-150.299026,-4.884138,21.544271,-8.631760,147.676300,-15.047986
4.681250,-152.167816,-5.003093,58.151997,-8.531212,144.979752,-14.971077
4.687500,-153.199936,-5.000415,94.309654,-8.511947,142.201813,-14.926614
4.693750,-153.928696,-4.855618,129.912918,-8.627292,138.751968,-14.988880
4.700000,-155.040848,-4.670157,165.755356,-8.727547,135.683533,-15.045467
4.706250,-157.055710,-4.525228,-157.559006,-8.692552,133.233902,-15.025793
4.712500,-159.897293,-4.503049,-121.210815,-8.672633,130.584793,-15.039265
4.718750,-163.191940,-4.623643,-85.716087,-8.786402,127.347900,-15.199855
4.725000,-166.320145,-4.819824,-50.332558,-8.855065,124.441429,-15.352757
4.731250,-168.646561,-5.011798,-14.082575,-8.767673,122.361931,-15.349325
4.737500,-170.195526,-5.125217,21.959126,-8.668024,120.341805,-15.341840
4.743750,-171.007370,-5.123135,57.242077,-8.672705,117.383720,-15.406809
4.750000,-171.601303,-5.011188,92.651375,-8.652809,114.703323,-15.392892
4.756250,-172.575195,-4.858497,129.016541,-8.458535,112.931709,-15.131269
4.762500,-174.007919,-4.680739,165.258881,-8.215240,111.217369,-14.688563
4.768750,-175.859009,-4.501242,-159.737350,-8.238172,107.756226,-14.459939
4.775000,-178.642120,-4.477098,-125.662224,-8.438285,102.011017,-14.599061
4.781250,178.017761,-4.597393,-90.298866,-8.538703,97.395111,-14.695281
4.787500,175.226456,-4.743483,-54.086216,-8.573554,94.265602,-14.759679
4.793750,173.380798,-4.819358,-18.418583,-8.689596,91.108101,-14.899640
4.800000,172.155762,-4.793111,16.949068,-8.848849,87.828110,-15.139116
4.806250,171.106140,-4.682783,52.787216,-8.928456,85.272049,-15.307767
4.812500,169.642807,-4.561651,88.963608,-8.905485,83.297302,-15.452097
4.818750,167.630661,-4.481679,124.677330,-8.930589,80.857353,-15.643969
4.825000,165.152054,-4.468059,159.914200,-8.981939,78.352486,-15.879626
4.831250,162.527466,-4.516085,-164.479416,-9.009590,76.035179,-16.007332
4.837500,160.122208,-4.586366,-128.668640,-9.005854,73.706993,-16.114620
4.843750,158.072205,-4.625378,-92.880943,-9.020030,71.056198,-16.243603
4.850000,156.424225,-4.611217,-57.158714,-9.057844,68.114021,-16.372068
4.856250,154.888596,-4.549855,-21.324549,-9.083445,65.489586,-16.465551
4.862500,153.204865,-4.473313,14.552051,-9.115292,62.793842,-16.537128
4.868750,151.185165,-4.424973,50.306931,-9.184451,60.155083,-16.650553
4.875000,148.844345,-4.407516,85.984451,-9.263360,57.648319,-16.799194
4.881250,146.446198,-4.442557,121.820366,-9.333136,55.294384,-16.975742
4.887500,144.155121,-4.490994,157.628326,-9.414109,52.915070,-17.276907
4.893750,142.113174,-4.515368,-166.623993,-9.513774,50.820351,-17.705587
4.900000,140.256699,-4.519996,-130.950485,-9.596079,49.891651,-17.937387
4.906250,138.548874,-4.494428,-95.220383,-9.684337,49.819046,-18.104254
4.912500,136.775879,-4.451805,-59.535416,-9.746111,49.183155,-18.252092
4.918750,134.834442,-4.415660,-23.804836,-9.816199,47.851208,-18.463959
4.925000,132.652359,-4.407127,11.925295,-9.840180,46.020020,-18.693907
4.931250,130.351715,-4.428337,47.549362,-9.890414,43.971409,-18.952991
4.937500,128.115402,-4.463541,83.209229,-9.943583,41.888542,-19.195442
4.943750,126.112030,-4.483393,118.980888,-10.002370,39.995502,-19.384590
4.950000,124.259094,-4.478191,154.862732,-10.084019,38.453411,-19.531385
4.956250,122.500916,-4.432142,-169.362488,-10.230722,36.751106,-19.689314
4.962500,120.589401,-4.374977,-133.376816,-10.414715,35.001621,-19.805508
4.968750,118.391258,-4.350007,-97.032082,-10.601377,34.115601,-19.841690
4.975000,115.857849,-4.374782,-60.508728,-10.829852,33.412273,-19.743074
4.981250,113.153664,-4.478509,-24.096077,-11.120944,32.752266,-19.586123
4.987500,110.444389,-4.653993,12.711901,-11.362554,31.954802,-19.274035
4.993750,108.165924,-4.876579,50.470612,-11.435498,30.411358,-18.931250
5.000000,106.708580,-5.009020,88.725494,-11.248796,26.506147,-18.918566
5.006250,106.304955,-4.945917,126.284264,-10.989534,20.186890,-19.441988
5.012500,106.092522,-4.756040,162.461365,-10.776805,13.404375,-20.331526
5.018750,105.053360,-4.558556,-161.978378,-10.588708,8.456732,-21.295864
5.025000,103.061989,-4.446143,-126.756058,-10.480504,4.880789,-22.316689
5.031250,100.556206,-4.418997,-91.788055,-10.522426,1.416230,-23.404888
5.037500,97.927521,-4.447922,-56.545773,-10.604525,-1.100935,-24.362545
5.043750,95.463806,-4.503021,-20.208397,-10.594726,-3.239368,-25.123138
5.050000,93.348007,-4.548185,16.460224,-10.594435,-5.402912,-25.813013
5.056250,91.624771,-4.545490,52.375027,-10.732836,-9.304884,-26.598242
5.062500,90.022461,-4.483764,88.296478,-10.904057,-13.776665,-27.405010
5.068750,88.396545,-4.408327,124.877701,-10.982663,-16.382166,-28.266697
5.075000,86.448715,-4.335423,161.791977,-11.004780,-17.856047,-29.113035
5.081250,84.223289,-4.304192,-162.075806,-11.123700,-19.702942,-30.261078
5.087500,81.829903,-4.321229,-126.314575,-11.271971,-20.419785,-31.944771
5.093750,79.376114,-4.358244,-89.905190,-11.283249,-19.155800,-33.656487
5.100000,77.134865,-4.396333,-52.992275,-11.215737,-15.523030,-36.460629
5.106250,75.166901,-4.416962,-16.854460,-11.226995,-10.608920,-41.230965
5.112500,73.348633,-4.410060,18.840643,-11.285323,2.182466,-46.174046
5.118750,71.482956,-4.383716,55.231861,-11.268681,51.997341,-42.020390
5.125000,69.519295,-4.352329,92.019020,-11.192612,109.195854,-37.792885
5.131250,67.393242,-4.348177,128.524673,-11.184961,126.374672,-34.759731
5.137500,65.223083,-4.358144,164.767014,-11.218086,133.646973,-32.752464
5.143750,63.085819,-4.373758,-158.428802,-11.182008,136.492065,-31.213081
5.150000,61.014027,-4.381756,-121.339424,-11.114025,137.885635,-29.998732
5.156250,59.063995,-4.371556,-84.594131,-11.115962,137.526932,-28.875650
5.162500,57.128819,-4.344015,-47.995422,-11.119090,136.643829,-27.936838
5.168750,55.059685,-4.321803,-11.023611,-11.070945,134.812210,-27.064556
5.175000,52.811825,-4.318811,25.807228,-11.068518,132.253662,-26.170412
5.181250,50.478699,-4.361323,62.169701,-11.127572,129.468704,-25.392412
5.187500,48.149090,-4.423496,98.827179,-11.068772,126.583641,-24.601963
5.193750,45.995174,-4.490409,135.877167,-10.911503,124.361946,-23.757397
5.200000,44.170990,-4.517159,172.202545,-10.783196,121.975449,-22.933115
5.206250,42.608498,-4.480480,-152.206573,-10.769769,118.566490,-22.326786
5.212500,41.023117,-4.410519,-116.441750,-10.693042,115.706055,-21.716148
5.218750,39.182785,-4.317955,-79.658257,-10.460857,113.698746,-21.079102
5.225000,36.880947,-4.277323,-43.126743,-10.291382,111.513489,-20.558701
5.231250,34.219200,-4.306188,-7.414615,-10.263357,109.180923,-20.148773
5.237500,31.288090,-4.400185,28.829006,-10.204197,107.090378,-19.732651
5.243750,28.674809,-4.537999,66.100960,-10.011745,106.314316,-19.179140
5.250000,26.535999,-4.662426,103.196045,-9.839106,104.951439,-18.690405
5.256250,24.950151,-4.705227,139.329941,-9.826104,102.769196,-18.381144
5.262500,23.697456,-4.666134,175.234634,-9.795480,100.303391,-18.123438
5.268750,22.435923,-4.558685,-148.112839,-9.651756,98.660355,-17.803644
5.275000,20.745523,-4.446972,-111.586845,-9.509237,96.823593,-17.490097
5.281250,18.408239,-4.402560,-76.022652,-9.469155,94.235336,-17.278780
5.287500,15.554052,-4.439826,-40.581848,-9.391035,91.837158,-17.041639
5.293750,12.572488,-4.567401,-4.577511,-9.219653,89.896866,-16.714586
5.300000,9.977537,-4.719462,31.514183,-9.026347,87.603493,-16.407469
5.306250,7.949798,-4.834542,67.151299,-8.876101,84.814323,-16.157949
5.312500,6.575651,-4.842393,102.676727,-8.734912,82.076668,-15.936003
5.318750,5.429149,-4.761515,138.716949,-8.553164,79.777069,-15.646377
5.325000,3.978994,-4.629842,174.557327,-8.423208,77.417038,-15.395293
5.331250,1.909700,-4.528183,-149.870514,-8.355661,74.937798,-15.196297
5.337500,-0.870514,-4.528090,-113.888214,-8.241949,72.708443,-14.972952
5.343750,-4.055495,-4.648468,-77.604073,-8.080605,70.838509,-14.693679
5.350000,-7.143094,-4.850125,-41.538502,-7.965630,68.662239,-14.496702
5.356250,-9.601481,-5.053187,-6.004361,-7.913033,66.157532,-14.359852
5.362500,-11.246492,-5.168481,29.696869,-7.821421,63.911812,-14.181982
5.368750,-12.212703,-5.164912,65.640709,-7.682892,61.943069,-13.981630
5.375000,-13.018610,-5.046699,101.205688,-7.586313,59.770504,-13.826542
5.381250,-14.280932,-4.885580,136.382416,-7.532187,57.152714,-13.730414
5.387500,-16.332039,-4.765059,171.693863,-7.455637,54.607838,-13.619892
5.393750,-19.204182,-4.757985,-152.802032,-7.316891,52.276939,-13.479848
5.400000,-22.375427,-4.865372,-117.306595,-7.167620,49.904491,-13.341641
5.406250,-25.451670,-5.040236,-82.074310,-7.042408,47.413811,-13.229289
5.412500,-27.912971,-5.208320,-46.816982,-6.909108,44.923115,-13.079853
5.418750,-29.634357,-5.288476,-11.376631,-6.769891,42.436516,-12.936718
5.425000,-30.941418,-5.282308,24.064989,-6.665442,39.822990,-12.808299
5.431250,-32.292419,-5.204850,59.685757,-6.577208,37.171978,-12.704494
5.437500,-34.154617,-5.139344,95.404198,-6.473945,34.632507,-12.583833
5.443750,-36.697285,-5.150697,131.143234,-6.401445,32.120461,-12.490647
5.450000,-39.552891,-5.268844,166.740753,-6.350377,29.523655,-12.383018
5.456250,-42.311798,-5.446230,-157.718048,-6.307486,27.048164,-12.270509
5.462500,-44.528275,-5.603130,-122.242035,-6.258293,24.492374,-12.156947
5.468750,-45.944103,-5.672045,-86.965340,-6.206298,21.752947,-12.090588
5.475000,-46.932495,-5.606101,-51.764454,-6.146931,19.024534,-12.047116
5.481250,-47.958549,-5.451473,-16.506763,-6.047245,16.325609,-11.971354
5.487500,-49.662254,-5.298213,18.714071,-5.927709,13.724960,-11.904995
5.493750,-52.244751,-5.227698,53.642925,-5.850780,11.018102,-11.874923
5.500000,-55.618141,-5.304683,88.634903,-5.771383,8.132812,-11.834991
5.506250,-59.211006,-5.504405,123.948654,-5.662829,5.484312,-11.743996
5.512500,-62.293171,-5.748001,159.522675,-5.538773,2.726749,-11.652759
5.518750,-64.488091,-5.944415,-165.086792,-5.456435,-0.375204,-11.614392
5.525000,-65.777763,-6.007087,-129.694962,-5.413707,-3.698354,-11.581415
5.531250,-66.745300,-5.935441,-94.218010,-5.362981,-6.887798,-11.525479
5.537500,-67.983948,-5.817509,-58.593098,-5.309308,-9.872503,-11.450540
5.543750,-70.017174,-5.740441,-23.139589,-5.290381,-13.083520,-11.397993
5.550000,-72.965828,-5.799263,12.240049,-5.265878,-16.387539,-11.348368
5.556250,-76.222908,-5.979807,47.756454,-5.233860,-19.547182,-11.293081
5.562500,-79.119484,-6.206007,83.182930,-5.183481,-22.821266,-11.301125
5.568750,-81.195625,-6.379873,118.344177,-5.142022,-26.214048,-11.334632
5.575000,-82.291290,-6.394680,153.662064,-5.066012,-29.454254,-11.360340
5.581250,-83.136581,-6.249794,-170.989685,-4.963032,-32.518738,-11.382147
5.587500,-84.555801,-6.043283,-135.875031,-4.888885,-35.992863,-11.486593
5.593750,-87.135506,-5.932691,-100.932701,-4.841286,-39.519588,-11.603618
5.600000,-90.894302,-6.005560,-65.564850,-4.722639,-42.658279,-11.648059
5.606250,-95.273926,-6.285375,-29.880013,-4.550541,-45.414661,-11.614964
5.612500,-99.301971,-6.717385,5.488962,-4.438226,-48.398930,-11.566631
5.618750,-102.232376,-7.167866,40.415688,-4.392869,-51.951038,-11.561081
5.625000,-103.484505,-7.466849,75.621124,-4.334263,-55.201492,-11.490052
5.631250,-103.391037,-7.506576,111.360550,-4.269045,-58.123173,-11.338179
5.637500,-102.888222,-7.302903,146.733810,-4.233924,-61.507710,-11.238996
5.643750,-103.143539,-6.967752,-178.125397,-4.231678,-65.271881,-11.201550
5.650000,-104.987556,-6.697695,-142.971954,-4.206751,-68.949944,-11.137287
5.656250,-108.608131,-6.655387,-107.476723,-4.131833,-72.360588,-11.034945
5.662500,-113.324745,-6.878777,-72.283699,-4.075781,-76.233704,-10.980950
5.668750,-117.882942,-7.286006,-37.473194,-4.034191,-80.370743,-10.962582
5.675000,-121.214859,-7.667348,-2.621005,-3.960321,-84.473000,-10.904963
5.681250,-122.901100,-7.879543,32.643330,-3.862710,-88.546379,-10.851367
5.687500,-123.469254,-7.858483,67.599136,-3.796219,-92.974144,-10.797108
5.693750,-124.175583,-7.660606,102.576286,-3.718838,-97.538231,-10.762360
5.700000,-126.260857,-7.494386,137.980179,-3.620836,-102.044235,-10.659710
