Anritsu VNA Frequency[GHz],S21[deg],S21[dB],S11[deg],S11[dB],S22[deg],S22[dB]
1337939287.34,2012_05_25_10:48:07,+297.79,+297.61,+02.989,+297.50,+296.94,+297.81,+297.49,+297.85,243.139984,-6.571
4.006250,-145.114517,-7.963039,-174.570206,-8.809889,45.442020,-6.346380
4.012500,-149.461990,-8.399337,-139.455383,-8.829158,41.467209,-6.334735
4.018750,-152.197266,-8.874058,-103.922180,-8.809683,37.887333,-6.309871
4.025000,-152.750778,-9.163047,-68.419235,-8.792094,34.279411,-6.308750
4.031250,-151.290894,-9.069343,-33.178032,-8.825986,30.457033,-6.385284
4.037500,-148.978714,-8.576716,2.142017,-8.888858,26.427975,-6.483938
4.043750,-147.687195,-7.901733,37.527222,-8.922544,22.602549,-6.569218
4.050000,-149.194656,-7.373469,73.113770,-8.918002,18.852297,-6.629798
4.056250,-153.390350,-7.214124,108.335236,-8.931774,14.795633,-6.711396
4.062500,-158.927826,-7.449472,143.352371,-8.949160,10.488818,-6.811254
4.068750,-163.960526,-7.923554,178.549881,-8.945522,6.322400,-6.908422
4.075000,-167.029373,-8.405718,-146.212372,-8.910976,2.337384,-6.991322
4.081250,-167.789093,-8.676139,-110.940735,-8.877265,-1.597267,-7.087437
4.087500,-166.629822,-8.610751,-75.565216,-8.838136,-5.438824,-7.205399
4.093750,-164.797989,-8.192742,-40.025311,-8.797710,-9.211561,-7.327645
4.100000,-164.017044,-7.638293,-4.384600,-8.779736,-12.979959,-7.474086
4.106250,-165.570892,-7.219861,31.094204,-8.784985,-16.862921,-7.649506
4.112500,-169.309814,-7.090508,66.692207,-8.807671,-20.749485,-7.833439
4.118750,-173.902405,-7.263937,102.398605,-8.819263,-24.532795,-7.994855
4.125000,-177.861252,-7.557554,138.049500,-8.842499,-28.426174,-8.170316
4.131250,179.703644,-7.806364,173.505905,-8.871095,-32.430275,-8.366103
4.137500,178.945801,-7.854005,-150.940613,-8.882752,-36.318897,-8.572527
4.143750,179.290726,-7.643940,-115.358047,-8.865231,-40.036804,-8.753335
4.150000,179.357483,-7.283550,-79.883026,-8.858467,-43.890976,-8.975494
4.156250,178.161057,-6.935224,-44.609058,-8.855901,-47.820732,-9.236305
4.162500,175.201813,-6.780012,-9.192592,-8.834975,-51.785957,-9.484005
4.168750,171.287506,-6.855626,26.517715,-8.798192,-55.477440,-9.695954
4.175000,167.482147,-7.098141,62.031013,-8.780319,-59.536816,-9.940515
4.181250,164.662964,-7.361111,97.433289,-8.802450,-63.793663,-10.207810
4.187500,163.189804,-7.506152,133.066895,-8.789189,-67.891518,-10.435445
4.193750,162.839996,-7.455375,169.037613,-8.734900,-71.546806,-10.614846
4.200000,162.885223,-7.222248,-155.163895,-8.696108,-75.297005,-10.800628
4.206250,162.444717,-6.912643,-119.579376,-8.696976,-79.206284,-11.047755
4.212500,160.612473,-6.659105,-83.761139,-8.689900,-83.117188,-11.284243
4.218750,157.748932,-6.555633,-47.740494,-8.638419,-86.955513,-11.514617
4.225000,154.278656,-6.618844,-11.768148,-8.604048,-91.021797,-11.771168
4.231250,151.005737,-6.770039,23.894331,-8.609336,-95.774521,-12.091501
4.237500,148.499710,-6.921413,59.512501,-8.615059,-100.773407,-12.389839
4.243750,146.859375,-6.969566,95.275955,-8.585994,-105.633774,-12.640924
4.250000,145.828018,-6.911353,130.954117,-8.543845,-110.522202,-12.856516
4.256250,144.871109,-6.777712,166.233383,-8.528296,-115.494438,-13.060524
4.262500,143.426636,-6.630920,-158.468765,-8.497279,-120.395020,-13.253463
4.268750,141.377670,-6.530139,-122.987770,-8.450305,-124.973076,-13.449746
4.275000,138.939560,-6.500799,-87.458199,-8.386903,-129.568390,-13.660321
4.281250,136.402161,-6.537461,-51.979240,-8.337934,-134.318680,-13.932864
4.287500,134.150589,-6.573771,-16.334162,-8.311170,-139.141266,-14.241106
4.293750,132.302795,-6.570920,19.534260,-8.255925,-143.933380,-14.525698
4.300000,130.652435,-6.518862,55.408127,-8.230571,-149.235153,-14.798178
4.306250,128.922928,-6.448470,91.161263,-8.232598,-154.743408,-15.027243
4.312500,126.946686,-6.388121,126.888016,-8.241821,-160.645599,-15.199203
4.318750,124.677864,-6.377893,162.645599,-8.244448,-166.436813,-15.327587
4.325000,122.251205,-6.397952,-161.598557,-8.248764,-172.247681,-15.450867
4.331250,119.966446,-6.439897,-125.957413,-8.231752,-177.980011,-15.546851
4.337500,117.910927,-6.472738,-90.314865,-8.204963,176.409958,-15.653479
4.343750,116.158028,-6.466710,-54.798008,-8.173082,170.833069,-15.755413
4.350000,114.563698,-6.428772,-19.239546,-8.144807,165.226379,-15.830569
4.356250,112.764557,-6.380363,16.309149,-8.092304,159.638947,-15.894251
4.362500,110.824318,-6.345869,52.043869,-8.034982,154.042130,-15.946580
4.368750,108.679131,-6.351316,87.664337,-8.001623,148.400421,-15.994086
4.375000,106.437592,-6.369433,123.258110,-7.957525,142.779404,-15.992011
4.381250,104.361244,-6.397898,158.973938,-7.911679,137.472031,-16.010122
4.387500,102.550789,-6.390996,-165.361618,-7.887469,132.308640,-16.035471
4.393750,100.848213,-6.339991,-129.699203,-7.865540,127.067719,-16.052353
4.400000,99.112930,-6.287224,-93.995773,-7.846424,121.869095,-16.051550
4.406250,97.131386,-6.249636,-58.146275,-7.802908,116.500969,-16.034334
4.412500,94.801231,-6.257890,-22.383585,-7.764431,110.919792,-16.007490
4.418750,92.328438,-6.337499,13.262696,-7.761889,105.223129,-15.936567
4.425000,90.041969,-6.440114,49.048706,-7.732877,99.788734,-15.816383
4.431250,88.173599,-6.528382,84.893631,-7.665416,94.760574,-15.650899
4.437500,86.763489,-6.538989,120.514732,-7.634925,89.965584,-15.483693
4.443750,85.703629,-6.465771,155.899918,-7.661645,85.251343,-15.417472
4.450000,84.585594,-6.313884,-168.670959,-7.669462,81.105629,-15.362671
4.456250,82.886047,-6.178340,-132.791824,-7.569993,77.442032,-15.297225
4.462500,80.532516,-6.119154,-96.948013,-7.475429,73.665817,-15.290150
4.468750,77.663475,-6.158479,-61.639565,-7.433639,69.303581,-15.351050
4.475000,74.720924,-6.305320,-26.352139,-7.416036,64.811287,-15.452180
4.481250,72.309753,-6.459659,9.343420,-7.347765,60.682190,-15.463346
4.487500,70.528770,-6.559632,45.182583,-7.275654,56.327179,-15.425700
4.493750,69.411423,-6.556579,80.771454,-7.273031,51.920609,-15.385816
4.500000,68.566101,-6.450397,116.325188,-7.274598,47.467220,-15.342263
4.506250,67.266670,-6.316479,152.233505,-7.218442,43.515667,-15.227533
4.512500,65.416252,-6.223635,-171.949066,-7.172597,39.904884,-15.104612
4.518750,62.816814,-6.238100,-136.595398,-7.192923,36.057056,-15.044537
4.525000,59.891460,-6.357595,-101.302795,-7.202043,32.284752,-14.999980
4.531250,57.291504,-6.538965,-65.617630,-7.160335,29.005547,-14.914126
4.537500,55.469166,-6.684826,-29.958221,-7.096784,25.570765,-14.831426
4.543750,54.422401,-6.715293,5.398754,-7.100532,21.745771,-14.801332
4.550000,53.877979,-6.596521,40.651505,-7.095504,17.799314,-14.810272
4.556250,53.150360,-6.388314,76.414268,-7.038339,14.478399,-14.775459
4.562500,51.641850,-6.194998,112.255898,-6.955784,11.065661,-14.738184
4.568750,49.081570,-6.122114,147.726898,-6.919360,7.548905,-14.754178
4.575000,45.755939,-6.238481,-176.930511,-6.917809,4.074236,-14.806377
4.581250,42.381077,-6.474297,-141.523941,-6.922104,0.548932,-14.834767
4.587500,39.803219,-6.751509,-105.997818,-6.924166,-3.058618,-14.862898
4.593750,38.293831,-6.966588,-70.514343,-6.941690,-6.721854,-14.836566
4.600000,37.978855,-6.997057,-34.941166,-6.952208,-10.556463,-14.731525
4.606250,38.267998,-6.828112,0.693892,-6.955463,-14.566299,-14.543672
4.612500,38.332932,-6.516100,36.159195,-6.991470,-18.942978,-14.376751
4.618750,37.321014,-6.192273,71.780212,-7.037477,-23.754263,-14.311603
4.625000,34.858856,-6.037098,107.847641,-7.002954,-28.567497,-14.271015
4.631250,31.253443,-6.089338,144.084885,-6.919546,-32.667995,-14.298588
4.637500,27.550659,-6.304844,179.831589,-6.886248,-36.880524,-14.420639
4.643750,24.761477,-6.537568,-144.752579,-6.902329,-40.692722,-14.626921
4.650000,23.123215,-6.676319,-109.094429,-6.884814,-44.185059,-14.798059
4.656250,22.451298,-6.661087,-73.224396,-6.818735,-47.457020,-14.930738
4.662500,22.171955,-6.481727,-37.653790,-6.783661,-51.043594,-15.041744
4.668750,21.380505,-6.242168,-2.359910,-6.799388,-55.134144,-15.173218
4.675000,19.483267,-6.067818,33.265011,-6.743864,-58.964443,-15.183665
4.681250,16.602049,-6.044862,69.123924,-6.649932,-62.754131,-15.092427
4.687500,13.180172,-6.185802,104.503410,-6.643692,-67.083504,-15.103952
4.693750,10.125064,-6.403821,139.692200,-6.698874,-71.532913,-15.146868
4.700000,7.966800,-6.601104,175.357330,-6.691098,-75.227371,-15.171825
4.706250,6.830165,-6.677320,-148.570801,-6.631628,-78.360596,-15.116548
4.712500,6.322499,-6.592705,-112.871567,-6.613850,-81.869446,-15.092232
4.718750,5.854491,-6.380686,-77.634628,-6.668658,-85.984215,-15.136086
4.725000,4.559110,-6.154528,-42.060219,-6.668590,-90.027687,-15.089839
4.731250,2.184348,-6.037552,-6.044996,-6.584662,-93.852127,-14.944829
4.737500,-1.113331,-6.095229,29.543877,-6.543759,-98.263046,-14.851324
4.743750,-4.637391,-6.320321,64.648300,-6.579883,-103.449471,-14.822202
4.750000,-7.610278,-6.614870,100.053085,-6.576454,-108.606003,-14.822445
4.756250,-9.419672,-6.866974,136.035995,-6.486377,-113.851677,-14.928049
4.762500,-9.946132,-6.930173,171.862671,-6.402744,-119.972023,-15.476219
4.768750,-9.525254,-6.740140,-152.863708,-6.423513,-126.996338,-16.553299
4.775000,-9.519897,-6.477769,-117.761070,-6.473006,-130.373367,-17.148064
4.781250,-10.949528,-6.263665,-82.091919,-6.451847,-128.640320,-17.009018
4.787500,-13.276765,-6.137047,-46.392822,-6.432287,-128.446793,-16.665869
4.793750,-16.165091,-6.123462,-11.141354,-6.476446,-130.849213,-16.411152
4.800000,-19.096035,-6.205864,24.134207,-6.531630,-134.503143,-16.164755
4.806250,-21.795156,-6.340632,59.827370,-6.527386,-138.039719,-15.886896
4.812500,-23.921770,-6.438044,95.693253,-6.475571,-141.073105,-15.600436
4.818750,-25.442291,-6.475623,131.158691,-6.476388,-144.292648,-15.390704
4.825000,-26.628189,-6.437911,166.438095,-6.498024,-147.654572,-15.259242
4.831250,-27.995201,-6.356641,-157.892319,-6.496856,-150.787216,-15.170568
4.837500,-29.842041,-6.297417,-122.124374,-6.469722,-153.935654,-15.092060
4.843750,-32.061943,-6.297167,-86.468712,-6.480965,-157.346451,-15.057964
4.850000,-34.521626,-6.358388,-50.814049,-6.498220,-161.171906,-14.983271
4.856250,-36.811329,-6.459253,-15.083039,-6.500360,-165.196976,-14.887771
4.862500,-38.658745,-6.534949,20.535580,-6.498063,-169.281189,-14.720769
4.868750,-40.178333,-6.561650,56.099541,-6.518317,-173.590530,-14.578883
4.875000,-41.471130,-6.533008,91.606453,-6.517196,-178.018967,-14.410683
4.881250,-42.913319,-6.496404,127.237328,-6.486368,177.640900,-14.263607
4.887500,-44.601124,-6.477135,162.735657,-6.442849,173.039795,-14.258421
4.893750,-46.397186,-6.476048,-161.876343,-6.434192,168.168976,-14.457888
4.900000,-48.190979,-6.447331,-126.674957,-6.452727,164.172119,-14.706599
4.906250,-50.055286,-6.452058,-91.476791,-6.507509,161.963196,-14.723982
4.912500,-51.995838,-6.468822,-55.986073,-6.543619,160.621414,-14.602524
4.918750,-53.797306,-6.460100,-20.342258,-6.566191,158.712387,-14.405180
4.925000,-55.425053,-6.411341,15.451909,-6.574669,156.211319,-14.227526
4.931250,-57.187592,-6.358288,51.106495,-6.600642,153.449661,-14.074080
4.937500,-59.289547,-6.344976,86.735374,-6.603905,150.619888,-13.911125
4.943750,-61.670444,-6.393423,122.402985,-6.609750,147.877945,-13.787930
4.950000,-64.080566,-6.497962,158.017365,-6.633227,144.822952,-13.703162
4.956250,-66.137260,-6.599279,-166.434311,-6.673059,141.729630,-13.677488
4.962500,-67.697701,-6.651896,-130.791107,-6.706247,138.497208,-13.628165
4.968750,-68.795448,-6.610125,-95.026390,-6.725637,135.311752,-13.578947
4.975000,-69.860786,-6.484022,-59.234760,-6.752213,131.902039,-13.521091
4.981250,-71.365311,-6.349644,-23.688980,-6.806073,128.393921,-13.450661
4.987500,-73.555359,-6.269065,11.834408,-6.841462,124.953087,-13.351031
4.993750,-76.337868,-6.322894,47.599472,-6.856709,121.938278,-13.225678
5.000000,-79.349258,-6.477578,83.321365,-6.865057,119.312340,-13.089909
5.006250,-81.970261,-6.700064,118.847549,-6.885699,116.959770,-12.951307
5.012500,-83.818962,-6.873226,154.564194,-6.859622,114.866135,-12.762646
5.018750,-84.719017,-6.934747,-169.459259,-6.797423,112.901085,-12.614326
5.025000,-85.049210,-6.820892,-133.631699,-6.758267,110.414513,-12.516726
5.031250,-85.490463,-6.610447,-98.128105,-6.795451,107.435539,-12.515462
5.037500,-86.838326,-6.396765,-62.551437,-6.822812,104.483536,-12.498491
5.043750,-89.276146,-6.306983,-26.470345,-6.798697,101.696312,-12.424454
5.050000,-92.641273,-6.393295,9.489147,-6.791116,98.555061,-12.375253
5.056250,-96.076813,-6.632743,45.083534,-6.867276,94.986923,-12.382401
5.062500,-98.777473,-6.911476,80.559593,-6.927138,91.594353,-12.373832
5.068750,-100.326363,-7.102431,116.492485,-6.909862,88.597305,-12.274446
5.075000,-100.739845,-7.115815,152.471146,-6.887203,85.831497,-12.177407
5.081250,-100.657066,-6.945530,-172.090927,-6.909069,82.747452,-12.150705
5.087500,-100.896225,-6.660770,-136.806595,-6.943726,79.585487,-12.150840
5.093750,-102.306778,-6.410956,-101.007195,-6.912279,76.811981,-12.105876
5.100000,-105.023872,-6.308790,-65.061363,-6.863412,74.238747,-12.036470
5.106250,-108.712784,-6.433029,-29.479471,-6.881151,71.271339,-12.048956
5.112500,-112.328209,-6.705853,6.002777,-6.905685,68.266136,-12.074854
5.118750,-115.107254,-7.026840,41.871124,-6.898442,65.770401,-12.060597
5.125000,-116.541901,-7.225665,77.847595,-6.858302,63.357891,-12.008049
5.131250,-116.690369,-7.228727,113.539978,-6.876263,60.714203,-12.043811
5.137500,-116.377052,-7.019735,149.105133,-6.909003,57.917103,-12.112940
5.143750,-116.564796,-6.700453,-175.171921,-6.920611,55.435974,-12.180585
5.150000,-118.115967,-6.445752,-139.323013,-6.914687,52.892128,-12.234961
5.156250,-121.032089,-6.364399,-103.640686,-6.936068,50.029835,-12.342278
5.162500,-124.843330,-6.502449,-67.981689,-6.954174,47.114300,-12.404187
5.168750,-128.511627,-6.803116,-32.109673,-6.944042,44.102226,-12.428787
5.175000,-131.148941,-7.103996,3.590691,-6.947387,40.971336,-12.465674
5.181250,-132.367355,-7.279714,39.193390,-6.983884,37.735558,-12.500414
5.187500,-132.358215,-7.229851,74.917625,-6.984294,34.789066,-12.516094
5.193750,-132.033630,-6.989120,110.894028,-6.926520,32.352253,-12.464973
5.200000,-132.399918,-6.655472,146.602631,-6.888640,29.862621,-12.496488
5.206250,-134.160355,-6.405503,-178.088699,-6.926573,27.108969,-12.606031
5.212500,-137.368713,-6.354931,-142.606903,-6.930428,24.596024,-12.702174
5.218750,-141.259232,-6.519650,-106.475815,-6.859305,22.605196,-12.764865
5.225000,-144.916580,-6.838140,-70.580170,-6.827492,20.165400,-12.908186
5.231250,-147.478134,-7.144717,-35.138802,-6.883500,17.254803,-13.096581
5.237500,-148.655502,-7.322468,0.500351,-6.933444,14.558613,-13.264652
5.243750,-148.652863,-7.285843,36.731724,-6.901503,12.269774,-13.326598
5.250000,-148.348373,-7.053248,72.842407,-6.866391,9.833307,-13.376155
5.256250,-148.754913,-6.757548,108.401505,-6.918070,6.887850,-13.518338
5.262500,-150.477737,-6.538702,143.844498,-6.957974,3.779968,-13.669437
5.268750,-153.433914,-6.475798,179.685989,-6.914664,1.220980,-13.767296
5.275000,-156.970795,-6.606256,-144.496078,-6.872381,-1.299759,-13.908333
5.281250,-160.232697,-6.839447,-109.098732,-6.884836,-4.255894,-14.096715
5.287500,-162.519150,-7.043802,-73.686905,-6.883787,-7.142386,-14.276305
5.293750,-163.777069,-7.130553,-37.918179,-6.830028,-9.684373,-14.398027
5.300000,-164.330307,-7.062950,-2.001390,-6.768111,-12.322512,-14.483979
5.306250,-164.849060,-6.883809,33.669914,-6.753489,-15.283309,-14.599128
5.312500,-166.064041,-6.698547,69.299141,-6.738930,-18.173233,-14.710710
5.318750,-168.230515,-6.600967,105.120842,-6.703833,-20.583004,-14.827781
5.325000,-171.162613,-6.640101,140.860077,-6.700783,-23.098501,-14.963470
5.331250,-174.175827,-6.790735,176.436172,-6.724566,-25.354832,-15.194882
5.337500,-176.716537,-6.971850,-147.875244,-6.728641,-27.574020,-15.431168
5.343750,-178.458603,-7.105894,-112.019516,-6.692314,-29.625515,-15.639833
5.350000,-179.439896,-7.117199,-76.237602,-6.659421,-31.844557,-15.898310
5.356250,179.938461,-7.005186,-40.725925,-6.674026,-34.807262,-16.178041
5.362500,179.002579,-6.830014,-5.129309,-6.663587,-38.051392,-16.437220
5.368750,177.457001,-6.683164,30.634151,-6.617044,-41.248131,-16.618328
5.375000,175.107712,-6.617310,66.300232,-6.584542,-44.684723,-16.754389
5.381250,172.271378,-6.657318,101.729065,-6.580773,-48.248650,-16.918961
5.387500,169.483200,-6.770000,137.170609,-6.563521,-51.542675,-17.086342
5.393750,167.062454,-6.895520,172.753799,-6.525961,-54.388496,-17.252209
5.400000,165.223022,-6.975447,-151.679245,-6.468577,-57.136703,-17.449598
5.406250,163.918762,-6.993363,-116.170174,-6.436935,-59.723118,-17.694036
5.412500,162.715897,-6.936768,-80.728333,-6.403194,-62.411827,-17.978659
5.418750,161.327072,-6.858562,-45.152981,-6.366804,-65.010727,-18.257908
5.425000,159.541809,-6.807138,-9.534698,-6.342279,-68.019402,-18.542566
5.431250,157.421661,-6.805440,26.153328,-6.334180,-71.496712,-18.792118
5.437500,155.120972,-6.850257,61.855473,-6.311973,-74.992271,-19.034025
5.443750,152.934601,-6.904318,97.537560,-6.292183,-78.445663,-19.273563
5.450000,151.050812,-6.942636,133.095093,-6.297591,-82.068634,-19.530966
5.456250,149.522598,-6.932498,168.593933,-6.282348,-85.421165,-19.809410
5.462500,148.038605,-6.873400,-155.904709,-6.268339,-88.853783,-20.112196
5.468750,146.382706,-6.793417,-120.540321,-6.242060,-92.242775,-20.436731
5.475000,144.451416,-6.748346,-85.195038,-6.221506,-96.200546,-20.808792
5.481250,142.190292,-6.757148,-49.836723,-6.171507,-100.457260,-21.185780
5.487500,139.759247,-6.810182,-14.392707,-6.105386,-105.283928,-21.464375
5.493750,137.467880,-6.892870,20.830051,-6.075287,-110.380173,-21.707689
5.500000,135.488785,-6.968448,56.084476,-6.059343,-115.658501,-21.867186
5.506250,133.827652,-6.995009,91.481232,-6.038956,-120.547470,-21.970869
5.512500,132.319794,-6.976343,127.155502,-5.994160,-124.433655,-22.044069
5.518750,130.778015,-6.927979,162.657562,-5.953452,-128.198715,-22.194578
5.525000,129.002914,-6.874894,-161.957748,-5.948071,-131.810120,-22.497494
5.531250,126.957726,-6.852663,-126.595596,-5.941854,-135.383560,-22.807213
5.537500,124.776352,-6.877883,-91.148689,-5.919883,-139.232483,-23.173239
5.543750,122.572273,-6.929335,-55.828995,-5.914398,-143.417084,-23.501242
5.550000,120.529327,-6.972289,-20.497063,-5.908845,-148.739380,-23.701571
5.556250,118.761391,-6.993168,14.851338,-5.885624,-154.100540,-23.736713
5.562500,117.127151,-6.978163,50.215382,-5.847506,-160.143356,-23.491819
5.568750,115.453903,-6.944954,85.346642,-5.828517,-166.410049,-23.148203
5.575000,113.596626,-6.914728,120.480446,-5.796090,-172.176132,-22.672283
5.581250,111.497185,-6.935032,155.714142,-5.760615,-177.161087,-22.131338
5.587500,109.242599,-7.004223,-169.287567,-5.755492,176.998215,-21.646439
5.593750,107.087135,-7.093528,-134.452408,-5.793278,170.572296,-21.322987
5.600000,105.390175,-7.145564,-99.341225,-5.807806,163.340500,-21.072477
5.606250,104.078156,-7.119236,-63.778858,-5.756226,155.997971,-20.842995
5.612500,102.991173,-7.014049,-28.182940,-5.690375,148.830673,-20.624159
5.618750,101.555038,-6.868002,6.886311,-5.692359,141.020767,-20.438297
5.625000,99.563110,-6.772347,41.919415,-5.713862,133.571487,-20.297745
5.631250,96.985031,-6.762760,77.331886,-5.706596,127.150185,-20.090576
5.637500,94.087715,-6.840441,112.690620,-5.700925,121.058907,-19.908371
5.643750,91.459557,-6.956760,147.783966,-5.741086,114.832184,-19.769587
5.650000,89.375832,-7.039894,-177.137955,-5.772276,108.777565,-19.617302
5.656250,87.812569,-7.045139,-141.780151,-5.735510,102.935844,-19.348131
5.662500,86.573387,-6.966522,-106.542290,-5.700059,96.971596,-19.067394
5.668750,85.106705,-6.857476,-71.847176,-5.707817,90.587883,-18.795099
5.675000,83.124817,-6.762841,-37.179146,-5.714981,84.721214,-18.437767
5.681250,80.488853,-6.770101,-2.089051,-5.689905,79.496284,-18.112080
5.687500,77.637733,-6.871738,32.927162,-5.677627,74.360725,-17.771605
5.693750,75.029373,-7.016436,67.730598,-5.680438,69.578659,-17.537477
5.700000,73.041634,-7.104402,102.747139,-5.673416,65.043320,-17.310305
