Anritsu VNA Frequency[GHz],S21[deg],S21[dB],S11[deg],S11[dB],S22[deg],S22[dB]
1337934816.91,2012_05_25_09:33:36,+297.42,+297.32,+02.989,+297.20,+296.67,+297.47,+297.22,+297.50,242.861954,-6.531
3.009050,23.729761,-11.035371,-10.370832,-11.900674,-17.772764,-7.223236
3.021525,23.729761,-11.035371,-10.370832,-11.900674,-17.772764,-7.223236
3.034000,23.729761,-11.035371,-10.370832,-11.900674,-17.772764,-7.223236
3.046475,23.729761,-11.035371,-10.370832,-11.900674,-17.772764,-7.223236
3.058950,23.729761,-11.035371,-10.370832,-11.900674,-17.772764,-7.223236
3.071425,23.729761,-11.035371,-10.370832,-11.900674,-17.772764,-7.223236
3.083900,23.729761,-11.035371,-10.370832,-11.900674,-17.772764,-7.223236
3.096375,23.729761,-11.035371,-10.370832,-11.900674,-17.772764,-7.223236
3.108850,23.729761,-11.035371,-10.370832,-11.900674,-17.772764,-7.223236
3.121325,23.729761,-11.035371,-10.370832,-11.900674,-17.772764,-7.223236
3.133800,23.729761,-11.035371,-10.370832,-11.900674,-17.772764,-7.223236
3.146275,23.729761,-11.334365,-10.370832,-11.994381,-17.772764,-6.872444
3.158750,21.682037,-11.671140,-17.212831,-12.113303,-17.697681,-6.526272
3.171225,19.156370,-12.042241,-22.662962,-12.261224,-17.371424,-6.188335
3.183700,16.277290,-12.446467,-24.164873,-12.429670,-14.361825,-5.864540
3.196175,13.106769,-12.893280,-21.794683,-12.617174,-13.498178,-5.562745
3.208650,9.759697,-13.394509,-16.147346,-12.815543,-12.449516,-5.286833
3.221125,8.924245,-13.947209,-7.920684,-13.029933,-11.337489,-5.037500
3.233600,6.022302,-14.565394,1.882401,-13.250567,-10.318686,-4.813324
3.246075,3.684581,-15.234033,12.223427,-13.473449,-9.580454,-4.611758
3.258550,2.170958,-15.973747,21.919186,-13.703399,-9.304078,-4.427774
3.271025,1.608237,-16.801237,29.912111,-13.935799,-7.221280,-4.260927
3.283500,2.369098,-17.669188,35.288723,-14.173462,-5.269505,-4.116072
3.295975,4.656973,-18.573179,37.326618,-14.426676,-5.396660,-3.996539
3.308450,8.356643,-19.504915,35.504025,-14.690711,-5.351738,-3.902284
3.320925,10.697763,-20.421556,29.664202,-14.970678,-5.325951,-3.830973
3.333400,13.049773,-21.266411,22.291067,-15.263703,-5.526650,-3.779128
3.345875,16.827150,-21.986591,12.028474,-15.567634,-6.159975,-3.742797
3.358350,19.060495,-22.548508,0.693960,-15.884536,-4.984509,-3.723367
3.370825,19.997816,-22.915785,-9.798798,-16.214069,-3.949257,-3.727533
3.383300,20.053551,-23.063732,-17.612032,-16.570196,-5.004848,-3.760771
3.395775,19.776667,-22.950434,-24.204857,-16.941893,-5.897250,-3.824934
3.408250,19.580471,-22.592348,-26.954365,-17.333061,-6.816083,-3.919198
3.420725,16.936472,-22.009705,-26.053425,-17.736195,-7.976026,-4.040391
3.433200,15.977270,-21.227589,-22.039261,-18.128334,-7.190443,-4.184352
3.445675,14.360944,-20.277569,-15.673595,-18.523666,-6.462232,-4.352779
3.458150,12.621696,-19.213703,-7.797782,-18.892248,-4.804722,-4.552833
3.470625,11.226328,-18.095337,0.623068,-19.249987,-4.289221,-4.789003
3.483100,10.739144,-16.968748,8.370664,-19.593367,-2.866184,-5.061395
3.495575,11.714555,-15.867795,14.379922,-19.915144,-0.990757,-5.365996
3.508050,11.414861,-14.829785,17.646292,-20.195471,0.810885,-5.693257
3.520525,11.270904,-13.869147,17.324488,-20.413549,4.425209,-6.032908
3.533000,12.636953,-13.020976,15.370396,-20.577057,7.574063,-6.387242
3.545475,12.719929,-12.271654,10.020755,-20.677900,11.005610,-6.757810
3.557950,11.739229,-11.592191,2.388278,-20.727304,12.448693,-7.143248
3.570425,9.699237,-11.019789,-6.099130,-20.731804,13.826457,-7.537113
3.582900,6.712968,-10.533411,-14.057149,-20.684992,14.648872,-7.929527
3.595375,3.292207,-10.108274,-20.019875,-20.591499,14.445727,-8.305171
3.607850,-0.404078,-9.734258,-22.810406,-20.453403,15.257620,-8.653603
3.620325,-1.821809,-9.415203,-24.435797,-20.268280,15.046261,-8.974176
3.632800,-5.616042,-9.155400,-22.863256,-20.035419,14.835926,-9.268855
3.645275,-9.093635,-8.940190,-18.727150,-19.784180,12.665165,-9.535374
3.657750,-12.010003,-8.753766,-12.966531,-19.530733,10.786328,-9.767532
3.670225,-14.246988,-8.595149,-6.635897,-19.275503,9.016884,-9.957230
3.682700,-15.812107,-8.472320,-0.867783,-19.022102,7.164970,-10.094448
3.695175,-16.667366,-8.379414,3.187827,-18.764263,7.478016,-10.173502
3.707650,-14.383257,-8.311817,6.925253,-18.493891,8.035230,-10.199086
3.720125,-13.863585,-8.257283,7.922805,-18.237276,6.943314,-10.180737
3.732600,-12.872784,-8.231438,6.914472,-17.990059,6.480408,-10.124189
3.745075,-11.576656,-8.224780,4.611992,-17.774530,6.454518,-10.029106
3.757550,-10.118450,-8.230163,1.765226,-17.595968,6.635229,-9.894628
3.770025,-8.735320,-8.255330,-0.700742,-17.450605,6.795671,-9.716263
3.782500,-7.667555,-8.306129,-1.994759,-17.330830,6.729649,-9.493372
3.794975,-4.655820,-8.388048,-1.397769,-17.226912,8.724192,-9.235331
3.807450,-1.651528,-8.493206,1.833487,-17.163172,7.918596,-8.958412
3.819925,-0.548466,-8.622479,5.204976,-17.142176,6.675609,-8.668287
3.832400,0.794877,-8.788892,9.939316,-17.170328,4.968644,-8.367493
3.844875,2.159781,-8.998019,15.048012,-17.262028,2.820069,-8.055573
3.857350,3.442816,-9.244298,19.283262,-17.405195,0.297622,-7.730316
3.869825,4.486888,-9.528240,21.499054,-17.543869,-2.488883,-7.390330
3.882300,5.116292,-9.867289,23.062883,-17.707760,-2.940768,-7.045085
3.894775,7.542541,-10.274385,21.590126,-17.885233,-5.652967,-6.707267
3.907250,7.027198,-10.746300,17.740850,-18.074663,-8.049699,-6.382307
3.919725,6.025283,-11.274554,12.150127,-18.273436,-9.995664,-6.071887
3.932200,4.617607,-11.874006,5.647953,-18.453630,-11.378314,-5.775875
3.944675,2.904204,-12.548757,-0.871645,-18.584988,-12.143722,-5.492217
3.957150,1.162186,-13.307287,-6.501275,-18.657221,-12.283037,-5.219794
3.969625,-0.289996,-14.110613,-10.336762,-18.657244,-9.402909,-4.963685
3.982100,-0.984798,-14.946838,-11.698890,-18.589310,-8.358985,-4.732793
3.994575,-3.710366,-15.801003,-13.046548,-18.457813,-6.855391,-4.531464
4.007050,-4.421762,-16.644403,-12.821061,-18.253044,-5.049675,-4.360916
4.019525,-5.611716,-17.431273,-12.127542,-17.982479,-3.117712,-4.219776
4.032000,-6.748733,-18.117617,-9.551450,-17.642847,-1.251424,-4.105309
4.044475,-7.385281,-18.675709,-7.923373,-17.241930,0.365299,-4.013544
4.056950,-7.058361,-19.077692,-6.952291,-16.786985,1.572791,-3.945553
4.069425,-5.353534,-19.302673,-6.324990,-16.303951,4.681729,-3.904371
4.081900,-4.930990,-19.331696,-5.667674,-15.819753,4.826654,-3.894258
4.094375,-4.222094,-19.162949,-4.615660,-15.349237,4.395632,-3.915389
4.106850,-1.894873,-18.821295,-3.000942,-14.896004,3.429248,-3.964343
4.119325,-0.635152,-18.319752,-0.471170,-14.464697,2.005192,-4.037605
4.131800,-0.005178,-17.683586,3.182035,-14.042130,0.242941,-4.131066
4.144275,0.356033,-16.949612,8.180252,-13.630010,-1.699231,-4.241570
4.156750,0.835014,-16.165689,14.746959,-13.282548,-1.213825,-4.370012
4.169225,1.831718,-15.359770,19.951723,-12.979504,-2.901245,-4.518560
4.181700,0.849586,-14.553481,24.873180,-12.713793,-4.152957,-4.687284
4.194175,1.818091,-13.773998,28.334711,-12.476264,-4.806866,-4.873463
4.206650,2.019677,-13.051251,29.386950,-12.256578,-4.739798,-5.073164
4.219125,1.799488,-12.387503,27.310492,-12.056133,-3.886056,-5.283173
4.231600,1.531084,-11.790071,24.140415,-11.885315,-2.228138,-5.500305
4.244075,1.485323,-11.232351,17.813234,-11.749806,0.203279,-5.722608
4.256550,1.849679,-10.737433,9.497108,-11.655931,2.780653,-5.951454
4.269025,2.563820,-10.308631,0.560229,-11.596430,4.885871,-6.188150
4.281500,3.803711,-9.925868,-7.570501,-11.570080,6.498318,-6.433103
4.293975,5.035175,-9.579576,-13.580584,-11.560801,7.631036,-6.684216
4.306450,5.637877,-9.257697,-16.159933,-11.570323,8.348421,-6.938740
4.318925,5.481616,-8.973891,-17.260220,-11.619223,8.757519,-7.194675
4.331400,4.608864,-8.726150,-14.931940,-11.697346,9.017674,-7.449267
4.343875,3.185048,-8.506146,-9.978543,-11.808488,9.321659,-7.699726
4.356350,1.403796,-8.299311,-3.394023,-11.953815,9.319154,-7.946355
4.368825,-0.615642,-8.108229,3.756193,-12.124737,8.692139,-8.188495
4.381300,-0.401797,-7.947079,10.243908,-12.301180,7.725174,-8.425452
4.393775,-2.478860,-7.809138,15.135294,-12.484749,6.714089,-8.656141
4.406250,-4.189522,-7.685380,17.485254,-12.685282,5.986366,-8.875600
4.418725,-5.397925,-7.572221,16.601831,-12.906811,5.866961,-9.080301
4.431200,-6.003154,-7.473894,14.370036,-13.144390,6.647498,-9.266805
4.443675,-5.966060,-7.397023,8.763835,-13.400394,5.593657,-9.431717
4.456150,-5.221178,-7.336816,1.016680,-13.666197,6.579298,-9.576580
4.468625,-3.757561,-7.286248,-7.504617,-13.934990,6.855784,-9.704439
4.481100,-2.235991,-7.240878,-15.380011,-14.187027,6.693043,-9.819661
4.493575,-1.281345,-7.205809,-20.970436,-14.436397,6.393885,-9.922747
4.506050,-0.993497,-7.181630,-23.054262,-14.691129,6.278797,-10.013167
4.518525,-1.284715,-7.163707,-23.696613,-14.953511,6.674284,-10.088066
4.531000,-2.059212,-7.144424,-20.990986,-15.226580,7.873724,-10.148325
4.543475,-3.215457,-7.126518,-15.673434,-15.500915,7.133653,-10.193522
4.555950,-4.598024,-7.109397,-8.711514,-15.768694,8.332859,-10.229054
4.568425,-3.651400,-7.093915,-1.258480,-15.992096,8.714540,-10.260520
4.580900,-4.971314,-7.078145,5.752454,-16.215763,8.566467,-10.291245
4.593375,-5.989560,-7.062394,11.260099,-16.436501,8.197501,-10.320432
4.605850,-6.537486,-7.046171,14.272643,-16.649527,7.954645,-10.342997
4.618325,-6.507579,-7.031159,13.989520,-16.852325,8.172760,-10.354365
4.630800,-5.834123,-7.019968,9.905301,-17.040667,9.161003,-10.353394
4.643275,-4.493324,-7.011765,4.192543,-17.207357,8.160386,-10.343302
4.655750,-2.488576,-7.009235,-4.880136,-17.319977,9.062103,-10.327550
4.668225,-0.450069,-7.006586,-15.590420,-17.399143,9.124299,-10.312022
4.680700,0.979199,-7.003467,-26.235191,-17.463186,8.644025,-10.298588
4.693175,1.763287,-7.001307,-35.129616,-17.511293,7.945041,-10.288832
4.705650,1.954216,-6.999933,-40.848881,-17.552757,7.369664,-10.279242
4.718125,1.598422,-6.997496,-45.063751,-17.595249,7.253834,-10.269841
4.730600,0.852631,-6.989573,-45.545174,-17.646236,7.884036,-10.261892
4.743075,-0.128662,-6.975261,-42.857635,-17.668856,6.528919,-10.260303
4.755550,1.218662,-6.952826,-37.674530,-17.695082,7.077807,-10.270657
4.768025,0.269880,-6.932639,-30.570847,-17.754602,6.811234,-10.296697
4.780500,-0.455850,-6.910306,-22.789524,-17.860901,6.024868,-10.338806
4.792975,-0.708409,-6.883237,-15.460332,-17.997982,5.054630,-10.392216
4.805450,-0.392464,-6.849299,-9.716674,-18.186274,4.249163,-10.452461
4.817925,0.521767,-6.815325,-6.470064,-18.405228,3.949664,-10.515429
4.830400,2.057782,-6.790259,-6.592166,-18.636860,4.458279,-10.581836
4.842875,4.198089,-6.768998,-8.096059,-18.862467,3.033133,-10.653817
4.855350,6.357828,-6.750577,-12.711053,-19.130606,3.590668,-10.732947
4.867825,7.897237,-6.729162,-19.223179,-19.420792,3.405334,-10.819529
4.880300,8.746599,-6.713498,-26.310417,-19.722940,2.769606,-10.911474
4.892775,8.913492,-6.705892,-32.616600,-20.033752,2.012926,-11.003842
4.905250,8.534341,-6.703704,-36.704144,-20.392895,1.484616,-11.092566
4.917725,7.768149,-6.698630,-37.442287,-20.722872,1.500702,-11.178457
4.930200,6.751466,-6.690275,-37.495678,-21.011488,2.360939,-11.259437
4.942675,5.636097,-6.681751,-33.958492,-21.311043,1.324187,-11.339480
4.955150,4.021145,-6.679617,-27.838434,-21.637016,2.290605,-11.423982
4.967625,1.629869,-6.676064,-20.214737,-21.989180,2.541595,-11.513453
4.980100,-1.240899,-6.664764,-12.331647,-22.373611,2.360211,-11.604271
4.992575,-4.288786,-6.651229,-4.903189,-22.749987,2.052059,-11.691877
5.005050,-7.189312,-6.639626,1.079968,-23.095711,1.950735,-11.772763
5.017525,-9.622649,-6.630927,5.070658,-23.388910,2.378061,-11.850330
5.030000,-11.254126,-6.621090,6.996181,-23.684675,3.631807,-11.923154
5.042475,-12.411447,-6.612392,7.103456,-23.964590,2.997755,-11.992063
5.054950,-13.513636,-6.602844,5.741483,-24.246290,4.386503,-12.057360
5.067425,-14.349804,-6.596441,3.620512,-24.577015,5.070948,-12.117534
5.079900,-14.790374,-6.596164,0.654382,-24.771629,5.327991,-12.165646
5.092375,-14.686766,-6.601960,-1.786461,-24.930763,5.451611,-12.199432
5.104850,-13.935207,-6.610033,-3.103857,-25.053295,5.754107,-12.216832
5.117325,-12.521503,-6.615907,-2.755353,-25.129725,6.583887,-12.218379
5.129800,-10.492938,-6.628538,-3.361723,-25.166111,8.233310,-12.203045
5.142275,-8.487835,-6.645987,-3.363056,-25.164551,7.971428,-12.169584
5.154750,-7.141671,-6.666897,-3.729346,-25.103409,9.696022,-12.121650
5.167225,-6.461492,-6.690323,-5.523288,-24.951488,10.666797,-12.059763
5.179700,-6.410402,-6.714849,-6.999894,-24.718767,11.128374,-11.983687
5.192175,-6.928779,-6.741596,-10.567505,-24.352507,11.348809,-11.894230
5.204650,-7.883802,-6.769154,-15.614124,-23.923050,11.645988,-11.790908
5.217125,-9.107437,-6.797970,-20.416697,-23.447512,12.375591,-11.676320
5.229600,-8.029878,-6.828095,-24.954678,-22.927921,13.837300,-11.551204
5.242075,-9.240507,-6.856774,-28.223345,-22.366470,13.309043,-11.412970
5.254550,-10.180129,-6.887669,-29.618586,-21.757719,14.677064,-11.265188
5.267025,-10.679380,-6.920475,-28.479021,-21.096918,15.181281,-11.111452
5.279500,-10.632471,-6.952992,-25.034050,-20.428461,15.076919,-10.954796
5.291975,-9.955214,-6.989600,-19.362612,-19.781437,14.655425,-10.795526
5.304450,-8.600693,-7.026320,-12.188125,-19.184370,14.268328,-10.632172
5.316925,-6.623229,-7.062390,-4.402298,-18.647213,14.279735,-10.465210
5.329400,-4.662464,-7.101927,2.922972,-18.167345,15.003484,-10.294288
5.341875,-3.379009,-7.148226,8.576382,-17.719374,13.713138,-10.119617
5.354350,-2.784087,-7.203060,11.370958,-17.191534,14.300767,-9.945318
5.366825,-2.814770,-7.262420,11.489303,-16.788960,14.008586,-9.778866
5.379300,-3.372943,-7.317047,10.383379,-16.415445,13.107047,-9.620125
5.391775,-4.386081,-7.377126,6.004006,-16.075027,11.927588,-9.467333
5.404250,-5.692542,-7.448744,-0.432973,-15.763960,10.806440,-9.318131
5.416725,-4.680536,-7.524907,-7.447973,-15.489573,10.118678,-9.169976
5.429200,-5.955820,-7.599268,-13.776232,-15.220899,10.177979,-9.023697
5.441675,-6.928528,-7.674347,-18.105017,-14.946692,8.250210,-8.879881
5.454150,-7.491322,-7.756431,-18.944611,-14.699451,8.218976,-8.743052
5.466625,-7.510714,-7.849120,-18.317570,-14.479928,7.328094,-8.617165
5.479100,-6.855184,-7.938515,-14.408529,-14.286764,5.857675,-8.502053
5.491575,-5.478912,-8.016364,-7.973388,-14.115364,4.139684,-8.394677
5.504050,-3.469670,-8.095697,-0.015217,-13.967206,2.518397,-8.292853
5.516525,-1.509568,-8.182898,8.387764,-13.845603,1.356677,-8.193929
5.529000,-0.214385,-8.273328,16.092350,-13.732200,0.964796,-8.098986
5.541475,0.453793,-8.356030,22.073553,-13.624807,1.013176,-8.011018
5.553950,0.545208,-8.429840,25.535309,-13.540261,1.132798,-7.932776
5.566425,0.038806,-8.506591,25.840849,-13.472951,1.500027,-7.865453
5.578900,-0.961040,-8.585733,22.387499,-13.426827,2.261189,-7.807211
5.591375,-2.252765,-8.661773,17.445261,-13.394834,3.543061,-7.752855
5.603850,-1.177341,-8.729238,9.303388,-13.365191,5.426325,-7.698896
5.616325,-2.502070,-8.796378,-0.611418,-13.321959,7.962612,-7.641578
5.628800,-3.642767,-8.879103,-10.663077,-13.258734,11.143138,-7.582459
5.641275,-4.441772,-8.973208,-19.081968,-13.190299,14.325936,-7.523840
5.653750,-4.705536,-9.067624,-24.298882,-13.118123,16.867767,-7.466867
5.666225,-4.350875,-9.164988,-28.122391,-13.048461,18.725080,-7.410794
5.678700,-3.410602,-9.280832,-28.351952,-12.975870,19.902533,-7.352778
5.691175,-1.972674,-9.420906,-25.516403,-12.912004,20.463804,-7.288160
5.703650,-0.650265,-9.583462,-20.424374,-12.845945,20.529905,-7.213317
5.716125,0.023629,-9.765267,-14.027532,-12.771195,20.265360,-7.128397
5.728600,-0.028598,-9.979282,-7.250932,-12.704824,19.856907,-7.036002
5.741075,-0.785748,-10.232641,-1.149441,-12.667838,18.916540,-6.949896
5.753550,-2.166539,-10.527021,3.187601,-12.654799,17.144848,-6.849072
5.766025,-3.904167,-10.859053,4.804984,-12.683491,14.671626,-6.745168
5.778500,-5.855051,-11.233136,5.369960,-12.761557,11.847465,-6.636985
5.790975,-7.784639,-11.667851,2.531447,-12.875683,8.987047,-6.520542
5.803450,-10.010592,-12.155149,-2.887776,-13.013751,6.405324,-6.396178
5.815925,-12.682403,-12.683344,-9.616343,-13.202819,4.396819,-6.269216
5.828400,-15.400717,-13.235978,-16.206799,-13.460536,2.618043,-6.146064
5.840875,-17.810932,-13.813612,-21.612471,-13.787928,0.664964,-6.033278
5.853350,-19.458408,-14.391078,-24.567572,-14.182094,-1.322532,-5.936920
5.865825,-19.883869,-14.924235,-24.143976,-14.632865,-3.217587,-5.860489
5.878300,-18.790051,-15.394722,-22.384405,-15.153009,-4.933089,-5.803171
5.890775,-19.135937,-15.791510,-17.490915,-15.752126,-6.390489,-5.763748
5.903250,-17.075130,-16.099672,-10.055608,-16.355972,-7.522138,-5.750208
5.915725,-15.391540,-16.282461,-1.372602,-16.988874,-5.912062,-5.770155
5.928200,-13.901684,-16.322939,8.087429,-17.648592,-6.452476,-5.828183
5.940675,-12.565655,-16.235022,17.183720,-18.319595,-6.878574,-5.927120
5.953150,-11.325377,-16.045261,24.904327,-18.963497,-7.374011,-6.065090
5.965625,-10.006753,-15.754968,30.256048,-19.544127,-8.154522,-6.230165
5.978100,-8.357483,-15.375054,32.655479,-20.029596,-9.400338,-6.414620
5.990575,-6.854093,-14.943698,31.677221,-20.373207,-8.819579,-6.618608
6.003050,-6.048226,-14.499310,27.344448,-20.565649,-8.382771,-6.841637
6.015525,-5.719347,-14.058585,19.862827,-20.608963,-7.158418,-7.080163
6.028000,-5.619429,-13.630480,12.134405,-20.506420,-7.287377,-7.325709
6.040475,-5.534967,-13.237523,3.040113,-20.269602,-6.774046,-7.564133
6.052950,-5.432153,-12.901140,-5.507328,-19.903629,-6.078885,-7.781988
6.065425,-5.153207,-12.638124,-14.572069,-19.418541,-5.638150,-7.972464
6.077900,-2.166869,-12.422248,-21.101381,-18.855013,-3.471084,-8.132174
6.090375,-1.211827,-12.262531,-24.454369,-18.246012,-1.837313,-8.260591
6.102850,-0.013700,-12.157867,-24.512810,-17.614782,-0.022372,-8.356100
6.115325,1.321796,-12.112567,-21.350208,-16.992708,-0.320627,-8.415090
6.127800,2.762184,-12.099656,-15.164219,-16.414879,-0.791718,-8.431590
6.140275,4.130464,-12.119218,-6.746725,-15.911963,-1.865094,-8.402588
6.152750,5.189538,-12.186856,3.165836,-15.492350,-1.477988,-8.328928
6.165225,5.810177,-12.292312,13.394683,-15.129849,-1.741606,-8.217800
6.177700,8.410468,-12.420030,22.846638,-14.791175,-1.748241,-8.078889
6.190175,8.087459,-12.559195,30.393583,-14.518185,-0.636555,-7.919350
6.202650,7.173398,-12.724005,35.700996,-14.301714,-0.613294,-7.742695
6.215125,5.596738,-12.921439,37.743034,-14.129996,0.282589,-7.548881
6.227600,3.583076,-13.131831,36.116158,-13.997449,1.573504,-7.336470
6.240075,1.250380,-13.345345,30.690289,-13.906102,5.208997,-7.108421
6.252550,-1.302667,-13.574446,21.678082,-13.852254,8.929381,-6.876744
6.265025,-1.544319,-13.825341,9.517775,-13.813312,13.428807,-6.651208
6.277500,-4.001670,-14.076540,-5.000646,-13.800610,16.327280,-6.434909
6.289975,-6.102342,-14.320577,-18.533394,-13.812798,19.464102,-6.228188
6.302450,-7.767461,-14.570801,-31.734695,-13.846907,22.294916,-6.026989
6.314925,-8.958048,-14.846251,-45.390568,-13.894446,24.346880,-5.828674
6.327400,-9.467401,-15.122428,-56.122292,-13.961001,25.283007,-5.638714
6.339875,-9.283034,-15.391062,-63.267017,-14.036612,27.278702,-5.465067
6.352350,-6.020666,-15.665085,-66.320854,-14.107699,28.321585,-5.309613
6.364825,-4.735482,-15.955460,-65.203102,-14.154888,26.474428,-5.172742
6.377300,-3.069531,-16.259441,-60.010891,-14.167303,24.129494,-5.052613
6.389775,-1.080427,-16.559715,-51.222191,-14.133723,21.336370,-4.944518
6.402250,0.971701,-16.864439,-39.554474,-14.052855,18.217686,-4.843942
6.414725,2.818457,-17.196150,-25.999741,-13.917619,14.964079,-4.752968
6.427200,4.329088,-17.544565,-11.688763,-13.717663,14.191140,-4.673944
6.439675,5.524524,-17.889864,2.205341,-13.456388,11.248244,-4.607412
6.452150,8.662037,-18.229837,14.468971,-13.135460,8.691887,-4.551755
6.464625,8.664615,-18.586725,24.081549,-12.734544,6.650902,-4.505384
6.477100,7.966818,-18.979183,30.222595,-12.286275,5.224986,-4.464736
6.489575,6.699327,-19.374659,32.374687,-11.784768,4.488414,-4.426034
6.502050,5.034163,-19.777256,30.291830,-11.246311,4.497750,-4.389526
