Anritsu VNA Frequency[GHz],S21[deg],S21[dB],S11[deg],S11[dB],S22[deg],S22[dB]
1337938348.8,2012_05_25_10:32:28,+297.69,+297.54,+02.989,+297.43,+296.87,+297.72,+297.42,+297.77,243.068054,-6.562
4.006250,120.981438,-5.698895,-174.110519,-8.933570,-140.260101,-17.562103
4.012500,119.643051,-5.571536,-138.833466,-8.874448,-148.216522,-17.143671
4.018750,117.794548,-5.445730,-103.819672,-8.894655,-156.363297,-16.794209
4.025000,115.117989,-5.411568,-68.670921,-8.911987,-163.897629,-16.373909
4.031250,111.786346,-5.515768,-32.963055,-8.864772,-170.596466,-15.887134
4.037500,108.407196,-5.735538,2.681105,-8.832807,-176.970734,-15.368500
4.043750,105.593002,-5.987552,37.848118,-8.889327,176.700226,-14.955721
4.050000,103.900429,-6.148699,72.894279,-8.966139,170.395401,-14.590629
4.056250,103.025093,-6.159512,108.234184,-8.994170,165.030945,-14.218377
4.062500,102.535797,-6.009754,143.716660,-8.968844,159.836502,-13.842550
4.068750,101.572937,-5.788695,178.973343,-8.973494,154.523712,-13.502303
4.075000,99.403984,-5.632771,-146.016281,-8.963324,149.205673,-13.173872
4.081250,96.120811,-5.662164,-110.776382,-8.930283,143.985519,-12.854494
4.087500,92.349487,-5.874002,-75.422714,-8.894173,138.928268,-12.529682
4.093750,88.914749,-6.175956,-40.037956,-8.878439,133.776718,-12.248701
4.100000,86.534157,-6.445392,-4.449260,-8.836635,128.885376,-11.950652
4.106250,85.403076,-6.582784,31.199139,-8.792616,124.357613,-11.669343
4.112500,85.033760,-6.525388,66.797386,-8.787036,119.842911,-11.423954
4.118750,84.676178,-6.346997,102.317665,-8.804986,115.511620,-11.205704
4.125000,83.389740,-6.162937,137.977798,-8.802120,111.333809,-10.958357
4.131250,80.828232,-6.117668,173.645309,-8.783145,107.296730,-10.736131
4.137500,77.501663,-6.258689,-150.773972,-8.790582,103.165283,-10.556327
4.143750,74.121094,-6.535788,-115.407684,-8.819025,99.032021,-10.405503
4.150000,71.616638,-6.818161,-79.868446,-8.812430,95.099724,-10.221206
4.156250,70.364044,-6.976717,-44.386665,-8.795598,91.242668,-10.046901
4.162500,70.092293,-6.945594,-8.903712,-8.818978,87.201065,-9.918323
4.168750,70.089905,-6.740151,26.437485,-8.837104,83.194649,-9.805639
4.175000,69.239769,-6.496186,62.082752,-8.800221,79.401314,-9.647179
4.181250,66.975891,-6.355621,97.941597,-8.730172,75.872742,-9.497783
4.187500,63.547138,-6.432811,133.395950,-8.700713,71.887268,-9.404811
4.193750,59.697933,-6.695483,168.755585,-8.687827,67.842552,-9.332428
4.200000,56.593288,-7.052737,-155.556122,-8.639047,64.144066,-9.239835
4.206250,54.720516,-7.352764,-119.679161,-8.573605,60.646626,-9.118828
4.212500,54.158089,-7.477082,-83.998611,-8.535028,56.975132,-9.024120
4.218750,54.519566,-7.386818,-48.410301,-8.544293,53.072338,-8.975839
4.225000,54.748001,-7.138629,-12.622634,-8.543736,49.493740,-8.912893
4.231250,54.024811,-6.884536,23.387510,-8.509160,46.025589,-8.844272
4.237500,51.899345,-6.752496,59.248989,-8.499610,42.470421,-8.800969
4.243750,48.781853,-6.796694,94.754158,-8.520863,38.803551,-8.788849
4.250000,45.495480,-6.976228,130.313583,-8.526820,35.152348,-8.786787
4.256250,42.749802,-7.205062,165.866776,-8.503503,31.623386,-8.769608
4.262500,40.994236,-7.365313,-158.601730,-8.477098,28.071722,-8.762360
4.268750,40.096222,-7.407637,-123.164337,-8.451628,24.391495,-8.770098
4.275000,39.529423,-7.334740,-87.632515,-8.393860,20.665348,-8.774884
4.281250,38.639542,-7.229103,-52.022545,-8.322554,17.080866,-8.771966
4.287500,37.081711,-7.172132,-16.354172,-8.257976,13.461784,-8.794644
4.293750,34.958214,-7.201736,19.337616,-8.218021,9.851262,-8.824847
4.300000,32.665012,-7.299551,55.115067,-8.180611,6.239674,-8.867324
4.306250,30.662409,-7.409283,90.900093,-8.152658,2.667955,-8.912722
4.312500,29.268772,-7.464436,126.732376,-8.141546,-0.878585,-8.957098
4.318750,28.341553,-7.428656,162.532745,-8.129355,-4.480049,-9.005119
4.325000,27.460981,-7.304650,-161.728241,-8.125386,-8.108145,-9.046795
4.331250,26.223999,-7.182531,-126.096329,-8.106658,-11.740654,-9.092696
4.337500,24.406240,-7.104205,-90.490013,-8.089965,-15.408243,-9.145780
4.343750,22.094517,-7.124718,-54.874241,-8.066204,-19.031725,-9.200959
4.350000,19.739403,-7.201404,-19.258169,-8.033659,-22.602650,-9.253235
4.356250,17.686251,-7.290586,16.273706,-7.996862,-26.166624,-9.330801
4.362500,16.182901,-7.322562,51.831699,-7.956162,-29.783545,-9.428843
4.368750,15.011691,-7.279952,87.539436,-7.907987,-33.301716,-9.541893
4.375000,13.895485,-7.189427,123.250061,-7.845304,-36.864357,-9.654895
4.381250,12.296394,-7.108943,158.849747,-7.807381,-40.557129,-9.781404
4.387500,10.242288,-7.095108,-165.466064,-7.757554,-44.332722,-9.902180
4.393750,7.850911,-7.165448,-129.747406,-7.708489,-48.111923,-9.998496
4.400000,5.623765,-7.288029,-94.076492,-7.673997,-51.962132,-10.088516
4.406250,3.998453,-7.379611,-58.485126,-7.653759,-55.898247,-10.196568
4.412500,3.005314,-7.367930,-22.757713,-7.621980,-59.710724,-10.283075
4.418750,2.470848,-7.215988,13.055606,-7.576219,-63.504925,-10.351455
4.425000,1.739771,-6.975468,48.815132,-7.546394,-67.316376,-10.444521
4.431250,0.220653,-6.753790,84.309975,-7.561622,-71.214516,-10.588390
4.437500,-2.385915,-6.654079,119.892403,-7.534043,-75.043304,-10.703213
4.443750,-5.750073,-6.731533,155.743866,-7.476065,-78.691772,-10.792521
4.450000,-9.141130,-6.942989,-168.615906,-7.417089,-82.547424,-10.892130
4.456250,-11.817024,-7.206997,-133.359390,-7.405756,-86.935310,-11.062658
4.462500,-13.376548,-7.382778,-98.060814,-7.385751,-91.214485,-11.225736
4.468750,-13.843821,-7.388938,-62.309650,-7.300112,-95.250404,-11.345757
4.475000,-13.847074,-7.224113,-26.501629,-7.199682,-99.287529,-11.469402
4.481250,-14.119462,-6.955830,9.051248,-7.140357,-103.459869,-11.643042
4.487500,-15.528021,-6.732229,44.447170,-7.114622,-107.905945,-11.845140
4.493750,-18.056929,-6.664394,80.227951,-7.057461,-112.037949,-12.045898
4.500000,-21.252586,-6.752825,116.031601,-7.014276,-116.012360,-12.284131
4.506250,-24.339914,-6.935734,151.491104,-7.036111,-120.166748,-12.568627
4.512500,-26.449835,-7.093855,-173.077286,-7.053590,-123.883919,-12.806619
4.518750,-27.678751,-7.144361,-137.381195,-7.029851,-126.949142,-12.906488
4.525000,-28.231432,-7.049005,-101.636131,-6.988793,-129.763855,-12.919902
4.531250,-28.745571,-6.808608,-66.301895,-6.984202,-132.984589,-12.955019
4.537500,-29.891842,-6.563467,-31.104677,-6.983530,-136.442459,-12.975384
4.543750,-32.183659,-6.414467,4.448618,-6.918480,-139.745987,-12.959760
4.550000,-35.446556,-6.431663,40.071976,-6.836313,-143.196533,-12.929438
4.556250,-38.996746,-6.615049,75.336403,-6.813988,-147.119995,-12.995085
4.562500,-41.951828,-6.861520,110.572250,-6.808908,-151.326080,-13.107698
4.568750,-43.759998,-7.025957,146.194611,-6.764183,-155.263443,-13.173013
4.575000,-44.346153,-7.042801,-178.004517,-6.709776,-158.985565,-13.231483
4.581250,-44.487938,-6.857566,-142.418793,-6.680431,-162.943283,-13.271146
4.587500,-44.894962,-6.552726,-106.946770,-6.660708,-166.830994,-13.315029
4.593750,-46.494431,-6.294983,-71.528954,-6.670202,-170.728500,-13.336488
4.600000,-49.520035,-6.191156,-36.157776,-6.723006,-174.696503,-13.409975
4.606250,-53.414055,-6.335171,-0.909766,-6.803262,-178.494141,-13.492621
4.612500,-57.302399,-6.641176,34.651241,-6.854947,178.051941,-13.537135
4.618750,-60.186272,-6.971005,70.524063,-6.871264,174.985901,-13.549660
4.625000,-61.590176,-7.194204,106.407829,-6.876557,172.062820,-13.563202
4.631250,-61.745178,-7.211326,142.213989,-6.879205,168.652710,-13.583836
4.637500,-61.434219,-7.028430,178.144211,-6.815734,165.260895,-13.571382
4.643750,-61.549038,-6.735176,-145.835464,-6.716613,161.948059,-13.522053
4.650000,-62.876640,-6.472170,-110.244614,-6.651793,158.309799,-13.499945
4.656250,-65.497948,-6.359902,-75.024002,-6.641317,154.427353,-13.512389
4.662500,-68.879501,-6.423362,-39.602879,-6.589648,150.897919,-13.474255
4.668750,-72.282089,-6.632319,-3.920384,-6.512452,147.552475,-13.418113
4.675000,-74.869217,-6.831653,31.542404,-6.505785,144.001572,-13.423524
4.681250,-76.269951,-6.943439,66.788139,-6.541422,140.288971,-13.495850
4.687500,-76.848099,-6.892782,102.524033,-6.516996,136.995361,-13.516191
4.693750,-77.259514,-6.697747,138.638062,-6.447996,134.091217,-13.508263
4.700000,-78.230164,-6.461601,174.320038,-6.440873,130.934464,-13.541328
4.706250,-80.226334,-6.304723,-150.453842,-6.517981,127.488686,-13.630088
4.712500,-83.249054,-6.303021,-114.999199,-6.547516,124.577354,-13.652678
4.718750,-86.643486,-6.452247,-79.101929,-6.495969,121.939674,-13.602486
4.725000,-89.702316,-6.669279,-43.510757,-6.488526,118.856644,-13.626513
4.731250,-91.899704,-6.862916,-8.498672,-6.548184,115.408134,-13.748317
4.737500,-92.984009,-6.930547,26.865616,-6.541688,112.422234,-13.813844
4.743750,-93.457855,-6.841259,62.768387,-6.448973,110.138298,-13.808034
4.750000,-93.986031,-6.639923,98.437683,-6.373075,107.879784,-13.786417
4.756250,-95.254173,-6.429175,133.725891,-6.363788,105.562996,-13.662031
4.762500,-97.609169,-6.330750,169.152115,-6.314764,103.671814,-13.301179
4.768750,-100.740662,-6.388026,-154.922165,-6.221780,101.240372,-12.952937
4.775000,-104.002098,-6.555233,-119.498741,-6.222844,96.196686,-12.960231
4.781250,-106.687386,-6.765545,-84.455963,-6.309883,90.644432,-13.184350
4.787500,-108.536667,-6.928226,-49.130356,-6.392873,86.274010,-13.396868
4.793750,-109.563965,-6.981274,-13.203515,-6.392053,83.344254,-13.527258
4.800000,-110.123199,-6.916522,22.731340,-6.375812,80.677940,-13.637659
4.806250,-110.782524,-6.759967,58.138325,-6.415708,77.725281,-13.793728
4.812500,-111.993767,-6.601914,93.331451,-6.477447,74.694504,-13.940035
4.818750,-113.938408,-6.518049,128.875778,-6.476808,71.769188,-14.065861
4.825000,-116.412361,-6.528563,164.627411,-6.457606,68.936539,-14.168472
4.831250,-118.991661,-6.595611,-159.866913,-6.445341,65.588776,-14.313543
4.837500,-121.290192,-6.686796,-124.497383,-6.454439,62.552147,-14.439272
4.843750,-123.058281,-6.729275,-88.860481,-6.444389,59.525135,-14.527621
4.850000,-124.465820,-6.709355,-53.149281,-6.431327,56.553860,-14.622800
4.856250,-125.808945,-6.629789,-17.592461,-6.430799,53.670048,-14.738168
4.862500,-127.381737,-6.560243,18.032612,-6.430645,50.663094,-14.894254
4.868750,-129.412933,-6.534896,53.714821,-6.424432,47.679489,-15.058979
4.875000,-131.720505,-6.569981,89.451149,-6.416305,44.663303,-15.266637
4.881250,-134.006042,-6.657139,125.025475,-6.403677,41.352844,-15.534530
4.887500,-135.944000,-6.727383,160.563385,-6.386023,37.979626,-15.914841
4.893750,-137.369125,-6.714060,-163.913162,-6.405224,34.825150,-16.314499
4.900000,-138.414322,-6.630363,-128.688934,-6.458169,32.519394,-16.595734
4.906250,-139.824615,-6.533264,-93.368500,-6.521289,30.981298,-16.742441
4.912500,-141.625824,-6.451433,-57.852913,-6.560096,29.163260,-16.896162
4.918750,-143.743484,-6.418850,-22.254536,-6.604640,26.775877,-17.101898
4.925000,-146.031525,-6.426877,13.345999,-6.621950,24.072592,-17.331659
4.931250,-148.325607,-6.471457,48.979645,-6.645327,21.349260,-17.578638
4.937500,-150.437592,-6.506581,84.593254,-6.642369,18.603401,-17.881121
4.943750,-152.202209,-6.511685,120.172760,-6.652860,15.554896,-18.219118
4.950000,-153.875198,-6.475033,155.778961,-6.651864,12.478515,-18.589861
4.956250,-155.513382,-6.415338,-168.444473,-6.644715,9.440900,-18.958931
4.962500,-157.420349,-6.362928,-132.663345,-6.658636,6.405914,-19.367302
4.968750,-159.643204,-6.366765,-97.076157,-6.699219,3.377944,-19.850960
4.975000,-162.059174,-6.418147,-61.414139,-6.754329,0.926832,-20.304583
4.981250,-164.446304,-6.505558,-25.620342,-6.800203,-0.896978,-20.721750
4.987500,-166.532715,-6.595256,10.153480,-6.848063,-1.873857,-20.982233
4.993750,-168.151443,-6.654406,45.807877,-6.901231,-2.516676,-21.031765
5.000000,-169.433640,-6.642128,81.554878,-6.923545,-3.675816,-20.909475
5.006250,-170.531326,-6.546701,117.465645,-6.889713,-7.201564,-20.996338
5.012500,-171.914978,-6.412374,153.186035,-6.861740,-13.732706,-21.380020
5.018750,-173.793411,-6.323462,-171.299271,-6.882440,-21.096621,-21.989738
5.025000,-176.175842,-6.307602,-135.619873,-6.871887,-27.977787,-22.607489
5.031250,-178.740356,-6.358965,-99.593147,-6.799039,-34.270130,-23.190453
5.037500,178.821655,-6.444602,-63.747986,-6.767844,-40.628658,-23.823744
5.043750,176.787827,-6.516635,-28.324968,-6.820167,-47.211414,-24.679443
5.050000,175.107071,-6.529203,7.252481,-6.864224,-53.857498,-25.541021
5.056250,173.687988,-6.493001,43.350662,-6.859294,-60.553082,-26.384844
5.062500,172.118607,-6.419584,79.379532,-6.830473,-68.001923,-27.207754
5.068750,170.304749,-6.356249,114.956192,-6.871643,-77.787575,-27.928165
5.075000,168.094208,-6.342070,150.497391,-6.924462,-89.526756,-28.364382
5.081250,165.725174,-6.388463,-173.655441,-6.894877,-102.646545,-28.360689
5.087500,163.447220,-6.457993,-137.782669,-6.861809,-115.834312,-27.983339
5.093750,161.392624,-6.525068,-102.389046,-6.905816,-128.606537,-27.504341
5.100000,159.704056,-6.527858,-66.967804,-6.955888,-140.216309,-26.962620
5.106250,158.233917,-6.493462,-31.060396,-6.946670,-149.372009,-26.452148
5.112500,156.593124,-6.431265,4.920496,-6.890017,-157.802856,-25.828146
5.118750,154.684631,-6.388973,40.620338,-6.881062,-165.922897,-25.220676
5.125000,152.335587,-6.383688,76.090073,-6.894493,-173.374954,-24.603642
5.131250,149.890732,-6.445774,111.897385,-6.879227,179.196030,-23.946791
5.137500,147.561279,-6.548848,147.735291,-6.845839,172.366043,-23.209732
5.143750,145.617905,-6.611651,-176.677933,-6.854575,166.126266,-22.512274
5.150000,144.112778,-6.622539,-141.088531,-6.873227,160.168228,-21.864744
5.156250,142.764160,-6.566368,-105.178925,-6.863530,155.274445,-21.255035
5.162500,141.276505,-6.471313,-69.340515,-6.852968,150.775604,-20.650482
5.168750,139.328568,-6.401428,-33.635658,-6.878632,146.654266,-20.098427
5.175000,136.827286,-6.402353,2.072683,-6.890988,143.024963,-19.591194
5.181250,134.117722,-6.505266,37.955688,-6.871422,139.371765,-19.085812
5.187500,131.494049,-6.663704,73.445816,-6.913559,135.604370,-18.663298
5.193750,129.379395,-6.799793,108.873672,-6.959652,131.763824,-18.288767
5.200000,128.075195,-6.853719,144.558670,-6.955914,128.377136,-17.920595
5.206250,127.184097,-6.793982,-179.375519,-6.872015,125.578362,-17.480358
5.212500,126.218445,-6.648084,-143.599487,-6.819299,122.528351,-17.101276
5.218750,124.743690,-6.488011,-108.327667,-6.842273,119.118767,-16.825260
5.225000,122.442314,-6.410824,-72.771568,-6.830171,116.326698,-16.497028
5.231250,119.424721,-6.463923,-36.628212,-6.763025,113.705223,-16.151213
5.237500,116.108345,-6.645399,-0.763192,-6.749165,110.732086,-15.856517
5.243750,113.332413,-6.872089,34.732914,-6.811346,107.361473,-15.658674
5.250000,111.430038,-7.053768,70.472740,-6.846308,104.089684,-15.428828
5.256250,110.455635,-7.105412,106.517555,-6.814748,101.480713,-15.124338
5.262500,109.955429,-7.015427,142.462769,-6.790674,98.849747,-14.834069
5.268750,109.257462,-6.835661,177.767502,-6.824456,95.783005,-14.634460
5.275000,107.841606,-6.668436,-146.843658,-6.854302,92.959045,-14.431470
5.281250,105.436592,-6.615239,-110.977692,-6.828712,90.447166,-14.185086
5.287500,102.350082,-6.689116,-75.232681,-6.784463,87.953270,-13.993882
5.293750,99.244263,-6.880841,-39.740856,-6.773900,85.169533,-13.833283
5.300000,96.745674,-7.081476,-4.218421,-6.745304,82.495972,-13.686664
5.306250,95.159904,-7.210100,31.580055,-6.704887,79.897476,-13.511957
5.312500,94.375580,-7.199706,67.319374,-6.665790,77.386772,-13.360182
5.318750,93.790108,-7.064298,102.905693,-6.662730,74.568184,-13.216612
5.325000,92.707581,-6.876476,138.609787,-6.646732,71.780891,-13.078999
5.331250,90.702103,-6.757082,174.496307,-6.605419,69.168037,-12.906318
5.337500,87.769806,-6.777188,-149.749329,-6.586876,66.661087,-12.773874
5.343750,84.490242,-6.949959,-114.296638,-6.599127,63.855492,-12.665442
5.350000,81.519241,-7.195262,-78.679398,-6.590336,61.351788,-12.545340
5.356250,79.477531,-7.420069,-42.858379,-6.563725,59.102520,-12.402119
5.362500,78.417587,-7.515822,-7.187107,-6.560363,56.514557,-12.318252
5.368750,78.120331,-7.451272,28.199732,-6.580600,53.824741,-12.258279
5.375000,77.821083,-7.274534,63.780136,-6.578491,51.227840,-12.198029
5.381250,76.788452,-7.057729,99.543144,-6.548638,48.747978,-12.100886
5.387500,74.722420,-6.926245,135.199661,-6.516422,46.251373,-12.008107
5.393750,71.822174,-6.934920,170.573700,-6.484268,43.456692,-11.936906
5.400000,68.664474,-7.064940,-154.030411,-6.449635,40.732025,-11.860395
5.406250,65.829575,-7.271202,-118.492935,-6.402083,38.106628,-11.768366
5.412500,63.803574,-7.431488,-83.014885,-6.359353,35.514339,-11.715945
5.418750,62.625332,-7.476724,-47.513134,-6.316803,32.845291,-11.661604
5.425000,61.828495,-7.426964,-11.876173,-6.280356,30.374756,-11.609571
5.431250,60.785507,-7.303905,23.744667,-6.254740,27.764225,-11.540968
5.437500,59.131199,-7.222374,59.386528,-6.246552,25.149828,-11.515399
5.443750,56.727356,-7.238736,94.917686,-6.240512,22.556824,-11.474052
5.450000,54.033638,-7.353272,130.508530,-6.242872,19.935652,-11.444923
5.456250,51.603767,-7.526008,166.027679,-6.252822,17.310953,-11.407017
5.462500,49.897282,-7.649306,-158.506149,-6.261450,14.616576,-11.393873
5.468750,49.006554,-7.654409,-123.081062,-6.240766,12.039973,-11.353580
5.475000,48.486668,-7.524233,-87.616737,-6.203526,9.570374,-11.328871
5.481250,47.695187,-7.328195,-52.306305,-6.176209,6.833743,-11.320138
5.487500,46.127193,-7.145303,-17.033531,-6.151053,3.969171,-11.335388
5.493750,43.589191,-7.082597,18.374403,-6.100462,1.222875,-11.319561
5.500000,40.409069,-7.167953,53.795433,-6.052008,-1.689796,-11.287419
5.506250,37.226635,-7.371629,89.143555,-6.029223,-4.730221,-11.278791
5.512500,34.714127,-7.591656,124.426109,-6.031559,-7.878575,-11.268101
5.518750,33.180733,-7.727851,159.893387,-6.003208,-10.775341,-11.235113
5.525000,32.525951,-7.720931,-164.515533,-5.966822,-13.647677,-11.174593
5.531250,32.031239,-7.594232,-129.102707,-5.951806,-16.485525,-11.161341
5.537500,31.115400,-7.428885,-93.796967,-5.949477,-19.490170,-11.154930
5.543750,29.327982,-7.328693,-58.476456,-5.935816,-22.426571,-11.178232
5.550000,26.766752,-7.362773,-23.078062,-5.937979,-25.390310,-11.199958
5.556250,24.041664,-7.502657,12.230101,-5.943002,-28.445997,-11.271749
5.562500,21.796844,-7.668401,47.544415,-5.931351,-31.792385,-11.320722
5.568750,20.505678,-7.743155,82.925797,-5.892386,-35.093475,-11.361062
5.575000,20.139206,-7.639881,118.211075,-5.873386,-38.666370,-11.440679
5.581250,19.866005,-7.372634,153.266602,-5.878220,-42.491470,-11.541848
5.587500,18.873316,-7.075136,-171.607971,-5.860452,-46.241051,-11.645619
5.593750,16.593655,-6.871880,-136.328125,-5.811524,-49.648815,-11.733741
5.600000,13.170358,-6.861464,-101.143501,-5.784304,-52.998535,-11.855073
5.606250,9.193141,-7.047545,-66.316643,-5.821907,-56.372208,-12.055641
5.612500,5.741509,-7.346606,-31.213024,-5.833690,-59.108921,-12.200325
5.618750,3.402370,-7.631393,4.235301,-5.787862,-61.207165,-12.244041
5.625000,2.459696,-7.773781,39.690083,-5.755526,-63.266373,-12.250316
5.631250,2.477205,-7.700908,74.808891,-5.786727,-65.864937,-12.244520
5.637500,2.826423,-7.432142,109.899200,-5.824513,-68.588356,-12.212561
5.643750,2.344703,-7.073678,145.190201,-5.822674,-71.241005,-12.126258
5.650000,0.564266,-6.795274,-179.539322,-5.828100,-74.136116,-12.010865
5.656250,-2.734158,-6.715624,-144.597687,-5.884936,-77.569221,-11.990408
5.662500,-6.839980,-6.863306,-109.581757,-5.893192,-81.157684,-11.959761
5.668750,-10.563006,-7.152148,-74.344673,-5.845246,-84.490791,-11.884566
5.675000,-13.133113,-7.407946,-39.372814,-5.826665,-87.887756,-11.831491
5.681250,-14.238525,-7.501664,-4.587711,-5.847549,-91.763954,-11.837894
5.687500,-14.352674,-7.374887,30.364273,-5.852530,-95.517708,-11.795088
5.693750,-14.610208,-7.099294,65.554535,-5.818797,-99.185669,-11.707014
5.700000,-16.012718,-6.826900,100.647583,-5.816050,-103.135750,-11.610829
5.706250,-18.938906,-6.759727,135.588394,-5.849912,-107.480728,-11.564548
5.712500,-22.848888,-6.938945,170.702469,-5.853582,-111.659882,-11.493867
