Anritsu VNA Frequency[GHz],S21[deg],S21[dB],S11[deg],S11[dB],S22[deg],S22[dB]
1337935861.72,2012_05_25_09:51:01,+297.49,+297.38,+02.989,+297.27,+296.73,+297.54,+297.27,+297.57,242.923035,-6.547
3.009050,-0.993546,-7.877934,-11.917870,-11.757977,6.156815,-13.370905
3.021525,-0.993546,-7.877934,-11.917870,-11.757977,6.156815,-13.370905
3.034000,-0.993546,-7.877934,-11.917870,-11.757977,6.156815,-13.370905
3.046475,-0.993546,-7.877934,-11.917870,-11.757977,6.156815,-13.370905
3.058950,-0.993546,-7.877934,-11.917870,-11.757977,6.156815,-13.370905
3.071425,-0.993546,-7.877934,-11.917870,-11.757977,6.156815,-13.370905
3.083900,-0.993546,-7.877934,-11.917870,-11.757977,6.156815,-13.370905
3.096375,-0.993546,-7.877934,-11.917870,-11.757977,6.156815,-13.370905
3.108850,-0.993546,-7.877934,-11.917870,-11.757977,6.156815,-13.370905
3.121325,-0.993546,-7.877934,-11.917870,-11.757977,6.156815,-13.370905
3.133800,-0.993546,-7.877934,-11.917870,-11.757977,6.156815,-13.370905
3.146275,-0.993546,-7.974988,-11.917870,-11.857586,6.156815,-13.560260
3.158750,-3.441871,-8.051256,-18.925339,-11.990910,3.498117,-13.750604
3.171225,-3.912399,-8.107205,-24.471458,-12.149212,0.860233,-13.937205
3.183700,-5.207622,-8.149247,-26.029589,-12.328742,-1.455433,-14.115243
3.196175,-6.993396,-8.169160,-23.718735,-12.529787,-3.147923,-14.278089
3.208650,-8.941048,-8.168117,-18.066507,-12.751504,-3.947303,-14.418080
3.221125,-10.780692,-8.151709,-9.787236,-12.993368,-4.196461,-14.529056
3.233600,-12.176164,-8.127872,0.115549,-13.237732,-4.225595,-14.615162
3.246075,-12.839959,-8.096064,10.544210,-13.491033,-3.829988,-14.681614
3.258550,-13.087853,-8.053454,20.317133,-13.745662,-2.897326,-14.729485
3.271025,-13.296066,-8.001577,28.385841,-14.005108,-1.360778,-14.756952
3.283500,-13.268508,-7.945039,33.820515,-14.277916,0.804632,-14.757149
3.295975,-12.904851,-7.886037,35.886375,-14.554588,3.595891,-14.723214
3.308450,-12.040439,-7.825271,34.061604,-14.847649,6.977158,-14.650578
3.320925,-10.560839,-7.757239,28.173162,-15.167192,10.342786,-14.540655
3.333400,-8.499236,-7.684008,20.670732,-15.488843,13.061551,-14.398723
3.345875,-5.851460,-7.615790,10.306158,-15.824524,15.096263,-14.228706
3.358350,-3.285808,-7.547393,-1.196910,-16.169533,16.417795,-14.035362
3.370825,-1.409187,-7.476865,-11.877899,-16.535330,17.044123,-13.818427
3.383300,-0.245330,-7.402021,-19.891647,-16.915903,17.042784,-13.571411
3.395775,0.209234,-7.328803,-26.672762,-17.317011,16.542440,-13.286950
3.408250,-0.010677,-7.260932,-29.713572,-17.730936,18.150917,-12.969823
3.420725,-0.761132,-7.199642,-29.162762,-18.154236,17.285233,-12.625540
3.433200,-1.863631,-7.144626,-25.516500,-18.568926,16.509958,-12.262721
3.445675,-0.696875,-7.094067,-19.525742,-18.964239,15.948431,-11.887162
3.458150,-1.941075,-7.057026,-12.033107,-19.336813,15.702610,-11.505193
3.470625,-2.965649,-7.034239,-4.027710,-19.705412,15.803367,-11.117023
3.483100,-3.587663,-7.018545,3.311990,-20.041456,16.245964,-10.715939
3.495575,-3.670637,-7.013958,8.920426,-20.354818,16.993353,-10.301357
3.508050,-3.151991,-7.028466,11.778706,-20.626028,17.485069,-9.887711
3.520525,-2.000368,-7.062259,13.431601,-20.847414,17.111534,-9.486117
3.533000,-0.191646,-7.109302,11.719717,-20.996069,15.828568,-9.102530
3.545475,1.676412,-7.167921,7.669261,-21.091412,13.663757,-8.744471
3.557950,2.944254,-7.240322,2.369776,-21.136837,10.706828,-8.414127
3.570425,3.542760,-7.325398,-3.028805,-21.129326,7.084286,-8.111227
3.582900,3.573558,-7.420290,-7.387315,-21.077791,2.958556,-7.831653
3.595375,3.097665,-7.521437,-9.552671,-20.983408,0.997991,-7.581591
3.607850,2.244942,-7.628534,-8.674169,-20.832933,-3.333021,-7.371435
3.620325,1.169731,-7.746161,-6.974537,-20.647141,-7.403653,-7.203562
3.632800,0.113120,-7.859078,-2.798471,-20.415079,-11.044028,-7.078667
3.645275,-1.283997,-7.966002,3.178706,-20.177132,-14.093909,-6.993362
3.657750,-3.380621,-8.062890,9.800590,-19.931440,-16.447802,-6.941827
3.670225,-5.917443,-8.154375,15.907829,-19.703333,-18.064184,-6.915224
3.682700,-8.524364,-8.239079,20.446098,-19.487728,-16.527189,-6.911223
3.695175,-10.837001,-8.310883,22.394152,-19.270489,-16.649124,-6.933856
3.707650,-12.538968,-8.365292,23.314690,-19.055914,-16.111107,-6.985898
3.720125,-13.384409,-8.409669,21.062326,-18.855251,-15.069770,-7.062489
3.732600,-13.717475,-8.447327,16.652670,-18.685652,-13.710533,-7.158846
3.745075,-13.881327,-8.466729,11.025213,-18.544994,-12.239075,-7.267966
3.757550,-13.734213,-8.468175,5.287490,-18.423330,-10.851188,-7.381340
3.770025,-13.198376,-8.465140,0.611813,-18.351002,-9.719802,-7.495301
3.782500,-12.175379,-8.465835,-1.999732,-18.286119,-6.540559,-7.614631
3.794975,-10.543548,-8.458623,-1.769252,-18.229067,-6.173803,-7.740224
3.807450,-8.227014,-8.439555,-0.713541,-18.188038,-6.246790,-7.872036
3.819925,-5.329847,-8.412198,2.734133,-18.185886,-6.765230,-8.006128
3.832400,-2.556216,-8.390211,7.584463,-18.218418,-7.668685,-8.136767
3.844875,-0.498197,-8.369298,12.765444,-18.296885,-8.869267,-8.259900
3.857350,0.847844,-8.342091,17.110205,-18.402851,-10.232681,-8.371852
3.869825,1.522908,-8.311640,21.684549,-18.504894,-9.159917,-8.473567
3.882300,1.567280,-8.284024,23.876429,-18.613535,-10.254410,-8.572352
3.894775,1.087768,-8.262938,24.041861,-18.723436,-10.915603,-8.670105
3.907250,0.330600,-8.238770,22.725359,-18.834270,-10.989419,-8.766119
3.919725,1.868554,-8.211391,20.427404,-18.955482,-10.384874,-8.858617
3.932200,1.050537,-8.181504,17.541887,-19.038063,-9.044922,-8.943194
3.944675,0.456392,-8.161027,14.789397,-19.081873,-6.964749,-9.017735
3.957150,0.251112,-8.148147,12.821853,-19.063242,-4.183151,-9.083714
3.969625,0.573215,-8.136255,12.093364,-18.972443,-1.313241,-9.144833
3.982100,1.552691,-8.125467,13.087681,-18.821302,1.031973,-9.205738
3.994575,3.166730,-8.117762,13.224102,-18.606564,2.827234,-9.268329
4.007050,5.387382,-8.118983,13.819077,-18.331192,4.085174,-9.331097
4.019525,7.583347,-8.124047,13.853367,-17.990990,4.857854,-9.390654
4.032000,9.121735,-8.133755,14.711667,-17.591171,5.239417,-9.443893
4.044475,9.984999,-8.150270,13.782625,-17.146406,5.372230,-9.490237
4.056950,10.211006,-8.176332,11.486158,-16.646675,5.441751,-9.531392
4.069425,9.885816,-8.203994,8.446391,-16.132385,5.105278,-9.569225
4.081900,9.135441,-8.238688,5.392265,-15.615146,4.046801,-9.608211
4.094375,8.121401,-8.277592,2.889385,-15.117785,2.557061,-9.648861
4.106850,7.034081,-8.325356,1.510357,-14.641356,0.953120,-9.689019
4.119325,5.510632,-8.379038,1.779844,-14.185194,-0.450135,-9.725307
4.131800,3.210969,-8.432087,4.118445,-13.741865,-1.339006,-9.755486
4.144275,0.450765,-8.493852,8.857736,-13.324018,-1.418569,-9.779469
4.156750,-2.435306,-8.561119,13.432908,-12.964685,-3.410394,-9.799984
4.169225,-5.109071,-8.626934,18.928864,-12.650676,-3.406748,-9.818288
4.181700,-7.203435,-8.690705,24.154293,-12.377459,-4.126456,-9.836947
4.194175,-8.455133,-8.752672,27.878601,-12.138798,-5.290745,-9.856860
4.206650,-9.203846,-8.816648,29.141975,-11.911907,-6.579993,-9.874521
4.219125,-9.821868,-8.883683,27.298708,-11.716780,-7.679964,-9.887771
4.231600,-10.126182,-8.943345,24.305235,-11.548058,-8.273787,-9.894221
4.244075,-9.910745,-8.994316,18.078650,-11.412028,-8.051867,-9.893363
4.256550,-9.091594,-9.039815,9.840590,-11.308681,-9.741951,-9.886759
4.269025,-7.654436,-9.088033,0.955097,-11.240229,-9.444052,-9.876592
4.281500,-5.554596,-9.134969,-7.163780,-11.203042,-9.882504,-9.864385
4.293975,-2.762036,-9.173965,-13.144309,-11.177744,-10.781310,-9.851414
4.306450,0.058836,-9.204541,-15.771996,-11.170509,-11.837040,-9.835872
4.318925,2.215791,-9.231857,-16.908400,-11.196101,-12.725328,-9.814186
4.331400,3.664433,-9.260601,-14.661622,-11.246337,-13.125579,-9.785440
4.343875,4.460865,-9.286390,-9.772515,-11.329374,-12.727947,-9.749672
4.356350,4.727995,-9.302211,-3.289508,-11.438517,-11.847254,-9.708684
4.368825,4.572507,-9.307567,3.750005,-11.578088,-10.853518,-9.664949
4.381300,4.094789,-9.314825,10.125228,-11.720030,-9.563411,-9.619658
4.393775,3.465152,-9.321733,14.857949,-11.874383,-7.832381,-9.573534
4.406250,2.401426,-9.319834,17.049461,-12.053772,-5.568668,-9.525196
4.418725,0.572265,-9.308710,18.393250,-12.252081,-2.712752,-9.471379
4.431200,-1.743045,-9.288784,16.549105,-12.469594,0.762263,-9.411643
4.443675,-4.297533,-9.269246,12.396073,-12.712850,4.843232,-9.347766
4.456150,-6.710716,-9.251883,7.060574,-12.964661,8.913342,-9.280990
4.468625,-8.591090,-9.229309,1.653487,-13.222646,12.335549,-9.214802
4.481100,-9.669261,-9.197763,-2.569096,-13.466373,15.092289,-9.151833
4.493575,-10.309284,-9.164114,-4.405044,-13.713311,17.199207,-9.093869
4.506050,-10.938591,-9.133571,-2.880955,-13.966552,18.720917,-9.039676
4.518525,-11.327249,-9.106710,-0.375896,-14.220440,19.765629,-8.987244
4.531000,-11.307346,-9.078121,4.770723,-14.473696,20.505342,-8.935274
4.543475,-10.748592,-9.049879,11.564096,-14.724829,21.145000,-8.886257
4.555950,-9.621700,-9.023947,18.868187,-14.958540,21.329155,-8.840730
4.568425,-7.871230,-9.005618,25.515053,-15.160901,20.730999,-8.800838
4.580900,-5.513429,-8.991880,30.604128,-15.350366,19.638956,-8.767001
4.593375,-3.166445,-8.977032,33.165733,-15.536745,18.373091,-8.738670
4.605850,-1.450391,-8.966461,32.443924,-15.721326,17.260517,-8.712552
4.618325,-0.419215,-8.961640,27.927685,-15.902560,16.633858,-8.684930
4.630800,-0.022615,-8.964486,19.434460,-16.074133,16.792862,-8.655002
4.643275,-0.166142,-8.968229,9.471456,-16.228735,15.013391,-8.623320
4.655750,-0.716875,-8.976711,-3.410398,-16.345621,15.191454,-8.590532
4.668225,-1.513322,-8.984987,-17.181976,-16.449875,14.590539,-8.558259
4.680700,0.032877,-8.993194,-29.901619,-16.551146,13.486520,-8.529458
4.693175,-0.689869,-9.003921,-39.759205,-16.643127,12.201310,-8.504612
4.705650,-1.110353,-9.015804,-48.233105,-16.740665,11.065356,-8.484215
4.718125,-1.075724,-9.028780,-52.774193,-16.844036,10.410799,-8.466615
4.730600,-0.461987,-9.039849,-53.579918,-16.933931,10.542130,-8.452992
4.743075,0.828744,-9.046146,-51.273754,-17.002697,8.730157,-8.446502
4.755550,2.783418,-9.047900,-46.349468,-17.075808,8.878781,-8.448911
4.768025,5.352490,-9.053702,-39.659168,-17.163673,8.264447,-8.459887
4.780500,7.886210,-9.062196,-32.344917,-17.277292,7.155975,-8.482462
4.792975,9.780595,-9.069404,-25.590721,-17.417921,5.872055,-8.514727
4.805450,11.027954,-9.069350,-20.453062,-17.597624,4.775375,-8.551481
4.817925,11.592672,-9.071115,-17.958111,-17.815115,4.213051,-8.588343
4.830400,11.547301,-9.079309,-16.468739,-18.013714,4.498864,-8.620860
4.842875,11.036201,-9.090847,-18.217714,-18.238016,2.905632,-8.647408
4.855350,10.283265,-9.094524,-21.992893,-18.503269,3.311983,-8.668242
4.867825,9.476417,-9.089319,-26.781677,-18.804979,2.962456,-8.684058
4.880300,8.178838,-9.086234,-31.444984,-19.142256,2.124570,-8.695404
4.892775,6.036261,-9.087471,-34.852055,-19.521748,1.113326,-8.702397
4.905250,3.406514,-9.087814,-35.950470,-19.958693,0.260824,-8.704735
4.917725,0.657174,-9.074573,-34.371990,-20.329756,-0.096558,-8.701192
4.930200,-1.890564,-9.053260,-31.867172,-20.700075,0.338694,-8.693055
4.942675,-3.984141,-9.031828,-26.725349,-21.086023,-1.171917,-8.683704
4.955150,-5.344567,-9.017134,-20.085770,-21.501190,-0.738925,-8.678742
4.967625,-6.219388,-9.004161,-13.123848,-21.929731,-1.113231,-8.681952
4.980100,-6.996716,-8.981121,-7.049444,-22.411108,-2.014331,-8.694304
4.992575,-7.507109,-8.955205,-2.457371,-22.839457,-3.109463,-8.713684
5.005050,-7.652975,-8.940108,0.341016,-23.208897,-4.048204,-8.738004
5.017525,-7.293817,-8.931029,0.634185,-23.557413,-4.472116,-8.762558
5.030000,-6.284623,-8.923777,-1.144127,-23.896120,-4.069789,-8.784738
5.042475,-4.583801,-8.914845,-4.511165,-24.209311,-5.574177,-8.804946
5.054950,-2.256148,-8.907110,-8.679740,-24.508366,-5.122123,-8.828260
5.067425,0.024093,-8.909037,-12.774534,-24.752548,-5.452911,-8.853043
5.079900,1.658401,-8.916712,-16.396278,-24.893654,-6.282594,-8.878598
5.092375,2.634909,-8.927247,-18.464842,-24.940891,-7.286990,-8.901421
5.104850,3.028425,-8.933966,-18.161358,-24.882404,-8.110798,-8.919842
5.117325,2.834570,-8.945510,-18.054390,-24.764044,-8.419712,-8.931867
5.129800,2.183442,-8.960319,-16.542055,-24.561861,-7.905922,-8.937037
5.142275,1.257150,-8.982570,-14.759718,-24.290335,-9.309448,-8.938967
5.154750,2.646307,-9.005635,-13.710037,-23.964935,-8.741260,-8.941875
5.167225,1.745416,-9.031056,-12.121765,-23.557205,-8.951737,-8.947191
5.179700,1.117531,-9.060871,-12.489248,-23.070423,-9.667522,-8.953404
5.192175,0.945198,-9.091864,-14.292455,-22.480234,-10.566219,-8.956718
5.204650,1.335320,-9.123679,-16.322783,-21.928986,-11.298578,-8.954959
5.217125,2.384585,-9.161525,-18.300165,-21.370571,-11.529369,-8.946548
5.229600,4.105262,-9.199970,-19.565140,-20.829758,-10.959936,-8.931815
5.242075,6.475657,-9.243941,-19.448502,-20.297714,-9.929756,-8.914561
5.254550,8.861515,-9.288276,-17.497107,-19.763336,-8.811597,-8.897327
5.267025,10.623272,-9.333470,-13.367110,-19.177416,-7.434418,-8.881290
5.279500,11.730987,-9.384552,-7.372760,-18.630795,-5.655241,-8.864535
5.291975,12.198223,-9.437217,-0.419525,-18.139601,-3.353500,-8.843551
5.304450,12.154717,-9.488260,7.169064,-17.685614,-0.447947,-8.817378
5.316925,11.683542,-9.536335,14.384481,-17.276634,3.094977,-8.784924
5.329400,10.937012,-9.586662,20.166344,-16.889811,7.252794,-8.747549
5.341875,10.058801,-9.641929,23.459887,-16.506769,11.395123,-8.709179
5.354350,8.744461,-9.698252,23.363152,-16.122059,14.884509,-8.674026
5.366825,6.698016,-9.745150,22.397551,-15.785771,17.686895,-8.641454
5.379300,4.181061,-9.787133,18.296616,-15.480170,19.812401,-8.609975
5.391775,1.450493,-9.831311,12.137899,-15.209315,21.323647,-8.576526
5.404250,-1.122302,-9.876667,5.361162,-14.969782,22.357809,-8.539389
5.416725,-3.153577,-9.917320,-0.636860,-14.763679,23.075977,-8.499804
5.429200,-4.355685,-9.950591,-4.477248,-14.562275,23.674114,-8.459436
5.441675,-5.094231,-9.984088,-5.108928,-14.358960,23.793209,-8.422007
5.454150,-5.777296,-10.025722,-4.217612,-14.178155,23.100592,-8.390051
5.466625,-6.169454,-10.067231,-0.000840,-14.027276,21.882200,-8.362509
5.479100,-6.043446,-10.102042,6.784800,-13.899596,20.458353,-8.336847
5.491575,-5.288099,-10.129436,15.099209,-13.788693,19.165300,-8.309922
5.504050,-3.916272,-10.157037,23.896454,-13.709541,18.348494,-8.279120
5.516525,-1.884669,-10.197689,31.997206,-13.645051,18.312284,-8.243937
5.529000,0.832947,-10.234560,38.332943,-13.584633,16.324984,-8.204828
5.541475,3.673073,-10.257545,41.963150,-13.533257,16.281326,-8.164158
5.553950,5.928868,-10.272768,42.353638,-13.500869,15.429817,-8.123350
5.566425,7.494133,-10.287187,39.004272,-13.486407,14.039691,-8.081631
5.578900,8.401719,-10.297190,31.739727,-13.488642,12.422293,-8.036490
5.591375,8.770636,-10.293421,23.091440,-13.503316,10.907278,-7.986563
5.603850,8.745605,-10.272047,11.660773,-13.516413,9.828623,-7.930631
5.616325,8.339068,-10.247259,-0.815289,-13.514745,9.492139,-7.872060
5.628800,7.760702,-10.230298,-12.493105,-13.488933,7.161820,-7.815306
5.641275,6.675473,-10.207442,-21.418461,-13.456991,6.732700,-7.764072
5.653750,4.798426,-10.179011,-29.022816,-13.420107,5.454171,-7.720777
5.666225,2.406191,-10.139848,-32.792564,-13.377986,3.608021,-7.685225
5.678700,-0.223542,-10.107544,-32.945080,-13.335546,1.515916,-7.655001
5.691175,-2.739926,-10.082508,-30.022039,-13.299516,-0.465042,-7.627099
5.703650,-4.722385,-10.061836,-24.789501,-13.252304,-1.983001,-7.599840
5.716125,-5.875525,-10.038613,-18.280993,-13.198704,-2.714464,-7.573594
5.728600,-6.542222,-10.016766,-11.383889,-13.150043,-2.974171,-7.550227
5.741075,-7.110268,-9.994850,-5.137777,-13.128598,-3.132370,-7.530587
5.753550,-7.380442,-9.967348,-0.681302,-13.127056,-3.026702,-7.514790
5.766025,-7.200033,-9.929323,1.033546,-13.165277,-2.517885,-7.500447
5.778500,-6.496942,-9.884110,1.685938,-13.251323,-1.498670,-7.484465
5.790975,-5.219276,-9.841218,-1.191309,-13.361120,0.104178,-7.462766
5.803450,-3.350212,-9.795069,-6.702482,-13.489092,2.320790,-7.436233
5.815925,-0.873990,-9.745318,-13.507186,-13.660796,5.140419,-7.408271
5.828400,1.516261,-9.692355,-20.324722,-13.896777,7.931973,-7.382686
5.840875,3.171630,-9.646129,-25.993540,-14.199483,10.044615,-7.361176
5.853350,4.071254,-9.608357,-29.341402,-14.559318,11.434333,-7.343415
5.865825,4.296581,-9.572102,-29.342836,-14.984336,12.111036,-7.327295
5.878300,3.921480,-9.539223,-27.979193,-15.475718,12.150115,-7.308020
5.890775,2.997708,-9.527623,-23.403477,-16.116135,11.686921,-7.284255
5.903250,1.722778,-9.538986,-16.238516,-16.726131,10.907518,-7.256884
5.915725,2.774719,-9.558791,-7.891365,-17.408632,12.435935,-7.228477
5.928200,1.588062,-9.583608,1.510003,-18.167303,11.644816,-7.200686
5.940675,0.695218,-9.612750,10.760965,-18.971914,11.112078,-7.173805
5.953150,0.175782,-9.668714,18.771076,-19.780190,10.972541,-7.146132
5.965625,0.216888,-9.740242,24.605398,-20.530609,11.334865,-7.113635
5.978100,0.996925,-9.815102,27.554125,-21.171539,12.261165,-7.072606
5.990575,2.524419,-9.891738,27.212378,-21.664804,13.789462,-7.022246
6.003050,4.705218,-9.987820,23.550009,-21.976048,15.915167,-6.966384
6.015525,6.855953,-10.110196,16.787128,-22.096371,18.009747,-6.907356
6.028000,8.518797,-10.233408,9.710201,-22.023840,19.416183,-6.847524
6.040475,9.725620,-10.346849,1.228418,-21.764938,20.078489,-6.787488
6.052950,10.346480,-10.458885,-6.813066,-21.326567,19.992001,-6.725736
6.065425,10.456241,-10.588520,-15.494143,-20.725924,19.215990,-6.657285
6.077900,10.210936,-10.721815,-21.668934,-20.011269,17.869287,-6.581758
6.090375,9.911954,-10.841362,-24.728466,-19.233191,16.141508,-6.502194
6.102850,9.745373,-10.935581,-24.634594,-18.422928,16.648315,-6.422751
6.115325,9.218421,-11.017056,-21.269773,-17.640219,14.748945,-6.346848
6.127800,7.993794,-11.084129,-14.929608,-16.917459,13.009884,-6.278018
6.140275,6.406598,-11.114837,-6.252112,-16.296024,11.562370,-6.218378
6.152750,4.815336,-11.102744,3.924874,-15.783441,10.514247,-6.167257
6.165225,3.402875,-11.066807,14.374541,-15.364376,9.928231,-6.123013
6.177700,2.447778,-11.011760,23.968639,-14.926549,9.867297,-6.087630
6.190175,2.288706,-10.925021,31.615541,-14.627401,12.757700,-6.069139
6.202650,0.228327,-10.797209,37.230183,-14.390938,13.722013,-6.071900
6.215125,-0.003343,-10.643430,39.408337,-14.193722,15.039361,-6.099929
6.227600,-1.241425,-10.479392,37.895611,-14.038809,16.540281,-6.155286
6.240075,-3.166987,-10.301111,32.582645,-13.921299,18.041178,-6.237333
6.252550,-5.408092,-10.108586,23.623201,-13.838992,19.353666,-6.339738
6.265025,-7.664118,-9.911306,11.512345,-13.779212,20.333866,-6.459036
6.277500,-9.686382,-9.726845,-2.983578,-13.731029,20.895535,-6.598154
6.289975,-11.094733,-9.551159,-16.495605,-13.706550,23.368095,-6.758375
6.302450,-12.113165,-9.368820,-29.717318,-13.695148,22.844187,-6.940486
6.314925,-13.174082,-9.184534,-43.403637,-13.691142,21.689457,-7.142860
6.327400,-14.194216,-9.021181,-54.210136,-13.700407,19.928341,-7.363386
6.339875,-14.944906,-8.882052,-61.426205,-13.711161,17.630207,-7.595125
6.352350,-15.231184,-8.753014,-64.602257,-13.707950,14.922362,-7.829789
6.364825,-14.902963,-8.631446,-63.623226,-13.682686,12.016582,-8.068460
6.377300,-13.994537,-8.526073,-58.627563,-13.632905,11.553164,-8.315617
6.389775,-10.182980,-8.446405,-50.042736,-13.553498,8.894361,-8.573628
6.402250,-8.262756,-8.388781,-38.646305,-13.435044,6.600900,-8.843587
6.414725,-5.904769,-8.342329,-25.417467,-13.276357,4.811509,-9.126129
6.427200,-3.300249,-8.315737,-11.447856,-13.078886,3.651209,-9.417762
6.439675,-0.710817,-8.327071,2.059016,-12.841707,3.180707,-9.707224
6.452150,1.743786,-8.369924,13.932044,-12.562469,3.464819,-9.990788
6.464625,3.991087,-8.429446,23.144579,-12.226671,4.558126,-10.276533
6.477100,5.874177,-8.510472,28.899595,-11.850067,5.837579,-10.565082
6.489575,9.599270,-8.627742,30.680466,-11.430224,6.623364,-10.853713
6.502050,10.292234,-8.778046,28.314917,-10.977851,6.845091,-11.136524
6.514525,10.470977,-8.952307,21.880590,-10.498356,6.496870,-11.403735
