Anritsu VNA Frequency[GHz],S21[deg],S21[dB],S11[deg],S11[dB],S22[deg],S22[dB]
1337880496.71,2012_05_24_18:28:16,+298.37,+298.54,+02.989,+298.40,+297.77,+298.87,+298.36,+298.93,243.943176,-6.914
3.001581,77.870308,0.196417,-101.605080,-20.388531,99.940453,-20.603197
3.006586,82.128906,0.435476,-131.370941,-17.634850,104.988861,-19.410444
3.011592,84.077148,0.327204,-114.155815,-19.120207,112.620979,-18.074961
3.016597,90.065163,0.328423,-104.304558,-16.367054,118.149864,-17.164547
3.021603,91.188187,0.388608,-86.175842,-17.659929,123.901566,-16.888020
3.026609,95.938377,0.184408,-75.957253,-16.078606,129.595749,-17.239529
3.031614,98.616570,0.342640,-69.437126,-18.972263,133.201736,-18.462778
3.036620,101.352623,0.244161,-40.271275,-17.774000,135.371017,-20.227331
3.041625,105.445358,0.371858,-38.498470,-19.844027,134.291107,-22.481112
3.046631,108.786217,0.336942,-15.499994,-20.386459,132.235977,-24.394554
3.051637,111.789619,0.477902,2.361989,-24.387758,126.960876,-26.030848
3.056642,114.946808,0.409216,14.140304,-31.027515,123.122528,-27.837076
3.061648,116.210487,0.684593,16.897921,-28.291393,123.930061,-30.932089
3.066653,120.680779,0.387273,17.349377,-26.804132,130.818787,-36.127068
3.071659,123.133102,0.238753,100.907768,-31.819120,138.289673,-56.227993
3.076664,127.342209,0.470796,134.920349,-26.659058,85.759125,-36.258415
3.081670,130.253830,0.395067,102.388947,-28.966345,-3.820076,-31.037888
3.086676,133.451431,0.321016,109.498512,-37.996719,6.720579,-29.149776
3.091681,136.079926,0.274743,-131.131470,-26.072422,12.989645,-29.326727
3.096687,140.117218,0.368341,-146.703125,-24.165285,24.450811,-31.828054
3.101692,141.685516,0.363230,-141.203873,-22.373478,24.228493,-38.187485
3.106698,144.791885,0.251580,-116.782951,-24.521971,-5.477881,-33.988842
3.111704,147.767120,0.305116,-100.337639,-21.958199,-80.100372,-28.483671
3.116709,151.125534,0.485683,-71.020462,-22.625814,-90.561935,-26.218857
3.121715,156.451843,0.279299,-41.055683,-23.429361,-94.678886,-25.183044
3.126720,158.733307,0.453030,-12.818510,-23.383921,-94.225250,-25.634260
3.131726,161.361954,0.351962,23.343594,-19.529949,-96.299667,-26.857140
3.136732,164.271591,0.530120,27.956158,-21.594669,-104.619225,-28.187336
3.141737,167.892349,0.450076,60.625328,-25.772375,-108.826599,-29.293413
3.146743,172.289398,0.347876,79.968521,-41.980995,-107.141136,-30.755329
3.151748,173.638733,0.426882,167.276367,-31.770760,-92.345673,-30.448570
3.156754,175.191818,0.158754,96.221664,-30.364931,-61.831066,-28.747717
3.161760,-179.539825,0.335873,-105.145218,-28.459671,-31.186491,-26.770861
3.166765,-176.319458,0.111527,167.082870,-27.223059,-5.464741,-25.176647
3.171771,-173.675018,0.493214,-170.945221,-27.438210,13.207483,-24.291008
3.176776,-170.675140,0.271948,-152.642380,-25.074234,35.771679,-23.704531
3.181782,-168.172226,0.756700,-114.014984,-23.002314,54.186867,-22.756847
3.186788,-163.784164,0.740164,-106.469009,-22.084480,71.557510,-22.345667
3.191793,-160.103516,0.364870,-124.302841,-21.175922,82.448753,-21.924137
3.196799,-157.569168,0.407325,-103.149719,-22.524281,90.127625,-21.582657
3.201804,-153.725357,0.484408,-66.448524,-21.019806,94.429848,-21.360563
3.206810,-151.618469,0.185144,-70.545273,-20.011198,95.629402,-21.591568
3.211815,-149.663239,0.074141,-65.216331,-25.095407,98.531555,-21.980961
3.216821,-145.336960,0.334779,-56.272423,-26.215107,105.196869,-23.125597
3.221827,-142.321976,0.276009,-25.377539,-41.986340,115.616966,-24.307243
3.226832,-137.080673,0.408323,153.224136,-29.561934,131.905548,-25.833694
3.231838,-136.572342,0.416033,-119.611153,-36.332649,158.815140,-26.491899
3.236843,-134.160355,0.474146,-117.343246,-33.402512,-174.170532,-26.553310
3.241849,-128.810104,0.560566,-62.786766,-22.154379,-151.031143,-27.221506
3.246855,-126.342773,0.222630,-94.988358,-25.335674,-139.275482,-28.926161
3.251860,-123.908806,0.540919,-101.289207,-20.713737,-136.037659,-32.868378
3.256866,-121.168762,0.445656,-78.535141,-23.625149,-143.528015,-38.386677
3.261871,-118.147911,0.433432,-85.062370,-23.802996,-162.115067,-40.516644
3.266877,-114.137222,0.372383,-51.388718,-25.788029,141.933289,-37.733368
3.271883,-111.742661,0.337153,-32.421989,-28.591238,125.741188,-40.787022
3.276888,-107.502625,0.336979,2.675179,-30.981596,95.854973,-36.472172
3.281894,-105.496338,0.646459,-11.796495,-29.876804,68.317307,-32.959824
3.286899,-101.982430,0.214044,131.183517,-27.349285,79.080055,-33.341908
3.291905,-97.437515,0.533947,-19.046108,-25.216345,83.688560,-29.330366
3.296911,-94.505890,0.457499,8.407800,-19.987104,103.556480,-28.482370
3.301916,-92.654915,0.395118,-18.644381,-23.687044,129.166275,-27.017794
3.306922,-90.672928,0.271797,17.471386,-29.403366,148.358353,-26.433777
3.311927,-85.054504,0.393424,53.380409,-37.034794,165.288284,-27.202686
3.316933,-83.071815,0.369949,-16.301884,-30.965921,-175.191818,-29.346764
3.321939,-81.948380,0.501470,133.914520,-28.502028,-162.290543,-31.932848
3.326944,-77.203896,0.319988,-24.409824,-31.039452,-121.799416,-29.593967
3.331950,-73.535278,0.483488,-43.932102,-21.125078,-89.121651,-28.213305
3.336955,-71.169250,0.316031,-43.750301,-21.116211,-67.460609,-24.766359
3.341961,-66.901276,0.317482,-16.254557,-17.440460,-70.339500,-22.606001
3.346967,-64.630623,0.446321,-6.123409,-17.407351,-70.339676,-21.230001
3.351972,-60.023911,0.356056,8.857278,-18.285896,-69.420746,-20.615444
3.356978,-59.038883,0.386492,16.856438,-19.003880,-66.086533,-21.002298
3.361983,-54.899017,0.393333,37.277565,-21.268574,-58.180607,-21.898020
3.366989,-50.744617,0.383500,51.885994,-21.681236,-50.602936,-23.534447
3.371994,-48.884476,0.307564,42.384220,-21.184696,-35.589603,-26.204445
3.377000,-45.438011,0.327175,85.298180,-22.870670,-19.826269,-30.321276
3.382006,-41.306824,0.452608,49.645550,-25.179094,3.150432,-35.895412
3.387011,-39.654648,0.261397,105.502747,-26.052347,41.597614,-37.478336
3.392017,-36.869324,0.484105,70.473923,-35.892521,103.524017,-35.434155
3.397022,-32.756977,0.650199,-0.062565,-27.361965,139.161789,-30.627859
3.402028,-29.953180,0.512122,-162.584198,-24.371393,149.571121,-28.890810
3.407034,-26.171301,0.283906,-158.761459,-20.724188,157.584778,-26.555719
3.412039,-22.905106,0.436206,-125.304352,-22.202866,154.068710,-24.688496
3.417045,-20.484026,0.484014,-117.166473,-21.947748,155.181274,-22.833284
3.422050,-16.349314,0.408689,-111.726265,-18.407391,157.779434,-22.091511
3.427056,-13.407325,0.564992,-83.110069,-17.490126,162.457535,-22.199865
3.432062,-11.057718,0.277588,-48.078426,-20.475510,164.472061,-24.008224
3.437067,-7.412907,0.336327,-46.172256,-19.012909,163.954102,-27.973022
3.442073,-6.275104,0.387690,-9.835258,-19.032156,151.363724,-31.040356
3.447078,-1.604431,0.353985,15.584028,-23.090874,104.956650,-28.647501
3.452084,1.313637,0.558762,41.739067,-22.154068,69.957314,-25.769232
3.457090,4.825715,0.502818,50.163551,-22.251858,61.567333,-24.894016
3.462095,8.614133,0.351925,83.433449,-24.792498,59.675282,-25.097097
3.467101,12.196267,0.538200,102.735161,-27.970701,64.057564,-25.803503
3.472106,13.423330,0.398187,101.876205,-26.575502,71.633247,-26.699224
3.477112,16.284618,0.601701,58.819489,-24.620838,78.046211,-26.560925
3.482118,19.306810,0.356093,90.547577,-22.911156,80.831505,-26.075495
3.487123,22.292259,0.589181,128.573196,-24.595686,84.100052,-25.560944
3.492129,27.883390,0.575244,121.303673,-25.710604,87.906395,-25.480907
3.497134,28.722343,0.381639,151.236069,-23.282349,94.272476,-26.538187
3.502140,33.116493,0.620962,179.911346,-45.821339,105.475784,-28.991280
3.507145,36.710339,0.514520,133.971939,-26.859554,123.988930,-32.970837
3.512151,38.803524,0.432658,-151.366867,-30.302139,161.874496,-32.045528
3.517157,41.898140,0.281172,-90.899170,-29.238604,-135.398743,-28.408594
3.522162,43.160683,0.417757,-10.992842,-33.800835,-103.848297,-26.662458
3.527168,48.757233,0.539164,-14.260492,-23.299730,-86.078049,-26.109043
3.532173,50.822353,0.740717,69.376816,-27.917707,-73.320366,-26.416002
3.537179,55.867680,0.460732,52.658386,-28.405985,-65.295647,-29.051754
3.542185,57.091339,0.461829,111.591232,-36.737648,-52.479504,-30.325815
3.547190,60.951488,0.317891,76.407562,-29.650036,-39.972622,-28.285877
3.552196,63.543526,0.506135,-153.763245,-28.937874,-16.841423,-26.961197
3.557201,67.127716,0.365439,-93.483925,-27.985977,0.413893,-23.763487
3.562207,72.338593,0.534429,-88.698463,-27.389372,11.050013,-22.098293
3.567213,74.774918,0.341263,-114.705246,-22.011589,19.930597,-21.307692
3.572218,75.976555,0.412261,-58.082104,-21.862230,30.307243,-21.375290
3.577224,81.064629,0.319663,-32.577366,-24.963306,40.491253,-22.159786
3.582229,82.260941,0.169240,-40.486256,-32.164627,53.060314,-23.934250
3.587235,86.366592,0.108732,-28.097319,-28.513010,66.121780,-25.893957
3.592241,89.962227,0.152472,-19.827072,-30.792450,78.038582,-27.974756
3.597246,92.363602,0.466064,-43.442322,-34.011078,83.255989,-28.993490
3.602252,94.763138,0.462582,-172.978271,-33.022118,73.031952,-29.006399
3.607257,98.614265,0.561630,-47.874146,-33.436501,67.253502,-28.358093
3.612263,102.160332,0.740339,-30.824144,-25.310204,58.325157,-28.128408
3.617269,105.580688,0.461161,-2.634533,-24.823444,54.933094,-28.629757
3.622274,108.127083,0.430609,48.700153,-25.411997,56.158741,-29.690483
3.627280,110.494186,0.590642,89.601059,-20.942179,46.898586,-30.107134
3.632285,114.249069,0.256694,108.981689,-27.410681,27.914963,-29.580086
3.637291,117.559044,0.363435,173.713547,-24.620043,12.765995,-27.071772
3.642296,119.511253,0.542021,-135.820587,-28.157288,16.370766,-24.661110
3.647302,123.902290,0.520059,-79.713112,-22.478382,36.344288,-23.139666
3.652308,125.300507,0.489605,-27.464909,-19.208191,60.701057,-19.965162
3.657313,130.199341,0.405198,-2.684992,-20.619089,79.350960,-17.549454
3.662319,131.784882,0.580088,26.247967,-16.848385,94.048485,-16.170561
3.667324,136.255646,0.266137,37.836536,-16.635164,102.726120,-15.255255
3.672330,137.862274,0.257167,56.608654,-14.958949,106.567863,-14.978136
3.677336,142.939087,0.187962,66.811432,-17.253717,110.056992,-14.959992
3.682341,144.858322,0.329810,85.605415,-16.416725,112.603096,-15.008356
3.687347,148.204590,0.750870,98.971588,-15.952356,115.356186,-15.269660
3.692352,151.519470,0.306603,100.710693,-15.666619,120.039207,-14.772966
3.697358,153.822037,0.314344,102.479065,-16.858311,127.651947,-14.804802
3.702364,157.288818,0.591293,101.236130,-16.346693,135.699142,-15.128495
3.707369,160.223419,0.580854,117.817360,-16.521719,144.907944,-15.862630
3.712375,164.134323,0.503317,128.893707,-15.677283,153.040359,-17.403025
3.717380,168.087357,0.242009,136.334564,-19.576937,161.184570,-19.511997
3.722386,169.300598,0.490211,146.786942,-19.712360,170.445984,-22.924778
3.727392,175.281403,0.354577,148.020889,-24.835953,175.138031,-27.347128
3.732397,178.321320,0.524918,165.079010,-25.797756,-176.872147,-34.186325
3.737403,-177.823257,0.272375,-154.326416,-26.191313,-154.357895,-37.668911
3.742408,-175.705948,0.199312,-94.077995,-25.625544,-106.075493,-32.126526
3.747414,-172.450027,0.704387,-55.368172,-23.567869,-66.297501,-27.243948
3.752420,-170.388062,0.318004,-11.762979,-22.655712,-58.685642,-24.701965
3.757425,-167.016327,0.482290,17.926994,-20.701448,-53.922512,-23.074650
3.762431,-164.713425,0.478594,52.684246,-21.799616,-48.495014,-22.770075
3.767436,-159.723343,0.366985,47.240482,-22.402506,-40.874249,-23.817436
3.772442,-157.979446,0.713077,75.867195,-22.903769,-37.094845,-25.187084
3.777448,-155.192963,0.558965,89.664520,-28.513947,-38.003609,-27.638857
3.782453,-151.385071,0.422256,108.070221,-22.415430,-39.854576,-28.729973
3.787459,-148.080048,0.538340,105.328590,-27.522060,-49.642502,-27.141033
3.792464,-145.589706,0.519912,109.294731,-24.700317,-61.191113,-24.803291
3.797470,-141.389542,0.238689,90.325775,-22.477896,-60.592422,-22.604134
3.802475,-140.207581,0.552467,111.332367,-23.474573,-58.065033,-21.539303
3.807481,-135.608215,0.498290,141.912094,-24.138916,-49.398762,-21.290489
3.812487,-132.569885,0.479699,144.930923,-20.884317,-44.863434,-21.861485
3.817492,-129.402023,0.594357,175.095200,-26.404737,-40.661968,-22.724342
3.822498,-126.560547,0.618560,-156.896118,-20.737907,-36.280567,-23.879326
3.827503,-123.623558,0.530438,-120.336197,-26.024124,-29.572432,-24.140865
3.832509,-121.147614,0.361737,-110.439270,-42.470253,-19.539728,-23.499620
3.837515,-117.142616,0.597640,-116.069794,-41.489609,-4.713954,-22.017181
3.842520,-113.007690,0.524305,-46.562946,-26.230495,14.455473,-20.723366
3.847526,-109.560753,0.547024,85.152008,-28.885658,28.582405,-19.710842
3.852531,-106.781235,0.507498,96.640297,-26.626711,42.151035,-19.594591
3.857537,-104.652748,0.300761,125.667786,-27.787716,54.826233,-20.545616
3.862543,-100.817520,0.575699,-147.915329,-26.982874,69.894119,-22.076536
3.867548,-100.247528,0.443771,160.916550,-29.522295,82.374298,-23.527679
3.872554,-95.615692,0.372692,29.239895,-31.827457,105.384895,-24.155729
3.877559,-91.304268,0.449869,147.590088,-32.204937,126.481064,-24.775692
3.882565,-88.746262,0.333314,-6.003753,-23.680853,143.784149,-23.977652
3.887571,-85.811844,0.435205,36.226650,-21.634382,155.538696,-23.005404
3.892576,-84.319595,0.321535,15.576327,-21.367729,162.800201,-22.345901
3.897582,-78.612434,0.442020,18.810255,-26.270796,169.424362,-22.066364
3.902587,-76.287086,0.355533,8.711493,-21.856916,179.742081,-22.115461
3.907593,-74.890663,0.638424,45.245857,-24.895550,-162.027176,-22.449932
3.912599,-71.527206,0.234961,45.910004,-27.421083,-141.013748,-23.081745
3.917604,-65.336670,0.447092,24.088642,-25.917240,-121.149361,-23.100559
3.922610,-63.239883,0.721000,38.209625,-20.364136,-96.885368,-23.541201
3.927615,-59.764454,0.618121,61.985928,-21.338722,-80.130516,-26.901495
3.932621,-57.374699,0.288412,46.795425,-23.674990,-63.767845,-30.941391
3.937626,-53.516018,0.604621,69.054451,-28.617996,-32.852013,-36.241226
3.942632,-51.365902,0.648867,71.508629,-28.769606,39.378887,-30.711462
3.947638,-49.982857,0.323412,116.157539,-31.183199,83.241226,-28.592762
3.952643,-46.121086,0.321346,-161.989471,-22.555408,92.946953,-27.327003
3.957649,-41.219692,0.304835,-145.051926,-23.884232,90.977158,-25.670902
3.962654,-40.934582,0.114534,-103.771179,-22.243219,89.661453,-25.531605
3.967660,-35.792778,0.581657,-61.346306,-21.022131,86.497742,-25.274151
3.972666,-32.611832,0.335235,-39.869755,-24.136953,98.403847,-26.813154
3.977671,-29.467394,0.549240,8.774697,-24.404385,109.457062,-28.043585
3.982677,-28.644846,0.270348,37.352795,-20.642204,138.795227,-26.935938
3.987682,-22.351524,0.604277,78.591835,-22.195351,-164.123230,-23.571823
3.992688,-20.375624,0.329203,110.233719,-23.768286,-134.635071,-20.654903
3.997694,-15.622214,0.420394,122.849831,-19.402246,-114.681778,-19.099047
4.002699,-15.219151,0.489701,148.019150,-20.411461,-101.885666,-18.021078
4.007705,-10.389121,0.471921,144.745407,-19.294937,-90.533531,-17.686138
4.012710,-7.788626,0.388382,158.301987,-18.115242,-80.001724,-17.315775
4.017716,-4.441158,0.308127,159.242020,-18.366735,-69.928864,-16.810249
4.022722,-2.158402,0.224447,158.628494,-15.699633,-61.796452,-16.277199
4.027727,2.940535,0.356742,164.435425,-15.845722,-56.715935,-15.772635
4.032733,4.601125,0.391872,171.452057,-14.966924,-51.514313,-15.483261
4.037738,8.413238,0.291025,-162.318130,-15.544841,-46.812103,-15.604087
4.042744,11.668747,0.545182,-153.509491,-16.182131,-42.276718,-16.417135
4.047750,15.031384,0.466011,-139.446823,-17.615704,-37.794174,-18.013273
4.052755,17.022564,0.572780,-130.575027,-17.240883,-31.373112,-20.273901
4.057761,21.557629,0.508877,-120.227310,-21.027163,-27.919764,-23.593184
4.062766,24.397388,0.109206,-105.869118,-22.776896,-23.460808,-26.788647
4.067772,25.978731,0.604187,-69.001976,-30.309914,-21.454878,-31.159487
4.072777,29.649023,0.786679,-40.969261,-25.333216,-31.246197,-33.256344
4.077783,33.684448,0.532434,-32.042679,-29.188492,-38.001949,-32.572197
4.082789,36.735508,0.497102,42.668652,-27.554249,-37.507332,-31.719093
4.087794,40.436169,0.544957,2.428084,-32.803261,-29.493837,-31.978907
4.092800,42.685909,0.455813,-157.178345,-28.542572,-25.094204,-32.301506
4.097805,45.871651,0.625777,37.283619,-31.210316,-31.478827,-32.500305
4.102811,49.290024,0.549734,24.986950,-27.710236,-40.935852,-31.084652
4.107817,51.334843,0.320880,3.293314,-27.116606,-51.600636,-29.306475
4.112822,54.400467,0.026206,48.457169,-31.822935,-47.534195,-27.683529
4.117828,58.752293,0.316031,18.489193,-25.471972,-26.965395,-26.113319
4.122833,60.477692,0.547825,131.303268,-24.595470,2.976177,-23.491766
4.127839,64.473976,0.437444,162.943497,-24.022036,29.501802,-20.994276
4.132845,67.934731,0.467161,166.323822,-22.959421,48.602459,-19.373688
4.137850,71.986397,0.521063,-146.478348,-21.427010,65.538261,-18.455318
4.142856,74.904160,0.582739,-108.955658,-23.603483,78.155045,-18.312513
4.147861,76.556885,0.314491,-92.131714,-25.451338,88.739151,-18.693533
4.152867,79.963295,0.287729,-129.168442,-26.053461,98.213295,-19.296112
4.157873,82.250641,0.506956,-127.543510,-22.710592,107.576263,-19.584219
4.162878,88.617622,0.400213,-129.071396,-21.777269,114.717773,-19.535101
4.167884,93.241119,0.425412,-140.277206,-20.309067,121.845612,-18.659185
4.172889,93.418137,0.471337,-126.714584,-21.062292,131.339310,-18.017776
4.177895,97.760551,0.524413,-115.498268,-18.596029,140.271545,-17.749887
4.182901,100.600235,0.464679,-120.844170,-20.887579,148.510071,-18.030603
4.187906,102.789528,0.429570,-102.906250,-20.115377,157.709320,-19.567022
4.192912,104.754066,0.345160,-92.703346,-22.089619,167.047455,-22.374502
4.197917,109.872505,0.401483,-61.309616,-25.598507,-178.861130,-27.604977
4.202923,108.811348,0.309745,-70.234962,-32.639023,-162.331421,-36.617825
4.207929,113.736061,0.284554,15.688238,-34.029240,-104.890762,-31.017548
4.212934,118.048523,0.458393,170.212433,-23.176579,-16.741499,-27.258316
4.217940,120.659088,0.614363,119.385941,-27.235817,9.022045,-25.620239
4.222945,123.515770,0.354916,101.430115,-23.868559,24.346584,-24.405666
4.227951,127.409294,0.436083,116.854637,-23.260551,29.957935,-23.799990
4.232956,130.336349,0.752058,105.828697,-25.226089,37.970604,-22.868296
4.237962,134.271591,0.271561,125.850624,-21.245975,46.167831,-21.755510
4.242968,137.817459,0.390194,129.389221,-22.265110,49.385979,-20.802177
4.247973,139.946274,0.556203,128.221680,-20.299799,57.572403,-20.331146
4.252979,143.331497,0.347203,122.799934,-21.725632,66.754936,-20.378489
4.257984,144.688156,0.582933,160.806168,-24.321836,76.018372,-21.615910
4.262990,150.292480,0.388169,161.547668,-20.519436,89.515991,-24.202726
4.267996,152.728531,0.470050,-165.276917,-26.942978,105.574219,-27.956257
4.273001,155.206375,0.287418,-120.076134,-31.855925,133.340973,-29.131424
4.278007,158.733322,0.423517,-75.873680,-24.380844,-177.854095,-27.644917
4.283012,162.071838,0.468851,-39.123379,-22.506443,-139.799561,-25.943806
4.288018,164.271500,0.282566,-23.773809,-22.766151,-123.890030,-26.061295
4.293024,168.189499,0.345559,5.667841,-23.921545,-116.943687,-26.862761
4.298029,171.139206,0.482423,18.684547,-21.058975,-111.315338,-28.718395
4.303035,174.841537,0.392040,72.850761,-26.694052,-103.135933,-30.426834
4.308040,176.770538,0.568116,74.359520,-26.530838,-81.649445,-30.388266
4.313046,-178.827148,0.515834,145.908554,-32.302898,-34.576786,-26.908413
4.318052,-175.992584,0.543928,154.529190,-23.772085,-0.790840,-23.866220
4.323057,-172.795654,0.823203,-167.973221,-27.922527,20.716354,-21.648731
4.328063,-169.790833,0.411235,-128.257141,-28.755407,38.358456,-19.643740
4.333068,-167.259521,0.204430,-163.283218,-21.781811,61.604046,-17.934561
4.338074,-163.803101,0.204658,-145.238770,-19.959538,79.639786,-16.764692
4.343080,-161.239914,0.361360,-147.461914,-16.071041,94.687080,-16.030712
4.348085,-158.773849,0.465135,-132.753326,-15.363605,107.304108,-15.508918
4.353091,-153.098770,0.332073,-118.197449,-13.936616,115.325050,-15.327065
4.358096,-151.284882,0.319728,-122.351158,-14.799184,122.622345,-15.261254
