Anritsu VNA Frequency[GHz],S21[deg],S21[dB],S11[deg],S11[dB],S22[deg],S22[dB]
1337881151.8,2012_05_24_18:39:11,+298.37,+298.53,+02.989,+298.39,+297.77,+298.88,+298.34,+298.91,243.932999,-6.867
3.001581,82.264977,0.377972,-60.567760,-29.058434,88.738663,-23.441460
3.006586,86.622620,0.381468,-130.193024,-21.720036,100.125359,-22.851528
3.011592,89.238411,0.308951,-101.057304,-23.868202,113.720421,-22.020573
3.016597,93.444031,0.401051,-100.819939,-21.068317,125.081512,-21.169346
3.021603,95.354042,0.457379,-72.722343,-25.177715,136.220673,-21.132700
3.026609,100.352463,0.371729,-89.658958,-22.138309,146.370346,-21.950623
3.031614,103.265808,0.380683,-87.968201,-29.738625,155.344620,-24.037643
3.036620,105.866516,0.245258,-82.942657,-24.921345,165.243011,-27.378422
3.041625,108.579414,0.398242,-77.908806,-26.546017,175.667297,-32.823750
3.046631,111.966301,0.558947,-34.602345,-28.811127,-167.536514,-41.572853
3.051637,116.995132,0.430500,44.667160,-37.420162,-135.659180,-50.934219
3.056642,119.368813,0.382893,167.499084,-34.754482,-83.675636,-66.116196
3.061648,120.568993,0.548052,-177.673492,-27.636738,81.979263,-51.469730
3.066653,125.646530,0.253881,-108.661850,-27.874922,168.562256,-47.476528
3.071659,128.340775,0.415842,170.933548,-40.357784,177.026428,-47.359585
3.076664,131.685013,0.545260,-97.623451,-26.698057,122.602081,-42.059723
3.081670,133.269211,0.331131,32.879562,-25.259857,60.487186,-34.904606
3.086676,137.751526,0.603218,30.140455,-29.058542,76.485329,-31.866755
3.091681,139.816528,0.266607,27.033382,-30.869747,89.186157,-29.269880
3.096687,144.026276,0.521104,102.227516,-36.642197,102.266327,-29.543125
3.101692,147.547180,0.492821,127.941689,-32.008446,123.073883,-29.916321
3.106698,150.252472,0.298997,-148.030746,-32.919220,153.365494,-29.558308
3.111704,152.677216,0.434042,-24.213026,-26.264864,-165.710114,-27.595844
3.116709,155.619781,0.319052,-74.738823,-23.738560,-132.473434,-25.642843
3.121715,161.171982,0.147763,-29.965052,-26.913372,-115.813095,-24.733671
3.126720,163.156693,0.451711,-22.373371,-24.778200,-102.579453,-24.994122
3.131726,165.710907,0.406941,14.011457,-24.744083,-89.944633,-26.070354
3.136732,168.282867,0.387767,48.258438,-32.069695,-81.090546,-27.329605
3.141737,172.057175,0.500740,21.190454,-36.615608,-64.187386,-27.459089
3.146743,176.339661,0.366811,171.659012,-28.299353,-45.438362,-25.918974
3.151748,178.068634,0.339021,-90.656914,-25.276377,-24.698730,-23.553673
3.156754,179.545456,0.198623,-86.772072,-21.335640,-9.961967,-21.504086
3.161760,-175.462601,0.440075,-75.150513,-22.933313,0.876311,-20.173643
3.166765,-171.874390,0.228240,-83.553825,-22.975622,13.044476,-19.333746
3.171771,-170.070480,0.348295,-65.332237,-27.972431,24.157228,-19.116068
3.176776,-166.162964,0.333779,-89.249184,-22.359266,37.635605,-19.204073
3.181782,-164.274689,0.532028,-74.881393,-20.327671,52.027126,-19.308592
3.186788,-160.018539,0.572431,-74.462105,-22.982792,66.916321,-19.579100
3.191793,-157.109146,0.382759,-89.342262,-20.948038,79.817604,-19.803942
3.196799,-153.306168,0.315005,-90.331200,-20.456923,90.767120,-20.034006
3.201804,-150.120682,0.352855,-70.089745,-20.196354,98.656754,-20.344324
3.206810,-147.147583,0.243139,-73.047852,-22.702539,102.954681,-21.017073
3.211815,-145.581482,0.226159,-66.472260,-22.875147,106.904037,-21.428144
3.216821,-140.197723,0.542632,-68.087746,-26.327847,113.636101,-22.888224
3.221827,-137.785263,0.481761,-16.878117,-30.235489,119.686333,-24.923328
3.226832,-134.934525,0.474824,-8.622884,-28.144045,135.441101,-27.024452
3.231838,-131.945328,0.151880,-85.758926,-35.899323,158.477676,-27.978025
3.236843,-129.798157,0.376065,-167.195999,-26.990564,-176.595688,-30.186258
3.241849,-124.971497,0.556558,-39.847519,-22.614473,-154.206696,-33.271751
3.246855,-121.633827,0.264581,-63.970234,-27.640751,-139.367950,-40.237526
3.251860,-119.059547,0.470960,-49.371510,-23.555323,-155.018784,-36.761181
3.256866,-116.270706,0.612161,-53.342888,-22.853312,110.562790,-30.260105
3.261871,-112.793465,0.393669,-44.343506,-26.737896,94.726799,-26.774158
3.266877,-108.365562,0.394699,-24.101601,-23.517048,96.989479,-25.304384
3.271883,-106.610313,0.437904,15.585430,-22.290323,103.071228,-24.668097
3.276888,-103.482529,0.296862,38.454266,-24.217604,106.801849,-24.673203
3.281894,-98.921089,0.857087,29.203154,-27.547565,109.978973,-22.765221
3.286899,-97.310951,0.269739,88.020447,-25.534037,119.006042,-23.001612
3.291905,-92.998947,0.503434,27.150888,-21.315180,126.432365,-21.610212
3.296911,-90.432373,0.286562,31.716942,-18.460768,136.007217,-20.824190
3.301916,-87.199142,0.535599,-2.708947,-19.084478,150.040421,-19.998280
3.306922,-84.654633,0.314519,32.778294,-19.214106,161.944519,-19.678589
3.311927,-80.625847,0.488072,60.457058,-22.015623,172.956635,-19.783293
3.316933,-77.872414,0.487524,51.739849,-22.856855,-176.418610,-20.975771
3.321939,-75.944397,0.372991,72.089050,-24.208908,-170.194016,-22.770649
3.326944,-72.262726,0.302833,47.141624,-28.743290,-157.404739,-25.213615
3.331950,-69.678604,0.512286,60.411869,-26.554317,-143.014908,-26.982248
3.336955,-66.177910,0.285804,15.628709,-23.186977,-127.980293,-26.115427
3.341961,-62.577526,0.180679,30.044838,-25.030304,-108.184212,-25.173046
3.346967,-59.734951,0.515796,19.399597,-20.606754,-96.084488,-24.593695
3.351972,-56.018353,0.534007,32.569279,-22.784075,-86.876152,-24.615505
3.356978,-53.398407,0.270984,52.841095,-28.290894,-76.785812,-25.636921
3.361983,-50.729855,0.387459,27.436605,-25.596804,-60.821365,-27.703583
3.366989,-47.454403,0.392785,94.543495,-37.702839,-42.191692,-30.057135
3.371994,-43.138466,0.338563,143.782944,-28.813040,-13.514833,-30.653776
3.377000,-40.568321,0.554862,96.486053,-27.706989,25.385225,-30.480385
3.382006,-37.612274,0.541518,50.138496,-55.848133,59.359650,-31.010469
3.387011,-36.231075,0.308721,43.293636,-26.255823,87.481087,-32.411015
3.392017,-31.719206,0.576566,-9.818542,-30.566910,107.676720,-34.958298
3.397022,-27.907793,0.549571,-6.103851,-32.438908,136.820618,-37.128536
3.402028,-24.377474,0.510210,6.803628,-36.072777,158.401566,-38.493702
3.407034,-19.465624,0.375848,106.247475,-30.591484,-175.818420,-44.190117
3.412039,-19.309233,0.355336,-173.396362,-32.772629,-175.045166,-39.806026
3.417045,-14.794153,0.326676,-139.126251,-35.514313,-176.548462,-36.127033
3.422050,-12.366390,0.648319,-115.292908,-27.692492,-179.024979,-34.133801
3.427056,-8.999201,0.511612,-86.592300,-26.198872,-171.445435,-35.019939
3.432062,-6.141171,0.439602,-56.302738,-30.358114,-174.038605,-43.190948
3.437067,-1.948964,0.257082,-17.545488,-25.507479,-178.620987,-36.197094
3.442073,0.013596,0.334343,12.838923,-22.545668,39.928001,-29.521378
3.447078,4.150572,0.364722,37.245220,-27.514639,38.916912,-25.663177
3.452084,6.585094,0.578072,83.229362,-25.621231,43.975121,-24.104979
3.457090,10.154469,0.381893,72.156624,-26.043293,53.805893,-24.262259
3.462095,12.247029,0.459443,89.972260,-28.993666,65.718536,-24.896936
3.467101,16.577181,0.370424,114.626144,-37.093250,82.969429,-25.473272
3.472106,20.146082,0.261515,40.316116,-24.304049,106.761368,-25.141584
3.477112,22.495432,0.405515,15.729508,-22.811268,127.209297,-24.454409
3.482118,26.019909,0.435057,20.881443,-23.916786,144.651749,-23.738930
3.487123,28.029839,0.350242,65.544678,-19.976309,152.980362,-23.236958
3.492129,31.782938,0.598700,63.692333,-24.770145,158.908234,-22.672522
3.497134,33.961006,0.433853,96.578888,-25.683456,167.015213,-22.570648
3.502140,37.738819,0.534912,89.072784,-24.979729,176.780640,-22.169903
3.507145,40.808842,0.377636,63.797104,-34.831081,-167.798798,-21.952835
3.512151,44.209446,0.346664,71.058159,-24.146698,-149.554901,-21.502632
3.517157,46.012383,0.311832,7.195301,-22.333973,-131.041275,-20.930496
3.522162,49.617065,0.447286,32.840248,-26.625942,-113.682106,-20.722197
3.527168,52.883900,0.328695,26.517328,-23.620274,-99.523628,-21.287001
3.532173,57.118851,0.614924,73.025894,-22.506527,-87.999390,-21.906984
3.537179,60.874706,0.306736,39.618755,-25.586172,-79.450348,-24.092131
3.542185,62.615910,0.525989,65.217346,-25.679878,-70.381744,-25.695429
3.547190,66.048653,0.288735,83.254189,-36.826687,-62.678551,-26.700989
3.552196,68.700439,0.621728,76.446098,-30.596073,-43.000431,-26.855757
3.557201,71.222923,0.443991,-66.361183,-37.000378,-23.165480,-25.014261
3.562207,75.828087,0.498046,-21.828876,-32.483551,-7.177865,-23.941607
3.567213,79.139359,0.584472,-39.953079,-30.335625,5.583715,-23.702005
3.572218,81.580635,0.342348,-30.852180,-25.918831,17.513260,-24.270914
3.577224,85.625420,0.348900,-6.946042,-36.172382,27.934010,-26.079576
3.582229,87.498589,0.285004,53.564835,-31.019802,39.535748,-29.693125
3.587235,91.226707,0.086155,-24.116409,-28.052988,51.503819,-34.986389
3.592241,94.978241,0.289243,18.301723,-31.723064,46.448730,-38.420391
3.597246,95.942879,0.403107,-113.512581,-27.496174,5.493358,-32.843277
3.602252,99.887917,0.443813,118.988564,-40.869221,-9.316779,-29.573730
3.607257,103.421600,0.462844,-68.017082,-29.299650,-2.916089,-26.910664
3.612263,106.991776,0.606091,85.462082,-29.216499,4.674011,-24.935329
3.617269,111.025322,0.680284,21.902929,-23.045549,11.889752,-24.186821
3.622274,114.069077,0.570526,59.612045,-21.465233,15.208670,-23.328659
3.627280,116.834496,0.365098,105.296135,-19.881226,15.179712,-22.871426
3.632285,120.705177,0.359130,109.191017,-20.686357,9.612707,-21.293579
3.637291,122.887268,0.313662,141.586166,-22.429295,8.873054,-20.471022
3.642296,125.064926,0.477734,163.818207,-30.964148,12.784829,-20.126272
3.647302,128.862869,0.284664,168.199539,-31.469049,21.623268,-19.687946
3.652308,131.249435,0.573819,119.991585,-26.549435,40.713753,-19.146940
3.657313,136.154480,0.410660,28.520950,-25.087063,56.916145,-18.421492
3.662319,139.663055,0.452294,45.724922,-20.836430,75.580437,-18.151211
3.667324,141.796371,0.451645,80.783577,-21.145613,90.102249,-17.601250
3.672330,143.148941,0.279166,94.110497,-18.531328,97.956985,-17.947914
3.677336,148.730728,0.493811,103.487236,-22.202581,102.628853,-18.578594
3.682341,151.074966,0.628952,130.706573,-20.045126,105.219666,-19.357239
3.687347,153.620590,0.771829,131.632370,-28.895712,107.963623,-20.559519
3.692352,155.906204,0.235592,123.550156,-24.492680,113.266373,-20.259178
3.697358,161.777313,0.190253,116.173370,-31.161272,123.624702,-20.143791
3.702364,162.115799,0.662962,97.559410,-23.823990,137.745911,-20.700768
3.707369,165.924988,0.425359,101.299698,-22.236897,153.738876,-20.920650
3.712375,169.274933,0.538079,129.802078,-21.521338,166.327667,-22.080978
3.717380,172.134064,0.298017,119.721565,-23.970411,177.848053,-24.044649
3.722386,175.000626,0.476762,122.092552,-25.043768,-171.486359,-27.057747
3.727392,179.717545,0.539719,136.130661,-29.199781,-169.547012,-31.171871
3.732397,-176.136536,0.366409,117.295563,-24.903217,-166.312607,-35.299286
3.737403,-172.686508,0.015715,174.502884,-32.343391,175.080170,-35.971378
3.742408,-170.507217,0.116507,-145.409927,-37.388706,164.767975,-35.092228
3.747414,-168.679688,0.645071,-97.092247,-34.292770,178.133301,-33.771072
3.752420,-165.358124,0.208157,72.196663,-28.604132,-148.112885,-31.595192
3.757425,-160.364517,0.385057,116.492271,-25.073757,-127.855530,-30.557339
3.762431,-158.343735,0.463340,111.263344,-29.274693,-112.904266,-30.852793
3.767436,-154.455399,0.503452,101.219482,-26.395229,-104.872902,-31.526939
3.772442,-152.659882,0.737884,161.539124,-21.507755,-115.175926,-32.214279
3.777448,-149.730835,0.395364,179.548019,-28.557631,-117.273293,-31.500061
3.782453,-145.501511,0.503538,-162.947250,-27.540848,-127.945602,-31.691301
3.787459,-142.241928,0.498828,-152.604660,-34.046463,-124.429176,-29.970362
3.792464,-140.163086,0.560216,-106.726212,-35.587677,-100.958336,-27.814880
3.797470,-136.638351,0.378641,90.003151,-29.160896,-70.600540,-24.780231
3.802475,-134.174423,0.636699,21.887505,-25.338854,-49.011364,-22.600786
3.807481,-130.028000,0.431607,104.847733,-28.063848,-29.919048,-21.805889
3.812487,-126.842194,0.575288,106.907547,-34.561436,-18.782684,-21.632109
3.817492,-122.313324,0.369603,169.123581,-47.672676,-6.945620,-21.810377
3.822498,-119.379944,0.711430,75.783730,-26.950920,4.004985,-21.830664
3.827503,-117.783768,0.472215,-75.095703,-41.641457,16.426043,-21.358017
3.832509,-117.022934,0.306209,-57.979080,-23.815342,26.648003,-20.344101
3.837515,-110.850929,0.369798,59.954063,-23.808298,35.086479,-18.728329
3.842520,-107.343163,0.511201,72.943764,-21.193796,45.438766,-17.555208
3.847526,-104.333801,0.440683,76.297531,-20.725857,52.728619,-16.851042
3.852531,-101.614807,0.396182,99.668480,-20.830399,61.097473,-16.770718
3.857537,-99.304565,0.386799,108.478867,-27.894373,68.925522,-17.136116
3.862543,-96.572395,0.252322,142.943680,-22.810352,79.115929,-18.235525
3.867548,-94.434502,0.503680,128.604141,-24.828629,88.052223,-19.600231
3.872554,-90.987511,0.504882,65.653343,-23.807480,99.745789,-20.878973
3.877559,-87.235611,0.346977,140.507309,-28.695265,108.245399,-21.802967
3.882565,-84.219864,0.360236,85.613266,-22.991562,116.983505,-21.964088
3.887571,-79.196915,0.326720,84.196259,-24.584385,122.426674,-21.790817
3.892576,-77.463882,0.351244,79.155304,-25.925793,126.121490,-21.362453
3.897582,-73.075478,0.569048,100.945045,-30.309557,129.573975,-21.400389
3.902587,-70.407623,0.159358,119.954506,-24.645063,134.353928,-22.870626
3.907593,-69.141472,0.460218,136.604416,-28.787216,141.955368,-24.536360
3.912599,-63.741772,0.449662,138.176880,-27.847633,146.843918,-28.189644
3.917604,-60.130310,0.475961,159.506546,-27.611094,150.509781,-32.166252
3.922610,-58.364010,0.585893,170.640488,-23.341589,142.741043,-32.108246
3.927615,-56.246761,0.553355,114.682961,-25.718977,123.322342,-27.933044
3.932621,-51.265175,0.445316,127.342300,-30.037863,115.854355,-24.289011
3.937626,-49.243183,0.537977,131.524918,-25.100136,118.164734,-21.613020
3.942632,-47.705498,0.571549,166.262787,-21.598537,129.325882,-19.892399
3.947638,-42.401924,0.404935,149.995316,-19.408783,135.240601,-19.381136
3.952643,-39.743904,0.376869,-157.945755,-18.238638,142.925537,-19.427557
3.957649,-35.126411,0.365216,-153.870926,-18.350729,147.352814,-19.519680
3.962654,-34.868595,0.151580,-130.464798,-22.545385,148.830139,-20.302748
3.967660,-30.126741,0.589717,-109.195480,-21.384764,151.273621,-20.115517
3.972666,-27.710936,0.340462,-101.914909,-31.321278,155.191360,-20.368706
3.977671,-22.875515,0.573882,-138.184921,-32.565960,162.036606,-19.899378
3.982677,-21.189716,0.412980,-113.185440,-23.727440,171.902390,-19.563089
3.987682,-17.030924,0.476328,155.428711,-22.142536,-172.345490,-18.884825
3.992688,-14.968925,0.354351,-157.337692,-21.428617,-158.085373,-18.564537
3.997694,-10.126870,0.376287,-137.938156,-18.378225,-145.419037,-18.646296
4.002699,-8.473654,0.509319,-145.958939,-20.152729,-135.961227,-19.104870
4.007705,-5.734579,0.428050,-118.329979,-18.591156,-128.495041,-20.308638
4.012710,-1.257920,0.333067,-108.294106,-21.750990,-123.842613,-21.515659
4.017716,2.078759,0.439888,-112.676270,-26.180391,-116.978233,-22.588409
4.022722,3.916123,0.100448,-130.112305,-24.962538,-112.185982,-22.511610
4.027727,7.666500,0.361448,-133.060959,-25.866203,-105.376198,-22.329638
4.032733,10.990887,0.487668,-141.541840,-20.065254,-96.142281,-21.842861
4.037738,14.633032,0.666761,-110.177490,-20.072041,-87.647690,-21.345970
4.042744,17.589174,0.473723,-109.185844,-19.092924,-81.646599,-21.567682
4.047750,20.353098,0.633358,-91.031090,-20.899343,-76.296677,-22.628632
4.052755,22.922733,0.570224,-88.476456,-21.603687,-77.203499,-23.423252
4.057761,26.062725,0.516474,-76.277107,-23.147921,-77.570480,-23.812651
4.062766,31.417114,0.280957,-71.205391,-24.429287,-79.068573,-24.497980
4.067772,32.377251,0.411576,-45.111279,-30.079519,-77.069954,-24.032179
4.072777,36.710472,0.499259,-42.726772,-28.903070,-70.542152,-23.555794
4.077783,39.653496,0.368009,-69.740555,-28.807360,-53.538048,-22.285763
4.082789,42.652870,0.403953,-68.360542,-30.139593,-35.338505,-21.061571
4.087794,46.005520,0.599511,-105.666252,-25.561605,-19.911100,-20.226875
4.092800,47.860310,0.574013,-100.594681,-29.545233,-8.076952,-19.764448
4.097805,50.799133,0.649702,-95.152176,-22.904230,-0.006053,-20.040281
4.102811,54.839825,0.514081,-84.108711,-19.672712,6.545951,-20.306696
4.107817,58.398579,0.283118,-79.710297,-26.237272,8.978264,-20.749899
4.112822,61.970299,0.175624,-80.605225,-25.454599,12.787415,-20.586206
4.117828,64.900917,0.332717,-55.050907,-31.808626,19.721439,-20.180494
4.122833,66.445656,0.359404,-126.800186,-42.139259,30.190800,-19.462217
4.127839,71.563095,0.680972,-159.341049,-28.025639,43.758057,-18.786352
4.132845,74.141563,0.664527,171.330139,-24.354025,56.965736,-18.468967
4.137850,77.651482,0.487619,-112.053596,-21.946030,71.767693,-18.794315
4.142856,80.653549,0.468360,-101.365448,-25.727480,84.658165,-19.898813
4.147861,83.206528,0.582003,-60.771523,-28.567436,96.770737,-21.657368
4.152867,86.709076,0.327466,-144.337646,-37.078117,109.259445,-24.107269
4.157873,89.295364,0.564043,152.749710,-27.175428,124.129707,-26.596531
4.162878,94.640892,0.332389,-171.439819,-28.254194,137.614197,-28.041826
4.167884,97.638718,0.487545,170.725281,-24.424332,151.098679,-27.192083
4.172889,99.142052,0.368190,-174.172836,-27.187578,160.408768,-25.959419
4.177895,102.624809,0.452025,-175.699249,-22.250252,166.234634,-25.179188
4.182901,106.238724,0.455428,-129.005692,-25.225101,173.303589,-24.885038
4.187906,108.327209,0.140917,-158.178024,-21.267042,-176.572800,-26.562319
4.192912,111.024254,0.518995,-115.469521,-37.775322,-162.209381,-28.969139
4.197917,114.764893,0.541063,-113.436760,-25.667297,-139.684097,-32.405785
4.202923,116.363411,0.436377,-131.455963,-31.575787,-95.905296,-31.783987
4.207929,120.336563,0.528774,128.030396,-25.856703,-40.721554,-29.695099
4.212934,124.527336,0.442046,-172.005798,-23.815624,-11.598546,-29.420572
4.217940,126.982620,0.405555,137.713577,-29.292755,14.331575,-30.640846
4.222945,130.394211,0.437495,165.862167,-29.002630,33.918659,-33.846226
4.227951,134.377533,0.145345,-158.195511,-30.833118,55.147491,-37.707108
4.232956,137.219421,0.444124,-101.894257,-28.756912,76.799484,-38.002880
4.237962,140.020111,0.295170,-141.934113,-31.549932,106.094734,-39.582890
4.242968,142.946625,0.404203,36.337269,-40.520996,89.605667,-38.245937
4.247973,146.217361,0.558602,-152.202209,-29.817400,75.714249,-35.511421
4.252979,149.308151,0.552033,119.125191,-28.045887,72.395332,-35.126457
4.257984,151.920059,0.541357,-146.236710,-30.405067,70.587784,-38.813904
4.262990,156.501205,0.440284,-165.306732,-24.665955,51.626968,-37.501202
4.267996,158.909210,0.421900,-151.305084,-23.150959,-22.039686,-30.051367
4.273001,161.296280,0.444056,-106.059700,-26.356491,-43.919422,-26.193497
4.278007,165.735016,0.299724,-140.154068,-23.473969,-45.091404,-23.877745
4.283012,168.566101,0.502337,-80.893745,-23.982119,-39.339718,-22.932785
4.288018,170.410889,0.432973,-50.740265,-26.666903,-31.297392,-22.898304
4.293024,175.093323,0.413246,-42.348061,-28.258196,-16.036583,-23.108183
4.298029,178.744736,0.408720,-59.562569,-34.576176,-0.896106,-22.961201
4.303035,-178.843857,0.203944,-167.101349,-26.378242,14.030751,-22.538363
4.308040,-175.690948,0.597723,-147.086792,-23.940680,25.070160,-21.144022
4.313046,-172.544922,0.467980,-123.255608,-20.649025,30.473129,-20.141724
4.318052,-169.582428,0.546426,-125.816216,-18.811893,34.258781,-19.169754
4.323057,-166.097275,0.628415,-101.417953,-19.080267,37.918400,-18.630978
4.328063,-163.260025,0.256894,-70.563538,-26.132071,43.695271,-18.342634
4.333068,-160.147049,0.327838,-51.831451,-22.353376,55.088867,-18.503664
4.338074,-155.694809,0.137267,-73.227837,-24.728453,65.313766,-19.385942
4.343080,-155.308075,0.359715,-50.778442,-26.698664,78.017220,-20.535593
4.348085,-152.201553,0.540900,-94.291618,-21.947273,88.875984,-21.361473
4.353091,-145.545746,0.414110,-79.034363,-22.067772,93.923882,-23.133558
4.358096,-145.590149,0.419525,-83.152817,-19.069416,96.630020,-23.194990
