Anritsu VNA Frequency[GHz],S21[deg],S21[dB],S11[deg],S11[dB],S22[deg],S22[dB]
1338075948.91,2012_05_27_00:45:48,+40.953,+10.253,+55.881,+10.263,+13.907,+13.716,+14.015,+13.767,10.355649,-17.996
3.006250,34.036137,-1.751592,59.331242,-26.652216,-80.160492,-27.460367
3.012500,34.036137,-1.751592,59.331242,-26.652216,-80.160492,-27.460367
3.018750,34.036137,-1.751592,59.331242,-26.652216,-80.160492,-27.460367
3.025000,34.036137,-1.751592,59.331242,-26.652216,-80.160492,-27.460367
3.031250,34.036137,-1.751592,59.331242,-26.652216,-80.160492,-27.460367
3.037500,34.036137,-1.751592,59.331242,-26.652216,-80.160492,-27.460367
3.043750,34.036137,-1.751592,59.331242,-26.652216,-80.160492,-27.460367
3.050000,34.036137,-1.751592,59.331242,-26.652216,-80.160492,-27.460367
3.056250,34.036137,-1.751592,59.331242,-26.652216,-80.160492,-27.460367
3.062500,34.036137,-1.751592,59.331242,-26.652216,-80.160492,-27.460367
3.068750,34.036137,-1.751592,59.331242,-26.652216,-80.160492,-27.460367
3.075000,34.036137,-1.751592,59.331242,-26.652216,-80.160492,-27.460367
3.081250,34.036137,-1.751592,59.331242,-26.652216,-80.160492,-27.460367
3.087500,34.036137,-1.751592,59.331242,-26.652216,-80.160492,-27.460367
3.093750,34.036137,-1.753544,59.331242,-26.450832,-80.160492,-27.210089
3.100000,39.942730,-1.755775,56.649712,-26.298214,-82.182190,-26.977795
3.106250,45.849045,-1.758021,53.089462,-26.217506,-82.583061,-26.765247
3.112500,51.756023,-1.760329,49.007416,-26.227812,-81.006485,-26.544050
3.118750,57.662163,-1.762821,43.004635,-26.270836,-79.291748,-26.244545
3.125000,63.567093,-1.765460,38.202869,-26.314445,-75.246880,-25.983170
3.131250,69.471947,-1.768143,33.812035,-26.384687,-69.084648,-25.695175
3.137500,75.375740,-1.771168,30.090765,-26.482718,-61.197575,-25.370863
3.143750,81.277870,-1.774756,27.247561,-26.601006,-51.774307,-25.017965
3.150000,87.180923,-1.778637,25.465555,-26.724548,-40.969788,-24.649212
3.156250,93.087296,-1.782250,24.861307,-26.838882,-28.959063,-24.282600
3.162500,97.101021,-1.785610,25.499279,-26.931122,-15.942979,-23.942337
3.168750,100.841805,-1.789099,27.404179,-26.993710,-2.130154,-23.677212
3.175000,103.776024,-1.792832,30.614714,-27.004393,10.421242,-23.431519
3.181250,105.413200,-1.796658,33.373497,-26.950655,23.747343,-23.208651
3.187500,105.328125,-1.800347,37.151718,-26.850222,36.529812,-23.039875
3.193750,103.179352,-1.803712,41.243019,-26.714750,48.265224,-22.941416
3.200000,98.729546,-1.806815,45.073864,-26.552130,58.546036,-22.915913
3.206250,91.856850,-1.809507,48.164532,-26.372782,66.983528,-22.964109
3.212500,82.559395,-1.812034,50.095737,-26.190466,73.267128,-23.093691
3.218750,70.957809,-1.814743,50.554733,-26.015362,77.176170,-23.287905
3.225000,57.290203,-1.817336,51.542568,-25.841827,78.327301,-23.491007
3.231250,41.899632,-1.819327,51.597897,-25.669809,76.898849,-23.711905
3.237500,25.211584,-1.820994,49.228367,-25.498980,74.893456,-23.942265
3.243750,7.713971,-1.822940,46.545799,-25.306908,70.728897,-24.159479
3.250000,-10.060332,-1.825419,43.412045,-25.134459,65.007088,-24.344748
3.256250,-27.561213,-1.828047,39.485714,-24.993402,58.282135,-24.496445
3.262500,-44.253357,-1.830299,34.992939,-24.867613,51.184856,-24.603924
3.268750,-59.646294,-1.832161,29.877274,-24.752867,44.409576,-24.658543
3.275000,-73.316116,-1.834119,24.019173,-24.648464,38.541588,-24.660288
3.281250,-84.923035,-1.836471,17.310459,-24.545616,34.087517,-24.616446
3.287500,-94.228157,-1.839181,9.656865,-24.431128,31.431715,-24.541018
3.293750,-101.107361,-1.841964,1.025889,-24.267702,30.827347,-24.434874
3.300000,-105.560341,-1.844658,-6.406493,-24.099276,32.435154,-24.298285
3.306250,-107.708168,-1.847078,-15.063721,-23.964069,36.237061,-24.158600
3.312500,-107.788940,-1.849279,-23.721111,-23.842968,42.050800,-24.046995
3.318750,-106.143997,-1.851340,-32.087776,-23.743332,49.614235,-23.983997
3.325000,-103.200813,-1.853255,-39.903072,-23.682747,58.583305,-23.980944
3.331250,-99.450844,-1.854808,-46.908016,-23.686115,68.524292,-24.040224
3.337500,-95.427315,-1.855991,-52.919746,-23.821939,78.925255,-24.160635
3.343750,-89.508560,-1.856816,-57.912064,-23.984501,89.246933,-24.326803
3.350000,-83.590294,-1.857297,-62.336174,-24.207733,97.090126,-24.483374
3.356250,-77.673058,-1.857465,-65.747696,-24.535717,105.687096,-24.684000
3.362500,-71.757591,-1.857510,-66.435966,-24.989489,111.938118,-24.935982
3.368750,-65.844154,-1.857265,-66.046219,-25.550205,115.969292,-25.227665
3.375000,-59.931046,-1.856488,-64.459747,-26.190825,117.386093,-25.604221
3.381250,-54.019829,-1.855305,-61.689125,-26.876938,116.009308,-25.940561
3.387500,-48.115097,-1.854541,-57.832989,-27.569839,112.483879,-26.264317
3.393750,-42.216499,-1.854571,-53.052418,-28.224768,106.243179,-26.567995
3.400000,-36.320190,-1.854991,-47.567177,-28.799171,97.846825,-26.843174
3.406250,-30.422575,-1.855187,-41.718319,-29.271353,88.307976,-27.121544
3.412500,-24.525227,-1.855578,-35.833874,-29.616249,78.284004,-27.368851
3.418750,-18.632729,-1.856851,-27.979345,-29.812347,66.418312,-27.564089
3.425000,-12.743325,-1.859078,-21.698298,-29.855000,55.000641,-27.701191
3.431250,-6.850925,-1.861444,-15.140802,-29.759815,44.460762,-27.786325
3.437500,-0.954417,-1.863685,-8.560983,-29.510902,35.253017,-27.823324
3.443750,4.941710,-1.866544,-1.982795,-29.106401,28.060217,-27.760458
3.450000,10.836267,-1.870351,4.077072,-28.592196,21.164032,-27.626999
3.456250,16.734909,-1.874324,9.456696,-28.007446,16.341328,-27.436453
3.462500,22.641884,-1.877648,14.153629,-27.395313,13.297280,-27.191116
3.468750,28.554237,-1.880315,18.253023,-26.802629,11.716217,-26.887785
3.475000,34.466724,-1.882749,21.864891,-26.294609,11.251177,-26.541937
3.481250,40.378643,-1.885028,25.250401,-25.824457,11.505944,-26.169512
3.487500,46.289921,-1.887319,27.149212,-25.421984,12.112516,-25.764467
3.493750,52.199726,-1.890016,28.950005,-25.123507,12.639399,-25.334042
3.500000,58.108585,-1.893158,30.480618,-24.934555,12.649654,-24.890444
3.506250,64.020531,-1.896029,31.640926,-24.840546,11.811213,-24.443502
3.512500,69.936783,-1.898108,32.339310,-24.808195,9.855223,-24.002779
3.518750,75.853302,-1.900018,32.549023,-24.742733,6.579176,-23.572727
3.525000,81.763512,-1.902823,32.395988,-24.727194,1.830109,-23.160105
3.531250,87.669258,-1.906743,32.518646,-24.715700,-2.366466,-22.778961
3.537500,93.577705,-1.910927,32.520638,-24.671444,-7.468426,-22.445679
3.543750,97.596901,-1.914770,32.656548,-24.584692,-13.051760,-22.155928
3.550000,101.345886,-1.918845,33.259792,-24.428707,-18.830442,-21.873894
3.556250,104.287949,-1.923689,32.776302,-24.204309,-24.332064,-21.546732
3.562500,105.934685,-1.928815,32.911663,-23.941303,-29.256853,-21.304544
3.568750,105.865654,-1.933129,33.321739,-23.666302,-32.403805,-21.132971
3.575000,103.740356,-1.936060,33.731339,-23.406088,-34.769062,-21.033272
3.581250,99.315735,-1.937954,33.854092,-23.195107,-36.086349,-21.019054
3.587500,92.465401,-1.939472,33.436081,-23.069313,-36.372711,-21.050728
3.593750,83.189476,-1.940525,32.364689,-23.018015,-35.502922,-21.150629
3.600000,71.613846,-1.940532,30.577953,-23.053209,-33.323566,-21.333382
3.606250,57.975662,-1.939188,29.927868,-23.189320,-29.990322,-21.593046
3.612500,42.610485,-1.937008,28.960260,-23.411440,-25.779991,-21.902977
3.618750,25.942091,-1.934431,28.077261,-23.736933,-21.086983,-22.238472
3.625000,8.464342,-1.931202,27.397175,-24.176805,-16.695137,-22.641579
3.631250,-9.288774,-1.927144,27.523697,-24.693575,-10.807829,-23.074858
3.637500,-26.774179,-1.922774,28.760212,-25.252041,-5.145266,-23.509663
3.643750,-43.463177,-1.918787,31.245720,-25.815292,0.265967,-23.926224
3.650000,-58.862701,-1.915498,33.118626,-26.338303,5.344677,-24.307411
3.656250,-72.542313,-1.912789,35.939400,-26.746157,9.997924,-24.636492
3.662500,-84.160431,-1.910852,38.884087,-27.084011,14.130092,-24.908751
3.668750,-93.479782,-1.909859,42.871067,-27.330536,17.601694,-25.130589
3.675000,-100.376373,-1.909458,46.223171,-27.457495,20.327518,-25.300529
3.681250,-104.847786,-1.909200,48.671127,-27.461843,22.251932,-25.417074
3.687500,-107.017487,-1.909438,49.971424,-27.356993,23.298315,-25.483324
3.693750,-107.125587,-1.910908,49.976818,-27.168713,23.416275,-25.508242
3.700000,-105.510864,-1.913477,48.692993,-26.902199,22.607395,-25.502953
3.706250,-102.593910,-1.916217,46.271137,-26.575438,21.009045,-25.460060
3.712500,-98.865257,-1.918674,42.696270,-26.227787,18.836937,-25.373642
3.718750,-94.862953,-1.921410,36.267990,-25.886023,16.238609,-25.248276
3.725000,-88.966942,-1.924812,28.903555,-25.566500,13.547848,-25.100151
3.731250,-83.069183,-1.928219,20.337688,-25.313261,11.368033,-24.967285
3.737500,-77.166306,-1.931087,12.507715,-25.149464,10.113698,-24.861652
3.743750,-71.260857,-1.933685,4.160185,-25.061291,10.194695,-24.806627
3.750000,-65.356796,-1.936361,-4.149901,-25.036324,10.202652,-24.716677
3.756250,-59.454033,-1.939026,-12.025687,-25.070438,10.125775,-24.611683
3.762500,-53.550350,-1.941438,-19.044630,-25.142275,11.287700,-24.492674
3.768750,-47.646786,-1.943847,-24.771671,-25.216002,13.425344,-24.407984
3.775000,-41.744965,-1.946594,-28.972702,-25.303358,16.085308,-24.346840
3.781250,-35.843552,-1.949428,-31.538086,-25.391201,18.666731,-24.293507
3.787500,-29.941050,-1.951975,-32.116642,-25.458881,20.804777,-24.240923
3.793750,-24.038898,-1.954590,-30.622862,-25.521147,22.192938,-24.192913
3.800000,-18.138607,-1.957639,-28.977879,-25.522615,22.633968,-24.141684
3.806250,-12.239189,-1.961031,-24.830181,-25.437365,22.143440,-24.051287
3.812500,-6.338372,-1.964606,-19.694838,-25.305321,20.590385,-23.929695
3.818750,-0.437133,-1.968511,-14.115691,-25.143198,17.861647,-23.787628
3.825000,5.464891,-1.972759,-8.629813,-24.965616,14.088316,-23.631853
3.831250,11.371198,-1.976676,-1.585639,-24.786913,9.533525,-23.473711
3.837500,17.281107,-1.980066,5.200797,-24.621313,4.524681,-23.349840
3.843750,23.190821,-1.983508,11.886282,-24.463835,-0.595266,-23.214327
3.850000,29.097853,-1.987470,16.784185,-24.308916,-6.520121,-23.049240
3.856250,35.006081,-1.991251,21.573410,-24.165949,-12.053975,-22.894674
3.862500,40.918762,-1.994244,25.829748,-24.033417,-17.176218,-22.758904
3.868750,46.831089,-1.997133,29.227198,-23.897621,-21.866354,-22.638897
3.875000,52.736557,-2.001048,31.443981,-23.736938,-26.151491,-22.523754
3.881250,58.638035,-2.006200,32.124214,-23.557192,-30.098364,-22.397520
3.887500,64.543373,-2.011463,30.874460,-23.360338,-33.895645,-22.264914
3.893750,70.455154,-2.016228,27.622293,-23.128252,-37.799709,-22.130489
3.900000,76.368652,-2.021265,24.439892,-22.850967,-41.940582,-21.986895
3.906250,82.278770,-2.027364,19.880993,-22.528038,-44.623814,-21.832014
3.912500,88.189186,-2.034441,14.413041,-22.161089,-47.718700,-21.661322
3.918750,94.105911,-2.041925,8.501844,-21.757660,-50.939152,-21.462877
3.925000,98.136154,-2.049196,2.513565,-21.344749,-54.035408,-21.208639
3.931250,101.901566,-2.056098,-3.207458,-20.948500,-57.072327,-20.988125
3.937500,104.867767,-2.062562,-8.237307,-20.588442,-57.856148,-20.797787
3.943750,106.542076,-2.068358,-12.249242,-20.287775,-57.461685,-20.646027
3.950000,106.498535,-2.073029,-15.021965,-20.068476,-55.422489,-20.546730
3.956250,104.396225,-2.076020,-16.429510,-19.948605,-51.384247,-20.515425
3.962500,99.995087,-2.077283,-16.416069,-19.938417,-45.094433,-20.564392
3.968750,93.170166,-2.077127,-14.977316,-20.035252,-36.415535,-20.701818
3.975000,83.918350,-2.075637,-14.062463,-20.205727,-25.353895,-20.938675
3.981250,72.360603,-2.072862,-9.978114,-20.499134,-12.068201,-21.301861
3.987500,58.732616,-2.068892,-5.637506,-20.899187,1.821576,-21.708374
3.993750,43.372719,-2.064106,-0.364473,-21.363058,16.986616,-22.217117
4.000000,26.707714,-2.058671,5.204486,-21.886301,32.611980,-22.835545
4.006250,9.229415,-2.052578,10.715385,-22.452097,47.837227,-23.593542
4.012500,-8.531401,-2.046288,15.901141,-23.032763,61.600849,-24.351234
4.018750,-26.030489,-2.040701,20.512716,-23.595526,74.559021,-25.082623
4.025000,-42.734512,-2.036003,24.263090,-24.125160,84.777237,-25.823792
4.031250,-58.146122,-2.031766,29.015699,-24.611937,93.165482,-26.579098
4.037500,-71.836472,-2.028085,31.400734,-25.034819,98.846115,-27.294519
4.043750,-83.468292,-2.025715,33.461399,-25.381424,102.103889,-27.940380
4.050000,-92.802864,-2.024691,35.049007,-25.651592,103.336266,-28.499903
4.056250,-99.712036,-2.024075,36.093433,-25.835714,103.071861,-28.964052
4.062500,-104.193512,-2.023222,36.677700,-25.915699,100.109894,-29.299839
4.068750,-106.375465,-2.023112,36.736206,-25.909204,96.852173,-29.493240
4.075000,-106.499794,-2.025022,36.292877,-25.832977,93.356026,-29.552435
4.081250,-104.900459,-2.028223,35.526764,-25.700619,89.849335,-29.481609
4.087500,-101.994736,-2.031256,34.694607,-25.520962,84.494621,-29.282215
4.093750,-98.275085,-2.033648,34.099815,-25.302748,79.018745,-28.960072
4.100000,-94.283073,-2.036314,32.160667,-25.060717,73.278168,-28.535765
4.106250,-88.400131,-2.039873,30.874088,-24.799225,67.173531,-28.047846
4.112500,-82.517914,-2.043982,30.140623,-24.509817,60.786942,-27.454739
4.118750,-76.632545,-2.048401,29.704845,-24.209013,54.288223,-26.791861
4.125000,-70.745598,-2.053453,29.275661,-23.912066,47.414585,-26.099497
4.131250,-64.857353,-2.059149,28.684584,-23.627913,40.315159,-25.407776
4.137500,-58.964195,-2.064942,27.816162,-23.360151,33.187523,-24.739498
4.143750,-53.064831,-2.070434,26.586084,-23.107658,26.242088,-24.112064
4.150000,-47.162472,-2.075969,24.909193,-22.869432,19.671921,-23.538639
4.156250,-41.259415,-2.081928,24.880379,-22.641722,13.649782,-23.019350
4.162500,-35.354881,-2.088224,25.089535,-22.413475,8.319557,-22.568817
4.168750,-29.446602,-2.094676,24.115343,-22.175060,5.390391,-22.186722
4.175000,-23.534138,-2.101235,23.825838,-21.944319,2.296622,-21.873173
4.181250,-17.617895,-2.107732,24.021555,-21.726145,0.755669,-21.621353
4.187500,-11.696771,-2.113871,24.505201,-21.525732,0.646921,-21.372559
4.193750,-5.771092,-2.119645,25.054443,-21.349220,2.012405,-21.233288
4.200000,0.158374,-2.124795,25.436272,-21.204275,2.965204,-21.178324
4.206250,6.091377,-2.129001,25.436953,-21.098413,4.163257,-21.185547
4.212500,12.026922,-2.132063,24.893465,-21.028368,6.643076,-21.211493
4.218750,17.961224,-2.134381,25.866161,-20.983772,8.173957,-21.261078
4.225000,23.891603,-2.136381,24.948181,-20.960028,8.750899,-21.334616
4.231250,29.817881,-2.138194,24.119267,-20.945690,8.227432,-21.417986
4.237500,35.741596,-2.139754,23.172239,-20.940496,6.433769,-21.488054
4.243750,41.662739,-2.141013,21.764343,-20.961002,5.290134,-21.554173
4.250000,47.582462,-2.141957,19.746450,-20.991823,3.176460,-21.615860
4.256250,53.499973,-2.142426,16.969633,-21.015688,0.618388,-21.656624
4.262500,59.412682,-2.142938,13.203352,-21.018148,-1.971300,-21.665386
4.268750,65.318092,-2.144272,8.249376,-20.988562,-4.238577,-21.631697
4.275000,71.216942,-2.146789,1.926083,-20.919653,-5.869134,-21.548822
4.281250,77.114967,-2.149910,-3.761041,-20.798828,-6.591304,-21.404379
4.287500,83.014786,-2.153508,-10.342475,-20.623751,-6.208462,-21.169960
4.293750,88.913879,-2.158238,-17.558903,-20.417250,-4.816198,-20.915497
4.300000,94.812424,-2.164351,-25.038704,-20.180965,-2.688406,-20.643732
4.306250,98.823051,-2.170720,-32.339180,-19.918158,0.367971,-20.352005
4.312500,102.572289,-2.176220,-39.144161,-19.639874,4.146760,-20.050009
4.318750,105.522430,-2.181237,-45.182480,-19.360424,8.381404,-19.751364
4.325000,107.174072,-2.186798,-50.252457,-19.101019,12.767548,-19.473635
4.331250,107.101738,-2.192702,-54.208496,-18.884481,16.994003,-19.231909
4.337500,104.972168,-2.197918,-56.953381,-18.756710,20.788776,-19.028803
4.343750,100.549263,-2.201945,-58.495502,-18.633377,23.931534,-18.807142
4.350000,93.706940,-2.205056,-57.859985,-18.579876,25.956779,-18.689499
4.356250,84.442749,-2.207059,-55.922028,-18.632633,28.514166,-18.657494
4.362500,72.879074,-2.207477,-52.483524,-18.791519,30.373064,-18.721031
4.368750,59.250404,-2.206684,-47.633472,-19.048136,31.886833,-18.906324
4.375000,43.890938,-2.205482,-41.577969,-19.389509,33.307373,-19.155176
4.381250,27.228050,-2.203754,-34.589153,-19.794436,34.673397,-19.447210
4.387500,9.758403,-2.200909,-26.990383,-20.236639,36.800671,-19.790722
4.393750,-7.986812,-2.197194,-19.197998,-20.699606,38.009827,-20.213539
4.400000,-25.469038,-2.193789,-11.666679,-21.170639,39.858822,-20.690950
4.406250,-42.154423,-2.190847,-2.600711,-21.631805,41.929600,-21.196785
4.412500,-57.545406,-2.187537,4.416335,-22.069773,43.929611,-21.712223
4.418750,-71.213852,-2.183948,11.229539,-22.478426,45.642948,-22.223818
4.425000,-82.824600,-2.181026,17.666162,-22.797407,46.986164,-22.684231
4.431250,-92.141624,-2.179142,23.554993,-23.025635,47.970318,-23.064888
4.437500,-99.037292,-2.177651,28.507790,-23.174833,48.361797,-23.362572
4.443750,-103.509262,-2.176380,32.475620,-23.252338,48.158901,-23.570463
4.450000,-105.683517,-2.176113,35.522903,-23.259958,47.491886,-23.681253
4.456250,-105.798012,-2.177388,37.781178,-23.202406,46.529114,-23.693640
4.462500,-104.186897,-2.179380,39.450394,-23.089972,45.452358,-23.613775
4.468750,-101.273209,-2.181667,40.819958,-22.941919,44.483097,-23.464169
4.475000,-97.552284,-2.184789,40.376064,-22.756594,43.918724,-23.230066
4.481250,-93.558243,-2.188706,40.279366,-22.527889,42.489384,-22.898327
4.487500,-87.663963,-2.192618,40.194836,-22.287437,41.719761,-22.515282
4.493750,-81.764282,-2.196232,39.931168,-22.056633,41.312996,-22.110870
4.500000,-75.865616,-2.200750,39.422745,-21.846579,41.053391,-21.706421
4.506250,-69.969986,-2.206834,38.643665,-21.657677,40.731899,-21.316751
4.512500,-64.068748,-2.213357,37.586575,-21.477760,40.130421,-20.950966
4.518750,-58.154526,-2.218818,36.251301,-21.254110,39.003624,-20.618748
4.525000,-52.231655,-2.223343,34.651390,-21.067142,37.032398,-20.355879
4.531250,-46.309597,-2.228131,33.904205,-20.928782,33.769306,-20.150253
4.537500,-40.389427,-2.233532,33.483196,-20.795200,30.575527,-19.979500
4.543750,-34.463715,-2.238700,31.977512,-20.654921,25.949995,-19.854628
4.550000,-28.529440,-2.242862,31.115301,-20.534666,20.216721,-19.752434
4.556250,-22.589666,-2.246094,30.606909,-20.456835,13.773177,-19.730593
4.562500,-16.648382,-2.248820,30.233608,-20.440611,7.341942,-19.808090
4.568750,-10.706317,-2.251010,29.772034,-20.511656,0.892427,-19.982395
4.575000,-4.761790,-2.252370,28.994417,-20.726282,-5.393507,-20.199009
4.581250,1.186496,-2.252504,27.697781,-21.008892,-11.201630,-20.470081
4.587500,7.135166,-2.251349,24.653004,-21.374884,-16.025028,-20.808008
4.593750,13.082187,-2.249253,22.706034,-21.845671,-19.677389,-21.205908
4.600000,19.025129,-2.246316,19.989347,-22.424644,-22.110664,-21.643583
4.606250,24.964344,-2.242327,16.378521,-23.180084,-23.468094,-22.131838
4.612500,30.898935,-2.237398,12.806192,-23.972075,-24.022423,-22.661827
4.618750,36.823631,-2.232490,8.617476,-24.836868,-23.838482,-23.210699
4.625000,42.736294,-2.228371,4.163395,-25.755156,-23.196707,-23.763077
4.631250,48.642773,-2.224430,-0.265233,-26.693287,-22.421627,-24.305574
4.637500,54.548191,-2.219633,-4.407536,-27.608250,-21.874521,-24.821293
4.643750,60.448708,-2.214627,-8.014781,-28.446859,-21.916382,-25.274870
4.650000,66.335571,-2.210874,-12.780972,-29.147984,-22.900209,-25.618380
4.656250,72.208527,-2.209205,-14.844332,-29.683811,-25.206856,-25.859400
4.662500,78.075592,-2.209168,-16.247608,-30.045063,-27.412199,-26.019558
4.668750,83.941566,-2.210418,-16.861053,-30.201216,-30.889450,-26.072180
4.675000,89.807182,-2.213216,-16.707436,-30.139540,-35.404705,-26.008965
4.681250,93.779037,-2.217357,-15.918633,-29.862505,-40.752705,-25.830616
4.687500,97.482140,-2.222268,-14.696663,-29.393642,-46.710125,-25.548359
4.693750,100.382973,-2.228167,-13.286484,-28.770678,-53.009892,-25.174116
4.700000,101.985954,-2.236033,-11.982675,-28.021786,-59.308823,-24.709639
4.706250,101.866959,-2.245637,-11.270867,-27.151548,-65.238426,-24.147575
4.712500,99.696144,-2.255199,-11.397595,-26.201742,-70.361649,-23.541048
4.718750,95.240250,-2.263478,-12.709465,-25.248238,-76.086967,-22.946529
