Anritsu VNA Frequency[GHz],S21[deg],S21[dB],S11[deg],S11[dB],S22[deg],S22[dB]
1338084123.48,2012_05_27_03:02:03,+40.719,+10.308,+55.159,+10.320,+13.941,+13.752,+14.046,+13.799,10.412118,-16.982
3.006250,33.586769,-1.746534,58.854095,-26.660013,-80.612991,-27.433031
3.012500,33.586769,-1.746534,58.854095,-26.660013,-80.612991,-27.433031
3.018750,33.586769,-1.746534,58.854095,-26.660013,-80.612991,-27.433031
3.025000,33.586769,-1.746534,58.854095,-26.660013,-80.612991,-27.433031
3.031250,33.586769,-1.746534,58.854095,-26.660013,-80.612991,-27.433031
3.037500,33.586769,-1.746534,58.854095,-26.660013,-80.612991,-27.433031
3.043750,33.586769,-1.746534,58.854095,-26.660013,-80.612991,-27.433031
3.050000,33.586769,-1.746534,58.854095,-26.660013,-80.612991,-27.433031
3.056250,33.586769,-1.746534,58.854095,-26.660013,-80.612991,-27.433031
3.062500,33.586769,-1.746534,58.854095,-26.660013,-80.612991,-27.433031
3.068750,33.586769,-1.746534,58.854095,-26.660013,-80.612991,-27.433031
3.075000,33.586769,-1.746534,58.854095,-26.660013,-80.612991,-27.433031
3.081250,33.586769,-1.746534,58.854095,-26.660013,-80.612991,-27.433031
3.087500,33.586769,-1.746534,58.854095,-26.660013,-80.612991,-27.433031
3.093750,33.586769,-1.748564,58.854095,-26.459290,-80.612991,-27.183289
3.100000,39.492447,-1.750853,56.175018,-26.309170,-82.612053,-26.951450
3.106250,45.398373,-1.753113,52.617001,-26.231848,-82.994324,-26.738667
3.112500,51.304726,-1.755449,48.536377,-26.246864,-81.407898,-26.517597
3.118750,57.210361,-1.757960,42.532959,-26.292706,-79.694695,-26.218903
3.125000,63.114964,-1.760599,37.726631,-26.339453,-75.633400,-25.958193
3.131250,69.019341,-1.763314,33.340885,-26.413439,-69.470284,-25.670635
3.137500,74.922447,-1.766337,29.622648,-26.515383,-61.585518,-25.346502
3.143750,80.824020,-1.769887,26.782139,-26.636650,-52.163960,-24.994394
3.150000,86.726715,-1.773704,25.000618,-26.762531,-41.361198,-24.626291
3.156250,92.632423,-1.777283,24.395323,-26.878458,-29.353071,-24.260784
3.162500,96.645447,-1.780586,25.035126,-26.971182,-16.337814,-23.921793
3.168750,100.385735,-1.783969,26.940458,-27.033545,-2.525076,-23.657864
3.175000,103.319031,-1.787597,30.155567,-27.043758,10.024985,-23.412893
3.181250,104.955521,-1.791282,32.920994,-26.989067,23.354599,-23.190670
3.187500,104.869774,-1.794791,36.700912,-26.886650,36.131840,-23.023315
3.193750,102.720291,-1.798017,40.794842,-26.748753,47.868378,-22.926291
3.200000,98.270012,-1.800902,44.631355,-26.583498,58.151363,-22.902479
3.206250,91.396645,-1.803400,47.729301,-26.401596,66.590408,-22.952461
3.212500,82.098717,-1.805694,49.667786,-26.216839,72.873291,-23.084272
3.218750,70.496460,-1.808203,50.136292,-26.039644,76.776543,-23.280487
3.225000,56.828300,-1.810554,51.135109,-25.864458,77.929344,-23.485788
3.231250,41.437119,-1.812362,51.199776,-25.690973,76.497993,-23.709074
3.237500,24.748285,-1.813873,48.836494,-25.519157,74.491348,-23.941782
3.243750,7.249857,-1.815660,46.160789,-25.326067,70.324432,-24.161079
3.250000,-10.525334,-1.818052,43.041275,-25.152576,64.598701,-24.348024
3.256250,-28.026999,-1.820578,39.120041,-25.010969,57.869736,-24.501713
3.262500,-44.720192,-1.822749,34.631245,-24.884520,50.766106,-24.610563
3.268750,-60.114208,-1.824609,29.521395,-24.769781,43.987129,-24.666216
3.275000,-73.785378,-1.826546,23.667389,-24.665348,38.116840,-24.668564
3.281250,-85.393524,-1.828925,16.958479,-24.562449,33.658550,-24.624859
3.287500,-94.699760,-1.831679,9.303521,-24.448013,30.995029,-24.549601
3.293750,-101.579971,-1.834530,0.667744,-24.282616,30.386360,-24.442667
3.300000,-106.034042,-1.837291,-6.772552,-24.114515,31.990047,-24.305477
3.306250,-108.183067,-1.839800,-15.434637,-23.978882,35.792103,-24.164751
3.312500,-108.264923,-1.842073,-24.103413,-23.857164,41.603573,-24.051949
3.318750,-106.620827,-1.844230,-32.482658,-23.756912,49.164322,-23.988413
3.325000,-103.678223,-1.846240,-40.311260,-23.695972,58.131317,-23.983963
3.331250,-99.929062,-1.847896,-47.331429,-23.699312,68.072861,-24.042068
3.337500,-95.905952,-1.849173,-53.359379,-23.827055,78.476059,-24.160738
3.343750,-89.987854,-1.850114,-58.400589,-23.987398,88.801041,-24.325350
3.350000,-84.070480,-1.850688,-62.848946,-24.207880,96.645119,-24.479591
3.356250,-78.153625,-1.850918,-66.290901,-24.530323,105.247414,-24.677843
3.362500,-72.238747,-1.851031,-67.023277,-24.977116,111.502380,-24.927158
3.368750,-66.326080,-1.850871,-66.683640,-25.529325,115.541168,-25.216469
3.375000,-60.413570,-1.850136,-65.154556,-26.160379,116.960739,-25.590471
3.381250,-54.503353,-1.849018,-62.446873,-26.836369,115.604416,-25.923637
3.387500,-48.599697,-1.848239,-58.654266,-27.519012,112.082573,-26.244371
3.393750,-42.702271,-1.848262,-53.935680,-28.164145,105.849808,-26.544462
3.400000,-36.807041,-1.848644,-48.511242,-28.729515,97.468391,-26.816231
3.406250,-30.910761,-1.848829,-42.716755,-29.193724,87.939087,-27.091774
3.412500,-25.015089,-1.849114,-36.876675,-29.532509,77.929039,-27.336342
3.418750,-19.124254,-1.850298,-29.055046,-29.724405,66.076370,-27.529280
3.425000,-13.236502,-1.852450,-22.794224,-29.765373,54.669041,-27.664526
3.431250,-7.345772,-1.854669,-16.241571,-29.670650,44.139744,-27.748392
3.437500,-1.450840,-1.856804,-9.653744,-29.424431,34.943020,-27.784357
3.443750,4.443616,-1.859572,-3.051444,-29.025057,27.758343,-27.721277
3.450000,10.336474,-1.863253,3.044587,-28.517685,20.864719,-27.588095
3.456250,16.233553,-1.867145,8.471884,-27.941263,16.040735,-27.398211
3.462500,22.139265,-1.870389,13.225752,-27.338820,12.993992,-27.153944
3.468750,28.049961,-1.873013,17.389736,-26.756325,11.411915,-26.851919
3.475000,33.961040,-1.875389,21.071222,-26.259043,10.941159,-26.508202
3.481250,39.871681,-1.877648,24.533577,-25.798559,11.189009,-26.137970
3.487500,45.781631,-1.879940,26.499166,-25.405260,11.785826,-25.735161
3.493750,51.690296,-1.882660,28.363573,-25.114452,12.301865,-25.307322
3.500000,57.598152,-1.885841,29.948236,-24.931160,12.301503,-24.865719
3.506250,63.508877,-1.888775,31.152899,-24.840052,11.453224,-24.421114
3.512500,69.423889,-1.890914,31.884056,-24.807695,9.486893,-23.982475
3.518750,75.339203,-1.892879,32.114571,-24.748846,6.201017,-23.554533
3.525000,81.248207,-1.895726,32.004387,-24.732782,1.442702,-23.143383
3.531250,87.152908,-1.899685,32.136780,-24.719048,-2.757309,-22.763592
3.537500,93.060005,-1.903952,32.142090,-24.673147,-7.863800,-22.431932
3.543750,97.077965,-1.907903,32.279800,-24.584686,-13.449486,-22.143648
3.550000,100.825806,-1.911990,32.883072,-24.426733,-19.229795,-21.862133
3.556250,103.766609,-1.916843,32.399349,-24.200788,-24.728752,-21.535252
3.562500,105.412346,-1.921978,32.530853,-23.936378,-29.668591,-21.293549
3.568750,105.342255,-1.926341,32.937542,-23.660597,-32.816456,-21.122482
3.575000,103.215828,-1.929312,33.343475,-23.399939,-35.186451,-21.022911
3.581250,98.789856,-1.931214,33.463123,-23.189436,-36.514042,-21.008865
3.587500,91.938332,-1.932683,33.039616,-23.064171,-36.814655,-21.040491
3.593750,82.661285,-1.933746,31.965635,-23.014997,-35.958977,-21.140186
3.600000,71.084572,-1.933743,30.171581,-23.052252,-33.794159,-21.322701
3.606250,57.445213,-1.932338,29.516586,-23.190992,-30.477489,-21.582098
3.612500,42.078697,-1.930114,28.539541,-23.416468,-26.284637,-21.891739
3.618750,25.408884,-1.927463,27.648720,-23.745779,-21.613350,-22.227163
3.625000,7.929932,-1.924157,26.950481,-24.189507,-17.241798,-22.630419
3.631250,-9.824445,-1.920044,27.055847,-24.710087,-11.367844,-23.063793
3.637500,-27.310989,-1.915584,28.271105,-25.272337,-5.714455,-23.499187
3.643750,-44.001236,-1.911492,30.735779,-25.839262,-0.308439,-23.916655
3.650000,-59.401787,-1.908087,32.585621,-26.365490,4.763239,-24.298712
3.656250,-73.082458,-1.905304,35.381687,-26.775932,9.417987,-24.629433
3.662500,-84.701675,-1.903239,38.296139,-27.116159,13.555902,-24.903362
3.668750,-94.021965,-1.902139,42.259800,-27.364202,17.035469,-25.127005
3.675000,-100.919525,-1.901662,45.588535,-27.491852,19.773561,-25.298788
3.681250,-105.391975,-1.901305,48.016933,-27.496311,21.710981,-25.417324
3.687500,-107.562469,-1.901474,49.301495,-27.390762,22.770954,-25.485653
3.693750,-107.671692,-1.902876,49.295918,-27.201103,22.900053,-25.512348
3.700000,-106.058372,-1.905390,48.005909,-26.932642,22.103508,-25.508673
3.706250,-103.142784,-1.908099,45.586285,-26.604223,20.512779,-25.466776
3.712500,-99.415474,-1.910535,42.023453,-26.254309,18.345514,-25.380997
3.718750,-95.414513,-1.913257,35.608257,-25.909822,15.749361,-25.255621
3.725000,-89.520363,-1.916586,28.263794,-25.587183,13.056749,-25.106913
3.731250,-83.624245,-1.919995,19.720226,-25.331043,10.872250,-24.973454
3.737500,-77.722832,-1.922894,11.914498,-25.164656,9.611686,-24.867285
3.743750,-71.819168,-1.925520,3.595496,-25.073862,9.682953,-24.810814
3.750000,-65.916451,-1.928195,-4.686315,-25.046495,9.687757,-24.718540
3.756250,-60.014900,-1.930831,-12.537147,-25.078335,9.603269,-24.611712
3.762500,-54.111935,-1.933248,-19.532633,-25.147789,10.759481,-24.490614
3.768750,-48.208904,-1.935696,-25.236759,-25.219961,12.898606,-24.403769
3.775000,-42.307163,-1.938454,-29.420450,-25.304712,15.559963,-24.340456
3.781250,-36.405807,-1.941269,-31.967535,-25.390696,18.145269,-24.284847
3.787500,-30.502871,-1.943821,-32.536606,-25.456570,20.292124,-24.230307
3.793750,-24.599628,-1.946467,-31.035559,-25.516230,21.692358,-24.180397
3.800000,-18.698540,-1.949529,-27.497822,-25.515779,22.151119,-24.127075
3.806250,-12.798023,-1.952917,-23.074551,-25.428299,21.682131,-24.034441
3.812500,-6.896030,-1.956467,-17.135073,-25.294163,20.146563,-23.911074
3.818750,-0.993677,-1.960350,-10.263859,-25.130236,17.432381,-23.767168
3.825000,4.909125,-1.964575,-3.062578,-24.950516,13.672817,-23.609623
3.831250,10.815889,-1.968437,6.036220,-24.769972,9.135036,-23.449923
3.837500,16.726076,-1.971729,15.113573,-24.602570,4.138042,-23.323898
3.843750,22.635607,-1.975117,24.209381,-24.443775,-0.973908,-23.186228
3.850000,28.542166,-1.978971,31.520267,-24.287745,-6.894958,-23.019753
3.856250,34.449516,-1.982649,38.600471,-24.144026,-12.428711,-22.863798
3.862500,40.360836,-1.985569,44.912708,-24.011011,-17.555099,-22.726652
3.868750,46.271202,-1.988326,50.025364,-23.875526,-22.252670,-22.605230
3.875000,52.174683,-1.992167,53.531570,-23.715712,-26.546591,-22.488901
3.881250,58.074406,-1.997247,55.011143,-23.537449,-30.507992,-22.361595
3.887500,63.977562,-2.002423,54.027882,-23.341894,-34.320087,-22.228266
3.893750,69.887154,-2.007163,50.494038,-23.111582,-38.240833,-22.093536
3.900000,75.798256,-2.012172,46.501728,-22.836454,-42.399326,-21.950119
3.906250,81.706429,-2.018300,40.640457,-22.516024,-45.098942,-21.796165
3.912500,87.614929,-2.025438,33.445019,-22.152138,-48.209469,-21.627016
3.918750,93.529938,-2.032966,25.466927,-21.751749,-51.441296,-21.429518
3.925000,97.558884,-2.040283,17.173243,-21.342297,-54.549534,-21.176849
3.931250,101.322983,-2.047229,9.021328,-20.948881,-57.603298,-20.958473
3.937500,104.288025,-2.053771,1.563110,-20.591553,-58.401386,-20.770454
3.943750,105.961639,-2.059620,-4.754398,-20.293495,-58.017075,-20.621010
3.950000,105.917503,-2.064328,-9.592758,-20.076612,-55.988693,-20.524115
3.956250,103.814705,-2.067338,-12.726609,-19.958878,-51.959625,-20.495100
3.962500,99.413345,-2.068624,-14.009794,-19.950354,-45.679062,-20.546024
3.968750,92.588036,-2.068470,-13.375525,-20.048218,-37.008289,-20.685204
3.975000,83.335815,-2.066928,-12.731831,-20.219990,-25.952759,-20.923355
3.981250,71.777924,-2.064125,-10.537896,-20.514053,-12.675674,-21.287174
3.987500,58.149529,-2.060172,-6.198850,-20.915466,1.221449,-21.693586
3.993750,42.789215,-2.055401,-0.915395,-21.379671,16.382931,-22.202290
4.000000,26.123474,-2.049991,4.656553,-21.903267,32.013447,-22.820602
4.006250,8.644672,-2.043930,10.169039,-22.469978,47.245262,-23.578758
4.012500,-9.116925,-2.037724,15.355664,-23.052004,61.011017,-24.334738
4.018750,-26.617020,-2.032226,19.964270,-23.616255,73.983047,-25.065071
4.025000,-43.321770,-2.027660,23.710617,-24.147816,84.217812,-25.805468
4.031250,-58.734543,-2.023618,28.455395,-24.636307,92.621284,-26.559370
4.037500,-72.426193,-2.020119,30.831705,-25.060789,98.315186,-27.273571
4.043750,-84.059380,-2.017904,32.880791,-25.408859,101.584900,-27.918325
4.050000,-93.395157,-2.017061,34.457138,-25.679934,102.825920,-28.476746
4.056250,-100.305504,-2.016652,35.491283,-25.864504,102.565880,-28.939569
4.062500,-104.788460,-2.015978,36.060341,-25.944574,99.604912,-29.273792
4.068750,-106.971573,-2.016083,36.111477,-25.937323,96.343033,-29.465963
4.075000,-107.096893,-2.018163,35.663059,-25.859831,92.838081,-29.523703
4.081250,-105.498528,-2.021530,34.895481,-25.725792,89.319557,-29.451298
4.087500,-102.593636,-2.024707,34.063507,-25.543657,83.948357,-29.249983
4.093750,-98.874657,-2.027225,33.471706,-25.322317,78.453781,-28.925785
4.100000,-94.883293,-2.030003,31.534834,-25.076460,72.692543,-28.499416
4.106250,-89.001137,-2.033674,30.252905,-24.810965,66.567474,-28.010006
4.112500,-83.119362,-2.037864,29.529928,-24.516474,60.162052,-27.415554
4.118750,-77.234299,-2.042333,29.123680,-24.212749,53.646702,-26.751427
4.125000,-71.347778,-2.047420,28.704037,-23.913195,46.758190,-26.058397
4.131250,-65.460121,-2.053132,28.118727,-23.626923,39.647594,-25.366436
4.137500,-59.567703,-2.058898,27.254873,-23.357307,32.512482,-24.698399
4.143750,-53.669071,-2.064321,26.024654,-23.104063,25.566341,-24.071920
4.150000,-47.767433,-2.069744,24.345316,-22.865728,18.999342,-23.499760
4.156250,-41.865379,-2.075574,24.309908,-22.638582,12.986082,-22.982130
4.162500,-35.962154,-2.081715,24.510002,-22.411636,7.670277,-22.534866
4.168750,-30.055319,-2.087959,23.533928,-22.174503,4.757228,-22.155613
4.175000,-24.144442,-2.094304,23.233412,-21.945528,1.680133,-21.845226
4.181250,-18.229868,-2.100569,23.420160,-21.729832,0.154663,-21.596733
4.187500,-12.310585,-2.106498,23.894869,-21.532236,0.066628,-21.350777
4.193750,-6.386590,-2.112069,24.437363,-21.358644,1.463033,-21.215794
4.200000,-0.459096,-2.117054,24.815790,-21.216599,2.439037,-21.164333
4.206250,5.471658,-2.121130,24.812981,-21.113413,3.663477,-21.174652
4.212500,11.404995,-2.124093,24.266514,-21.046068,6.168073,-21.203674
4.218750,17.337156,-2.126333,25.240574,-21.003597,7.724146,-21.255894
4.225000,23.265625,-2.128339,24.322987,-20.981894,8.323194,-21.331404
4.231250,29.189886,-2.130230,23.496164,-20.969213,7.819088,-21.416367
4.237500,35.111496,-2.131857,22.550621,-20.965250,6.041759,-21.487848
4.243750,41.030972,-2.133238,21.151148,-20.986609,4.908886,-21.555355
4.250000,46.949020,-2.134280,19.138975,-21.018089,2.801090,-21.617897
4.256250,52.864704,-2.134907,16.368738,-21.042192,0.242817,-21.659468
4.262500,58.776295,-2.135583,12.606227,-21.044437,-2.352732,-21.668661
4.268750,64.680550,-2.137038,7.655572,-21.014122,-4.630493,-21.635035
4.275000,70.578362,-2.139652,1.336354,-20.944160,-6.276826,-21.552082
4.281250,76.475609,-2.142851,-4.347606,-20.822390,-7.019120,-21.407520
4.287500,82.374825,-2.146466,-10.924765,-20.645870,-6.659401,-21.172808
4.293750,88.273743,-2.151252,-18.139423,-20.437658,-5.294545,-20.917973
4.300000,94.172073,-2.157362,-25.617794,-20.199715,-3.194950,-20.645620
4.306250,98.182465,-2.163699,-32.919582,-19.935116,-0.166468,-20.353083
4.312500,101.931664,-2.169119,-39.725002,-19.654953,3.584847,-20.050003
4.318750,104.882057,-2.174085,-45.764790,-19.373751,7.794954,-19.750071
4.325000,106.533470,-2.179555,-50.837090,-19.112730,12.159531,-19.470921
4.331250,106.461121,-2.185422,-54.794777,-18.894846,16.368988,-19.227350
4.337500,104.331490,-2.190573,-57.538651,-18.768658,20.151915,-19.021662
4.343750,99.908379,-2.194570,-59.088631,-18.642128,23.290274,-18.796522
4.350000,93.065575,-2.197670,-58.450779,-18.587975,25.297810,-18.676344
4.356250,83.800781,-2.199678,-56.509651,-18.640902,27.854250,-18.641632
4.362500,72.236588,-2.200103,-53.067646,-18.800390,29.714624,-18.702080
4.368750,58.607117,-2.199343,-48.213120,-19.058123,31.228029,-18.885138
4.375000,43.246712,-2.198171,-42.150970,-19.400887,32.645187,-19.130117
4.381250,26.583145,-2.196491,-35.153522,-19.807142,34.014778,-19.419477
4.387500,9.112950,-2.193701,-27.544672,-20.250536,36.141861,-19.760519
4.393750,-8.632993,-2.190019,-19.737841,-20.714640,37.350391,-20.181372
4.400000,-26.115583,-2.186634,-12.193180,-21.186769,39.195114,-20.657326
4.406250,-42.801617,-2.183714,-3.112331,-21.649059,41.259747,-21.162296
4.412500,-58.192787,-2.180397,3.919345,-22.087980,43.252052,-21.677528
4.418750,-71.861343,-2.176771,10.746237,-22.497559,44.956432,-22.189531
4.425000,-83.472160,-2.173809,17.196270,-22.816454,46.292587,-22.650011
4.431250,-92.789101,-2.171907,23.095854,-23.044334,47.268192,-23.031353
4.437500,-99.684502,-2.170339,28.055853,-23.192801,47.652203,-23.329927
4.443750,-104.156578,-2.168983,32.030697,-23.269409,47.445190,-23.538925
4.450000,-106.330902,-2.168671,35.084293,-23.276173,46.776340,-23.651066
4.456250,-106.445595,-2.169885,37.346321,-23.217741,45.814846,-23.664677
4.462500,-104.834930,-2.171858,39.018612,-23.104263,44.742275,-23.586004
4.468750,-101.921677,-2.174128,40.389290,-22.955223,43.781017,-23.437250
4.475000,-98.201645,-2.177166,39.943016,-22.769373,43.229485,-23.203335
4.481250,-94.208496,-2.181086,39.845684,-22.539959,41.813248,-22.872009
4.487500,-88.315430,-2.184977,39.760067,-22.299202,41.059105,-22.489241
4.493750,-82.417007,-2.188601,39.493137,-22.068724,40.669056,-22.084843
4.500000,-76.519859,-2.193127,38.979134,-21.859451,40.426151,-21.680307
4.506250,-70.625443,-2.199242,38.194542,-21.671946,40.120781,-21.290304
4.512500,-64.725906,-2.205735,37.130562,-21.493553,39.534714,-20.924110
4.518750,-58.813263,-2.211191,35.785995,-21.268480,38.419292,-20.592018
4.525000,-52.891747,-2.215727,34.188026,-21.084703,36.454540,-20.329515
4.531250,-46.971142,-2.220502,33.429081,-20.948927,33.190174,-20.123861
4.537500,-41.052250,-2.225893,32.996185,-20.817165,29.992990,-19.953402
4.543750,-35.127861,-2.231059,31.484386,-20.678764,25.359303,-19.829617
4.550000,-29.194592,-2.235222,30.613684,-20.560522,19.616383,-19.727484
4.556250,-23.255939,-2.238481,30.095766,-20.485065,13.165705,-19.707851
4.562500,-17.315783,-2.241246,29.714287,-20.471806,6.718223,-19.787169
4.568750,-11.374858,-2.243467,29.245008,-20.546200,0.250452,-19.963264
4.575000,-5.431117,-2.244906,28.460461,-20.766796,-6.061810,-20.181406
4.581250,0.515967,-2.245168,27.181490,-21.050898,-11.887527,-20.454454
4.587500,6.463927,-2.244133,24.129362,-21.419697,-16.725601,-20.794693
4.593750,12.409975,-2.242177,22.185802,-21.893591,-20.395039,-21.194555
4.600000,18.352081,-2.239428,19.477011,-22.474350,-22.844343,-21.634029
4.606250,24.290455,-2.235635,15.880340,-23.229246,-24.218712,-22.124060
4.612500,30.224112,-2.230915,12.301115,-24.020220,-24.784195,-22.655426
4.618750,36.148098,-2.226224,8.128216,-24.882397,-24.611076,-23.205345
4.625000,42.059929,-2.222299,3.684803,-25.795902,-23.978554,-23.758680
4.631250,47.965611,-2.218526,-0.740508,-26.727255,-23.208937,-24.301498
4.637500,53.869957,-2.213870,-4.884941,-27.633457,-22.662916,-24.817142
4.643750,59.769836,-2.208954,-8.500035,-28.461927,-22.704182,-25.270071
4.650000,65.655807,-2.205286,-13.279672,-29.151848,-23.683239,-25.612572
4.656250,71.527588,-2.203710,-15.358531,-29.675451,-25.983419,-25.852686
4.662500,77.393425,-2.203696,-16.783587,-30.024830,-28.177395,-26.011349
4.668750,83.258232,-2.204929,-17.422543,-30.169882,-31.641850,-26.062265
4.675000,89.122734,-2.207691,-17.296219,-30.098085,-36.143887,-25.997198
4.681250,94.988037,-2.211779,-16.535036,-29.812504,-41.477734,-25.816910
4.687500,98.962830,-2.216624,-15.340909,-29.337004,-47.421883,-25.532703
4.693750,102.668304,-2.222430,-13.957162,-28.709827,-53.709007,-25.156286
4.700000,105.567848,-2.230215,-12.675680,-27.958693,-59.994728,-24.689548
4.706250,107.172577,-2.239709,-11.989682,-27.088188,-65.911736,-24.125191
4.712500,107.066574,-2.249152,-12.136106,-26.139561,-71.020454,-23.517397
4.718750,104.912544,-2.257299,-13.462179,-25.189579,-76.732430,-22.921703
