Anritsu VNA Frequency[GHz],S21[deg],S21[dB],S11[deg],S11[dB],S22[deg],S22[dB]
1338075294.94,2012_05_27_00:34:54,+41.053,+10.329,+56.047,+10.346,+13.970,+13.782,+14.078,+13.833,10.449697,-18.036
3.006250,34.078804,-1.752461,59.364571,-26.641563,-80.133751,-27.444298
3.012500,34.078804,-1.752461,59.364571,-26.641563,-80.133751,-27.444298
3.018750,34.078804,-1.752461,59.364571,-26.641563,-80.133751,-27.444298
3.025000,34.078804,-1.752461,59.364571,-26.641563,-80.133751,-27.444298
3.031250,34.078804,-1.752461,59.364571,-26.641563,-80.133751,-27.444298
3.037500,34.078804,-1.752461,59.364571,-26.641563,-80.133751,-27.444298
3.043750,34.078804,-1.752461,59.364571,-26.641563,-80.133751,-27.444298
3.050000,34.078804,-1.752461,59.364571,-26.641563,-80.133751,-27.444298
3.056250,34.078804,-1.752461,59.364571,-26.641563,-80.133751,-27.444298
3.062500,34.078804,-1.752461,59.364571,-26.641563,-80.133751,-27.444298
3.068750,34.078804,-1.752461,59.364571,-26.641563,-80.133751,-27.444298
3.075000,34.078804,-1.752461,59.364571,-26.641563,-80.133751,-27.444298
3.081250,34.078804,-1.752461,59.364571,-26.641563,-80.133751,-27.444298
3.087500,34.078804,-1.752461,59.364571,-26.641563,-80.133751,-27.444298
3.093750,34.078804,-1.754382,59.364571,-26.440489,-80.133751,-27.195168
3.100000,39.985329,-1.756684,56.686199,-26.288074,-82.157738,-26.964035
3.106250,45.892132,-1.758982,53.123573,-26.207361,-82.560707,-26.752174
3.112500,51.799252,-1.761366,49.042202,-26.218416,-80.981750,-26.533550
3.118750,57.705708,-1.763962,43.038101,-26.262121,-79.262672,-26.234852
3.125000,63.610794,-1.766665,38.230091,-26.306004,-75.222275,-25.975965
3.131250,69.515717,-1.769495,33.836052,-26.376431,-69.051949,-25.689957
3.137500,75.419449,-1.772623,30.111044,-26.474966,-61.159496,-25.367535
3.143750,81.321785,-1.776296,27.263407,-26.593424,-51.729980,-25.016432
3.150000,87.224777,-1.780237,25.475992,-26.717388,-40.921570,-24.649092
3.156250,93.130653,-1.783874,24.865295,-26.832247,-28.905621,-24.283701
3.162500,97.144341,-1.787257,25.500038,-26.925018,-15.885239,-23.944193
3.168750,100.884674,-1.790715,27.397142,-26.987938,-2.069653,-23.679703
3.175000,103.818748,-1.794389,30.603033,-26.998941,10.482873,-23.434608
3.181250,105.455696,-1.798141,33.358704,-26.945461,23.809368,-23.211996
3.187500,105.370514,-1.801660,37.132053,-26.845047,36.589764,-23.043537
3.193750,103.221802,-1.804929,41.220245,-26.709585,48.327236,-22.944929
3.200000,98.772179,-1.807873,45.051445,-26.546711,58.603786,-22.919451
3.206250,91.899704,-1.810405,48.141884,-26.366957,67.038727,-22.967621
3.212500,82.602859,-1.812758,50.074730,-26.184265,73.318634,-23.097759
3.218750,71.001625,-1.815328,50.538769,-26.008720,77.223152,-23.291998
3.225000,57.334579,-1.817725,51.532898,-25.834627,78.375305,-23.495485
3.231250,41.944542,-1.819582,51.595123,-25.662003,76.944420,-23.716642
3.237500,25.256945,-1.821150,49.233395,-25.490700,74.937904,-23.947596
3.243750,7.759817,-1.823009,46.555332,-25.298635,70.773071,-24.165201
3.250000,-10.014336,-1.825469,43.434471,-25.126675,65.054642,-24.350626
3.256250,-27.514908,-1.828083,39.518478,-24.986162,58.333927,-24.502611
3.262500,-44.207279,-1.830314,35.036003,-24.861004,51.240967,-24.610218
3.268750,-59.600372,-1.832266,29.930319,-24.747686,44.472244,-24.664793
3.275000,-73.270309,-1.834325,24.079752,-24.644958,38.611034,-24.666527
3.281250,-84.877441,-1.836786,17.375181,-24.543808,34.162472,-24.622660
3.287500,-94.182732,-1.839639,9.728290,-24.431547,31.511082,-24.546574
3.293750,-101.062119,-1.842596,1.099867,-24.270100,30.912687,-24.439503
3.300000,-105.515533,-1.845452,-6.329132,-24.103159,32.525043,-24.302637
3.306250,-107.663635,-1.848053,-14.982934,-23.969795,36.326714,-24.162386
3.312500,-107.744446,-1.850363,-23.638781,-23.849937,42.139111,-24.049847
3.318750,-106.099495,-1.852625,-32.005985,-23.751331,49.701244,-23.986185
3.325000,-103.156334,-1.854639,-39.822701,-23.691189,58.665546,-23.982100
3.331250,-99.406204,-1.856300,-46.828972,-23.693821,68.601242,-24.040646
3.337500,-95.382118,-1.857569,-52.842548,-23.827341,78.995155,-24.160036
3.343750,-89.463188,-1.858425,-57.871525,-23.988110,89.308388,-24.325283
3.350000,-83.544754,-1.858907,-62.294296,-24.209576,97.144699,-24.480867
3.356250,-77.626968,-1.859082,-65.724258,-24.534307,105.734421,-24.680454
3.362500,-71.711151,-1.859062,-66.439026,-24.984339,111.978546,-24.931377
3.368750,-65.797302,-1.858770,-66.081596,-25.540941,116.006126,-25.222431
3.375000,-59.883919,-1.857887,-64.531937,-26.177284,117.418015,-25.599192
3.381250,-53.972443,-1.856604,-61.804962,-26.859369,116.042023,-25.935444
3.387500,-48.067616,-1.855722,-57.992104,-27.548729,112.517517,-26.259190
3.393750,-42.168777,-1.855659,-53.254898,-28.200474,106.278572,-26.563078
3.400000,-36.272144,-1.855920,-47.814568,-28.772108,97.887550,-26.839581
3.406250,-30.374691,-1.856009,-42.002811,-29.242409,88.349037,-27.119516
3.412500,-24.477423,-1.856290,-36.150948,-29.586302,78.331161,-27.368998
3.418750,-18.585081,-1.857436,-28.319878,-29.782200,66.471298,-27.566498
3.425000,-12.695592,-1.859572,-22.053289,-29.825665,55.056858,-27.706160
3.431250,-6.803133,-1.861839,-15.500542,-29.732075,44.519588,-27.793699
3.437500,-0.906734,-1.864012,-8.918328,-29.485722,35.313652,-27.832474
3.443750,4.989544,-1.866846,-2.327960,-29.084345,28.124363,-27.771889
3.450000,10.884299,-1.870611,3.755587,-28.573584,21.227947,-27.640213
3.456250,16.783094,-1.874611,9.164644,-27.992617,16.404594,-27.450672
3.462500,22.690407,-1.877982,13.896696,-27.384901,13.360772,-27.205303
3.468750,28.602802,-1.880709,18.034369,-26.796265,11.780610,-26.901983
3.475000,34.515430,-1.883201,21.685820,-26.292471,11.313432,-26.555792
3.481250,40.427521,-1.885545,25.107397,-25.826096,11.565849,-26.182009
3.487500,46.338932,-1.887968,27.044106,-25.426832,12.174736,-25.775124
3.493750,52.248543,-1.890796,28.874542,-25.131042,12.701885,-25.342768
3.500000,58.157207,-1.894037,30.428904,-24.943769,12.710984,-24.896832
3.506250,64.068817,-1.897050,31.607254,-24.850637,11.872762,-24.447678
3.512500,69.984299,-1.899253,32.314690,-24.818943,9.916980,-24.004538
3.518750,75.899841,-1.901246,32.526196,-24.754820,6.640175,-23.572651
3.525000,81.809097,-1.904120,32.405231,-24.739267,1.891089,-23.158445
3.531250,87.713852,-1.908097,32.520081,-24.726767,-2.307205,-22.776203
3.537500,93.621033,-1.912307,32.524147,-24.681684,-7.409896,-22.442352
3.543750,97.639236,-1.916218,32.660824,-24.593805,-12.994073,-22.152647
3.550000,101.386940,-1.920323,33.265522,-24.436586,-18.775015,-21.870899
3.556250,104.328003,-1.925139,32.784271,-24.211327,-24.276432,-21.543777
3.562500,105.974060,-1.930263,32.923328,-23.947165,-29.203659,-21.302162
3.568750,105.904793,-1.934583,33.337254,-23.670870,-32.351929,-21.131954
3.575000,103.779289,-1.937519,33.750771,-23.409668,-34.715290,-21.033255
3.581250,99.354515,-1.939435,33.877007,-23.197821,-36.030151,-21.020292
3.587500,92.504646,-1.940915,33.459747,-23.071312,-36.312531,-21.052898
3.593750,83.229446,-1.941989,32.390335,-23.019579,-35.438511,-21.153578
3.600000,71.654724,-1.942026,30.604481,-23.055170,-33.252670,-21.337025
3.606250,58.017399,-1.940716,29.953781,-23.191454,-29.911547,-21.596853
3.612500,42.653217,-1.938506,28.984905,-23.414053,-25.690258,-21.906940
3.618750,25.985935,-1.935909,28.105219,-23.740068,-20.985722,-22.242859
3.625000,8.509337,-1.932673,27.424974,-24.180887,-16.584171,-22.645510
3.631250,-9.242914,-1.928599,27.549955,-24.699020,-10.684690,-23.077995
3.637500,-26.727251,-1.924188,28.787836,-25.259094,-5.010021,-23.512480
3.643750,-43.415432,-1.920116,31.276806,-25.823858,0.412499,-23.928844
3.650000,-58.814289,-1.916736,33.153290,-26.348652,5.497507,-24.309895
3.656250,-72.493370,-1.913920,35.978218,-26.757896,10.157934,-24.638691
3.662500,-84.111183,-1.911876,38.930065,-27.097162,14.295997,-24.910706
3.668750,-93.430252,-1.910751,42.919991,-27.344896,17.770224,-25.132610
3.675000,-100.326653,-1.910259,46.278313,-27.472712,20.495312,-25.303001
3.681250,-104.798050,-1.909902,48.730145,-27.477856,22.417168,-25.420052
3.687500,-106.967926,-1.910064,50.032631,-27.373112,23.459568,-25.486916
3.693750,-107.076141,-1.911462,50.038841,-27.184422,23.569515,-25.512636
3.700000,-105.461685,-1.913985,48.755276,-26.917044,22.751974,-25.508364
3.706250,-102.545113,-1.916726,46.328014,-26.589396,21.143433,-25.466587
3.712500,-98.817001,-1.919192,42.751812,-26.239895,18.958279,-25.381054
3.718750,-94.815300,-1.921960,36.317066,-25.896128,16.346230,-25.256342
3.725000,-88.920326,-1.925367,28.947485,-25.574181,13.642256,-25.108969
3.731250,-83.023262,-1.928812,20.373928,-25.318350,11.449854,-24.976484
3.737500,-77.121300,-1.931796,12.536947,-25.151695,10.182622,-24.870941
3.743750,-71.216927,-1.934484,4.182071,-25.060673,10.250056,-24.816015
3.750000,-65.313675,-1.937235,-4.133224,-25.033205,10.240278,-24.725525
3.756250,-59.411869,-1.939945,-12.013963,-25.064724,10.149867,-24.620337
3.762500,-53.508820,-1.942396,-19.035324,-25.134487,11.298761,-24.500448
3.768750,-47.605846,-1.944875,-24.762041,-25.206772,13.422635,-24.415131
3.775000,-41.704460,-1.947641,-28.961107,-25.293066,16.068275,-24.352961
3.781250,-35.803192,-1.950461,-31.523134,-25.379982,18.634586,-24.298523
3.787500,-29.900646,-1.952987,-32.097389,-25.447607,20.759426,-24.244999
3.793750,-23.997942,-1.955618,-30.597837,-25.510469,22.133137,-24.195984
3.800000,-18.096943,-1.958629,-28.945765,-25.513573,22.561962,-24.143822
3.806250,-12.196705,-1.961979,-24.790007,-25.429924,22.061518,-24.052570
3.812500,-6.294924,-1.965502,-19.647753,-25.299683,20.497984,-23.930550
3.818750,-0.392630,-1.969342,-14.059424,-25.140200,17.760948,-23.787594
3.825000,5.510308,-1.973492,-8.565593,-24.965385,13.981688,-23.631174
3.831250,11.417564,-1.977330,-1.513893,-24.789774,9.427146,-23.472179
3.837500,17.328291,-1.980632,5.280927,-24.627171,4.420375,-23.347685
3.843750,23.238838,-1.984038,11.971845,-24.472744,-0.697507,-23.211691
3.850000,29.146431,-1.987941,16.875298,-24.320501,-6.617971,-23.046370
3.856250,35.055130,-1.991626,21.667179,-24.179861,-12.143344,-22.891127
3.862500,40.967850,-1.994582,25.927946,-24.048883,-17.255995,-22.754982
3.868750,46.880085,-1.997393,29.326706,-23.914553,-21.935835,-22.634789
3.875000,52.785660,-2.001283,31.544636,-23.754864,-26.208206,-22.519590
3.881250,58.687084,-2.006400,32.224358,-23.575550,-30.143042,-22.393358
3.887500,64.592148,-2.011655,30.976498,-23.378239,-33.928967,-22.260540
3.893750,70.503761,-2.016423,27.721766,-23.145615,-37.821182,-22.126297
3.900000,76.417076,-2.021456,24.537619,-22.867279,-41.951389,-21.982954
3.906250,82.327217,-2.027586,19.975878,-22.543060,-44.626678,-21.828598
3.912500,88.237511,-2.034702,14.507872,-22.174423,-47.715813,-21.658779
3.918750,94.154549,-2.042210,8.594424,-21.769140,-50.928089,-21.461084
3.925000,98.185097,-2.049522,2.606390,-21.354668,-54.021511,-21.207537
3.931250,101.950592,-2.056429,-3.114664,-20.956163,-57.050179,-20.987675
3.937500,104.917015,-2.062887,-8.143006,-20.594208,-57.830624,-20.798037
3.943750,106.591522,-2.068684,-12.152259,-20.291840,-57.433834,-20.647238
3.950000,106.548332,-2.073356,-14.920548,-20.070921,-55.392654,-20.548672
3.956250,104.446259,-2.076329,-16.323860,-19.949736,-51.349960,-20.518112
3.962500,100.045288,-2.077580,-16.305561,-19.938389,-45.056252,-20.567738
3.968750,93.220612,-2.077377,-14.860560,-20.034456,-36.373619,-20.705969
3.975000,83.969215,-2.075835,-13.939098,-20.204220,-25.305412,-20.943569
3.981250,72.411613,-2.073026,-9.851984,-20.496750,-12.014331,-21.309927
3.987500,58.783699,-2.069084,-5.508272,-20.897217,1.892542,-21.717508
3.993750,43.423923,-2.064307,-0.231671,-21.361443,17.065125,-22.228060
4.000000,26.758772,-2.058893,5.335875,-21.884926,32.699856,-22.849291
4.006250,9.280770,-2.052844,10.844902,-22.451563,47.939564,-23.611677
4.012500,-8.479897,-2.046634,16.026808,-23.033321,61.722599,-24.373272
4.018750,-25.978897,-2.041163,20.631475,-23.597380,74.697662,-25.109491
4.025000,-42.682720,-2.036581,24.373882,-24.128696,84.933128,-25.855961
4.031250,-58.094193,-2.032461,29.117197,-24.617136,93.339165,-26.616747
4.037500,-71.784874,-2.028944,31.492725,-25.041763,99.037346,-27.337839
4.043750,-83.416756,-2.026673,33.543026,-25.390024,102.311691,-27.989271
4.050000,-92.751213,-2.025792,35.121433,-25.661695,103.558685,-28.553926
4.056250,-99.660683,-2.025273,36.159817,-25.847057,103.303391,-29.022497
4.062500,-104.142212,-2.024524,36.732632,-25.928339,100.348145,-29.361469
4.068750,-106.324097,-2.024503,36.786766,-25.922487,97.093231,-29.557367
4.075000,-106.448402,-2.026439,36.340015,-25.846670,93.595589,-29.617792
4.081250,-104.848785,-2.029634,35.572151,-25.714186,90.082642,-29.547094
4.087500,-101.942886,-2.032672,34.739616,-25.534033,84.717514,-29.346270
4.093750,-98.222687,-2.035061,34.145164,-25.315050,79.227654,-29.021526
4.100000,-94.230133,-2.037683,32.207687,-25.071850,73.468704,-28.593355
4.106250,-88.346825,-2.041145,30.921730,-24.808649,67.343086,-28.100653
4.112500,-82.463905,-2.045178,30.189995,-24.517950,60.932140,-27.502279
4.118750,-76.577942,-2.049519,29.755394,-24.215548,54.409889,-26.833624
4.125000,-70.690216,-2.054519,29.326084,-23.916826,47.512924,-26.135160
4.131250,-64.801376,-2.060124,28.733177,-23.630947,40.390774,-25.437338
4.137500,-58.907887,-2.065832,27.862810,-23.361666,33.239941,-24.763411
4.143750,-53.007919,-2.071259,26.630192,-23.107885,26.275238,-24.131046
4.150000,-47.105339,-2.076703,24.949411,-22.868402,19.687981,-23.553343
4.156250,-41.202450,-2.082599,24.915625,-22.639788,13.651849,-23.030567
4.162500,-35.298004,-2.088857,25.120983,-22.410995,8.311896,-22.575521
4.168750,-29.390276,-2.095241,24.142151,-22.171904,5.364350,-22.191475
4.175000,-23.478355,-2.101745,23.848993,-21.940763,2.265875,-21.876499
4.181250,-17.562529,-2.108205,24.043432,-21.722551,0.724241,-21.623728
4.187500,-11.642293,-2.114359,24.526983,-21.522079,0.614813,-21.373449
4.193750,-5.717431,-2.120151,25.075594,-21.345510,1.976589,-21.234209
4.200000,0.211242,-2.125333,25.459785,-21.200775,2.929075,-21.179367
4.206250,6.143288,-2.129583,25.464771,-21.094870,4.132071,-21.186766
4.212500,12.077653,-2.132738,24.925505,-21.025023,6.616150,-21.213284
4.218750,18.010965,-2.135133,25.903639,-20.980679,8.152010,-21.263533
4.225000,23.940378,-2.137233,24.990736,-20.957163,8.734624,-21.337671
4.231250,29.865662,-2.139179,24.167091,-20.943130,8.216928,-21.421627
4.237500,35.788567,-2.140853,23.223087,-20.938335,6.432403,-21.492273
4.243750,41.708778,-2.142242,21.824493,-20.958899,5.297053,-21.559238
4.250000,47.627666,-2.143258,19.810633,-20.989973,3.191414,-21.621603
4.256250,53.544628,-2.143849,17.037605,-21.013979,0.641246,-21.662954
4.262500,59.457073,-2.144516,13.275245,-21.016626,-1.940779,-21.672041
4.268750,65.362434,-2.145905,8.323015,-20.987139,-4.200516,-21.638807
4.275000,71.261269,-2.148440,2.001405,-20.918364,-5.825044,-21.556150
4.281250,77.159569,-2.151585,-3.684205,-20.797665,-6.544160,-21.411928
4.287500,83.060150,-2.155170,-10.263371,-20.622725,-6.158039,-21.177551
4.293750,88.960205,-2.159906,-17.479677,-20.416168,-4.761235,-20.923109
4.300000,94.860054,-2.165977,-24.959532,-20.179855,-2.632706,-20.651203
4.306250,98.871918,-2.172234,-32.259838,-19.917091,0.423119,-20.359215
4.312500,102.622520,-2.177649,-39.063934,-19.638731,4.200345,-20.056929
4.318750,105.574493,-2.182574,-45.102245,-19.359228,8.432984,-19.757843
4.325000,107.227394,-2.187981,-50.172371,-19.099707,12.815410,-19.479824
4.331250,107.156624,-2.193772,-54.128635,-18.883144,17.038273,-19.237654
4.337500,105.028343,-2.198864,-56.872528,-18.754862,20.829321,-19.034237
4.343750,100.606316,-2.202759,-58.414654,-18.631866,23.967148,-18.812054
4.350000,93.764595,-2.205733,-57.781578,-18.577827,25.987135,-18.694012
4.356250,84.500946,-2.207621,-55.843380,-18.630571,28.542292,-18.661625
4.362500,72.937363,-2.207923,-52.405064,-18.788992,30.398243,-18.724852
4.368750,59.308525,-2.207041,-47.556606,-19.045425,31.909262,-18.910263
4.375000,43.948696,-2.205728,-41.501415,-19.386589,33.329258,-19.158949
4.381250,27.285326,-2.203938,-34.514629,-19.791388,34.698528,-19.451288
4.387500,9.814975,-2.201023,-26.919813,-20.233469,36.826233,-19.795132
4.393750,-7.931098,-2.197241,-19.130116,-20.696409,38.038242,-20.218454
4.400000,-25.413740,-2.193789,-11.602327,-21.167364,39.893013,-20.696623
4.406250,-42.099762,-2.190806,-2.539454,-21.628660,41.970722,-21.203255
4.412500,-57.491096,-2.187453,4.475171,-22.066702,43.979382,-21.719713
4.418750,-71.159912,-2.183853,11.286316,-22.475590,45.701939,-22.232630
4.425000,-82.770645,-2.180898,17.717985,-22.794821,47.053944,-22.694176
4.431250,-92.087456,-2.179023,23.603802,-23.023182,48.046101,-23.076097
4.437500,-98.982819,-2.177518,28.555058,-23.172480,48.445885,-23.375006
4.443750,-103.454369,-2.176205,32.520618,-23.250044,48.250656,-23.584032
4.450000,-105.628029,-2.175962,35.567047,-23.257635,47.588291,-23.695757
4.456250,-105.741806,-2.177222,37.823715,-23.200186,46.628582,-23.708891
4.462500,-104.130058,-2.179242,39.492134,-23.087641,45.553284,-23.629442
4.468750,-101.215599,-2.181575,40.861881,-22.939409,44.583298,-23.479961
4.475000,-97.493927,-2.184657,40.417000,-22.754292,44.016907,-23.245836
4.481250,-93.499306,-2.188606,40.319344,-22.525391,42.580093,-22.913702
4.487500,-87.604439,-2.192554,40.234695,-22.284765,41.804237,-22.529898
4.493750,-81.704308,-2.196174,39.970791,-22.053883,41.389561,-22.124504
4.500000,-75.805191,-2.200665,39.461647,-21.843662,41.119926,-21.718895
4.506250,-69.908943,-2.206757,38.681446,-21.654753,40.788197,-21.327717
4.512500,-64.007553,-2.215270,37.623024,-21.474945,40.176025,-20.960430
4.518750,-58.080063,-2.220671,36.284748,-21.252035,39.038239,-20.626760
4.525000,-52.157291,-2.225129,34.681187,-21.064800,37.058189,-20.362022
4.531250,-46.235382,-2.229874,33.935131,-20.927149,33.786823,-20.155045
4.537500,-40.315540,-2.235202,33.511753,-20.793909,30.588150,-19.982996
4.543750,-34.390049,-2.240317,32.004536,-20.654144,25.957367,-19.857023
4.550000,-28.456087,-2.244368,31.142183,-20.534216,20.222620,-19.753500
4.556250,-22.516876,-2.247530,30.633957,-20.456850,13.778296,-19.730835
4.562500,-16.576092,-2.250176,30.263643,-20.441099,7.347370,-19.807096
4.568750,-10.634391,-2.252306,29.805391,-20.512993,0.899636,-19.980108
4.575000,-4.690039,-2.253589,29.030357,-20.727011,-5.379325,-20.195807
4.581250,1.257932,-2.253690,27.750711,-21.009817,-11.182735,-20.465948
4.587500,7.206229,-2.252518,24.712263,-21.376190,-15.998215,-20.802784
4.593750,13.152870,-2.250384,22.772348,-21.846655,-19.643303,-21.199427
4.600000,19.095726,-2.247465,20.066626,-22.426107,-22.069349,-21.635645
4.606250,25.034822,-2.243521,16.472532,-23.182812,-23.419146,-22.122461
4.612500,30.969231,-2.238603,12.916828,-23.974527,-23.964342,-22.650917
4.618750,36.893909,-2.233758,8.742911,-24.839455,-23.771355,-23.198412
4.625000,42.806664,-2.229685,4.304733,-25.758631,-23.123306,-23.749407
4.631250,48.713078,-2.225824,-0.111785,-26.698111,-22.342049,-24.290823
4.637500,54.618603,-2.221144,-4.242223,-27.614473,-21.787848,-24.805849
4.643750,60.518974,-2.216187,-7.840487,-28.454981,-21.825939,-25.259449
4.650000,66.406105,-2.212507,-12.600277,-29.158268,-22.805937,-25.603100
4.656250,72.278496,-2.210915,-14.658601,-29.695766,-25.111183,-25.844700
4.662500,78.145226,-2.210947,-16.059034,-30.058947,-27.313017,-26.005934
4.668750,84.010910,-2.212256,-16.672863,-30.216972,-30.790295,-26.060095
4.675000,89.876343,-2.215088,-16.522749,-30.156929,-35.306488,-25.998711
4.681250,93.847427,-2.219276,-15.739700,-29.881214,-40.655647,-25.822491
4.687500,97.549942,-2.224187,-14.524637,-29.413187,-46.614937,-25.542511
4.693750,100.450287,-2.230088,-13.123617,-28.790825,-52.917191,-25.170401
4.700000,102.052696,-2.237958,-11.829597,-28.042322,-59.219555,-24.708126
4.706250,101.933022,-2.247555,-11.127625,-27.171865,-65.152145,-24.148163
4.712500,99.761925,-2.257046,-11.265682,-26.221279,-70.277473,-23.543041
4.718750,95.305992,-2.265262,-12.586038,-25.266636,-76.008598,-22.949804
