Anritsu VNA Frequency[GHz],S21[deg],S21[dB],S11[deg],S11[dB],S22[deg],S22[dB]
1338106997.11,2012_05_27_09:23:17,+40.579,+10.254,+54.932,+10.264,+13.898,+13.707,+14.003,+13.753,10.356435,-15.918
3.006250,34.152409,-1.752729,59.330997,-26.680401,-79.999657,-27.423130
3.012500,34.152409,-1.752729,59.330997,-26.680401,-79.999657,-27.423130
3.018750,34.152409,-1.752729,59.330997,-26.680401,-79.999657,-27.423130
3.025000,34.152409,-1.752729,59.330997,-26.680401,-79.999657,-27.423130
3.031250,34.152409,-1.752729,59.330997,-26.680401,-79.999657,-27.423130
3.037500,34.152409,-1.752729,59.330997,-26.680401,-79.999657,-27.423130
3.043750,34.152409,-1.752729,59.330997,-26.680401,-79.999657,-27.423130
3.050000,34.152409,-1.752729,59.330997,-26.680401,-79.999657,-27.423130
3.056250,34.152409,-1.752729,59.330997,-26.680401,-79.999657,-27.423130
3.062500,34.152409,-1.752729,59.330997,-26.680401,-79.999657,-27.423130
3.068750,34.152409,-1.752729,59.330997,-26.680401,-79.999657,-27.423130
3.075000,34.152409,-1.752729,59.330997,-26.680401,-79.999657,-27.423130
3.081250,34.152409,-1.752729,59.330997,-26.680401,-79.999657,-27.423130
3.087500,34.152409,-1.752729,59.330997,-26.680401,-79.999657,-27.423130
3.093750,34.152409,-1.754474,59.330997,-26.480446,-79.999657,-27.173857
3.100000,40.059109,-1.756529,56.662792,-26.330540,-82.016785,-26.942144
3.106250,45.965466,-1.758582,53.109337,-26.252689,-82.414604,-26.729134
3.112500,51.872486,-1.760640,49.034260,-26.266853,-80.842041,-26.506992
3.118750,57.778679,-1.762864,43.039265,-26.311991,-79.130630,-26.207743
3.125000,63.683865,-1.765234,38.246826,-26.358192,-75.093391,-25.947212
3.131250,69.588585,-1.767643,33.867283,-26.430643,-68.937447,-25.659277
3.137500,75.492287,-1.770406,30.157312,-26.531105,-61.058308,-25.335009
3.143750,81.394356,-1.773718,27.323519,-26.651274,-51.641384,-24.982374
3.150000,87.297432,-1.777303,25.546337,-26.775824,-40.844643,-24.614298
3.156250,93.203842,-1.780675,24.948330,-26.890364,-28.838911,-24.248835
3.162500,97.218002,-1.783742,25.593964,-26.982101,-15.822815,-23.909620
3.168750,100.958725,-1.786942,27.503796,-27.043819,-3.902873,-23.645117
3.175000,103.893158,-1.790435,30.722763,-27.053259,8.379676,-23.400755
3.181250,105.530296,-1.794020,33.489475,-26.997890,20.906485,-23.179415
3.187500,105.445473,-1.797459,37.270733,-26.895061,32.391521,-23.011793
3.193750,103.296959,-1.800691,41.362656,-26.757063,42.410320,-22.914791
3.200000,98.847404,-1.803579,45.196640,-26.592087,50.630516,-22.890884
3.206250,91.974678,-1.806116,48.289970,-26.410360,56.772369,-22.941496
3.212500,82.677414,-1.808499,50.225010,-26.226007,60.636990,-23.072937
3.218750,71.075935,-1.811121,50.687958,-26.049677,62.120426,-23.269161
3.225000,57.408470,-1.813581,51.680298,-25.874945,60.974014,-23.474531
3.231250,42.017963,-1.815543,51.738049,-25.702106,57.479317,-23.697733
3.237500,25.329802,-1.817153,49.372635,-25.531023,53.748512,-23.930681
3.243750,7.832130,-1.819082,46.696682,-25.338549,48.285099,-24.150311
3.250000,-9.942476,-1.821588,43.569733,-25.165602,41.756336,-24.337656
3.256250,-27.443409,-1.824205,39.641201,-25.024389,34.758209,-24.491693
3.262500,-44.136028,-1.826472,35.152382,-24.898561,27.933487,-24.601282
3.268750,-59.529263,-1.828413,30.041424,-24.784122,21.965515,-24.657600
3.275000,-73.199448,-1.830456,24.188410,-24.680159,17.399738,-24.660246
3.281250,-84.806847,-1.832886,17.480251,-24.577414,14.674583,-24.616961
3.287500,-94.112099,-1.835658,9.826486,-24.463205,14.087360,-24.541925
3.293750,-100.991547,-1.838544,1.192656,-24.298040,15.790380,-24.435066
3.300000,-105.444679,-1.841351,-6.242786,-24.129461,19.832754,-24.298023
3.306250,-107.593124,-1.843881,-14.907822,-23.993757,26.068918,-24.156897
3.312500,-107.674004,-1.846229,-23.574160,-23.871748,34.194424,-24.043346
3.318750,-106.029343,-1.848443,-31.950480,-23.771366,43.832020,-23.978765
3.325000,-103.086113,-1.850444,-39.776382,-23.709585,54.534489,-23.973419
3.331250,-99.336159,-1.852126,-46.794170,-23.712448,65.784111,-24.030247
3.337500,-95.312424,-1.853439,-52.824585,-23.848972,77.000961,-24.147896
3.343750,-89.393616,-1.854459,-57.893188,-24.010378,87.604668,-24.312016
3.350000,-83.475403,-1.855082,-62.341850,-24.233248,97.350899,-24.466803
3.356250,-77.557877,-1.855366,-65.791832,-24.561586,105.957626,-24.665445
3.362500,-71.642220,-1.855544,-66.543755,-25.016666,112.215714,-24.915760
3.368750,-65.728836,-1.855455,-66.230728,-25.578663,116.255951,-25.206814
3.375000,-59.815777,-1.854771,-64.727455,-26.220978,117.674538,-25.583508
3.381250,-53.904823,-1.853745,-62.048363,-26.908621,116.297081,-25.920174
3.387500,-47.999958,-1.853056,-58.286514,-27.603315,112.773262,-26.243952
3.393750,-42.101437,-1.853167,-53.598736,-28.259905,106.529587,-26.548546
3.400000,-36.205559,-1.853607,-48.202477,-28.835352,98.132935,-26.824856
3.406250,-30.308159,-1.853886,-42.431942,-29.308414,88.580109,-27.104719
3.412500,-24.411293,-1.854275,-36.609795,-29.653822,78.542641,-27.353832
3.418750,-18.519146,-1.855556,-28.801382,-29.849644,66.658493,-27.550806
3.425000,-12.629971,-1.857768,-22.548040,-29.891903,55.218517,-27.689669
3.431250,-6.738054,-1.860106,-15.993915,-29.795507,44.656487,-27.776310
3.437500,-0.841635,-1.862359,-9.397609,-29.545155,35.424831,-27.814358
3.443750,5.054311,-1.865198,-2.777462,-29.138884,28.210869,-27.752539
3.450000,10.948882,-1.868996,3.340657,-28.622637,21.290588,-27.619625
3.456250,16.847546,-1.872958,8.794684,-28.035543,16.447577,-27.429432
3.462500,22.754879,-1.876280,13.580680,-27.421316,13.386333,-27.184208
3.468750,28.667507,-1.878986,17.778954,-26.826714,11.794895,-26.880600
3.475000,34.580479,-1.881461,21.496048,-26.316513,11.324711,-26.534990
3.481250,40.492626,-1.883802,24.990135,-25.845108,11.575557,-26.162029
3.487500,46.404484,-1.886193,26.989513,-25.441692,12.183159,-25.756487
3.493750,52.314613,-1.888974,28.880062,-25.142666,12.716903,-25.325787
3.500000,58.224178,-1.892219,30.485193,-24.952999,12.738470,-24.881355
3.506250,64.136406,-1.895255,31.703049,-24.858683,11.914955,-24.433847
3.512500,70.053078,-1.897484,32.439438,-24.825283,9.974813,-23.992601
3.518750,75.969849,-1.899531,32.670456,-24.757408,6.715355,-23.562325
3.525000,81.880180,-1.902469,32.581856,-24.741304,1.983241,-23.149031
3.531250,87.786095,-1.906502,32.706287,-24.728968,-2.196645,-22.767883
3.537500,93.694275,-1.910842,32.701511,-24.683477,-7.285618,-22.434731
3.543750,97.713448,-1.914861,32.831474,-24.595154,-12.855196,-22.145344
3.550000,101.462059,-1.919056,33.431477,-24.437420,-18.625065,-21.863344
3.556250,104.404037,-1.924001,32.938572,-24.211901,-24.117058,-21.535854
3.562500,106.050705,-1.929226,33.060734,-23.948009,-29.030418,-21.293566
3.568750,105.981544,-1.933661,33.459167,-23.672419,-32.173256,-21.122463
3.575000,103.856003,-1.936686,33.856106,-23.412018,-34.534454,-21.023304
3.581250,99.431206,-1.938669,33.968494,-23.200958,-35.848976,-21.009995
3.587500,92.580894,-1.940245,33.538261,-23.076090,-36.131344,-21.042286
3.593750,83.304901,-1.941385,32.454208,-23.025990,-35.261791,-21.142748
3.600000,71.729164,-1.941460,30.660456,-23.063259,-33.079029,-21.326218
3.606250,58.091129,-1.940167,30.001566,-23.201111,-29.743141,-21.586363
3.612500,42.726204,-1.938002,29.021627,-23.425495,-25.531773,-21.897217
3.618750,26.057644,-1.935410,28.129095,-23.752956,-20.839512,-22.233690
3.625000,8.579965,-1.932165,27.430950,-24.195061,-16.454266,-22.637667
3.631250,-9.172997,-1.928038,27.541668,-24.714157,-10.566728,-23.071806
3.637500,-26.658020,-1.923570,28.764477,-25.274612,-4.906638,-23.507332
3.643750,-43.346733,-1.919475,31.235474,-25.839661,0.505177,-23.924704
3.650000,-58.745792,-1.916002,33.093201,-26.363987,5.578347,-24.306845
3.656250,-72.425308,-1.913081,35.897038,-26.773657,10.225269,-24.636614
3.662500,-84.042931,-1.910875,38.821136,-27.112427,14.350596,-24.909279
3.668750,-93.361580,-1.909563,42.792099,-27.359695,17.817060,-25.131132
3.675000,-100.257568,-1.908862,46.130165,-27.487144,20.536329,-25.300972
3.681250,-104.728127,-1.908267,48.565083,-27.491880,22.453506,-25.417376
3.687500,-106.896797,-1.908147,49.855347,-27.387001,23.492144,-25.483269
3.693750,-107.004097,-1.909291,49.855709,-27.198481,23.600395,-25.507944
3.700000,-105.388680,-1.911530,48.571194,-26.931690,22.784737,-25.502047
3.706250,-102.471046,-1.913937,46.151184,-26.604469,21.175900,-25.458431
3.712500,-98.741791,-1.916127,42.585415,-26.256212,18.995197,-25.371016
3.718750,-94.738701,-1.918630,36.167728,-25.913698,16.389351,-25.244516
3.725000,-88.842514,-1.921797,28.821527,-25.593098,13.690225,-25.095316
3.731250,-82.944458,-1.925058,20.271818,-25.338898,11.502342,-24.961445
3.737500,-77.041481,-1.927856,12.460015,-25.173899,10.241032,-24.855457
3.743750,-71.136215,-1.930411,4.135172,-25.084162,10.316724,-24.799692
3.750000,-65.232445,-1.933044,-4.152380,-25.057760,10.324018,-24.709223
3.756250,-59.330147,-1.935724,-12.006764,-25.090250,10.247434,-24.603962
3.762500,-53.426704,-1.938203,-19.006035,-25.161139,11.410819,-24.484596
3.768750,-47.523499,-1.940669,-24.713541,-25.233406,13.552592,-24.400055
3.775000,-41.621933,-1.943495,-28.894810,-25.319286,16.221333,-24.339037
3.781250,-35.720737,-1.946391,-31.447945,-25.405245,18.811277,-24.285946
3.787500,-29.818480,-1.949024,-32.015327,-25.471359,20.961393,-24.233826
3.793750,-23.916166,-1.951746,-30.511152,-25.532946,22.363094,-24.185917
3.800000,-18.015728,-1.954869,-28.859095,-25.532682,22.821272,-24.134481
3.806250,-12.115871,-1.958325,-24.703381,-25.446220,22.351374,-24.043568
3.812500,-6.214853,-1.961947,-19.562475,-25.312902,20.815174,-23.921457
3.818750,-0.313090,-1.965907,-13.983936,-25.150021,18.101116,-23.778889
3.825000,5.589539,-1.970139,-8.499646,-24.971672,14.339425,-23.622183
3.831250,11.496142,-1.974096,-1.458291,-24.792253,9.799171,-23.462059
3.837500,17.406754,-1.977472,5.324884,-24.625994,4.803462,-23.335503
3.843750,23.316992,-1.980926,12.005835,-24.468294,-0.308307,-23.197996
3.850000,29.224482,-1.984888,16.897720,-24.313219,-6.228214,-23.030893
3.856250,35.133209,-1.988649,21.679443,-24.170233,-11.759990,-22.873741
3.862500,41.045956,-1.991669,25.929741,-24.037617,-16.885550,-22.735170
3.868750,46.958115,-1.994532,29.318443,-23.902239,-21.582500,-22.612425
3.875000,52.863853,-1.998420,31.523411,-23.742287,-25.875984,-22.494370
3.881250,58.765404,-2.003526,32.189838,-23.563135,-29.836765,-22.365656
3.887500,64.670547,-2.008781,30.926767,-23.367098,-33.646935,-22.230740
3.893750,70.582146,-2.013538,27.658667,-23.135723,-37.566620,-22.094624
3.900000,76.495224,-2.018527,24.463488,-22.859081,-41.723373,-21.949961
3.906250,82.405022,-2.024576,19.890913,-22.537251,-44.422428,-21.794601
3.912500,88.314972,-2.031584,14.410761,-22.171669,-47.530788,-21.624277
3.918750,94.231316,-2.039023,8.488629,-21.769440,-50.759251,-21.425726
3.925000,98.261299,-2.046221,2.491061,-21.357853,-53.866081,-21.172279
3.931250,102.026421,-2.053072,-3.240216,-20.962919,-56.913666,-20.953121
3.937500,104.992500,-2.059469,-8.275898,-20.604181,-57.707157,-20.764544
3.943750,106.666771,-2.065207,-12.287560,-20.304693,-57.317825,-20.614893
3.950000,106.623367,-2.069866,-15.056754,-20.086834,-55.283066,-20.517694
3.956250,104.521378,-2.072835,-16.457102,-19.968689,-51.248814,-20.488567
3.962500,100.120789,-2.074146,-16.431793,-19.960054,-44.964058,-20.539351
3.968750,93.296143,-2.074028,-14.978167,-20.058247,-36.291649,-20.678925
3.975000,84.044945,-2.072612,-14.044804,-20.228436,-25.233541,-20.917557
3.981250,72.487686,-2.069922,-9.940228,-20.522640,-11.956645,-21.285357
3.987500,58.860161,-2.066146,-5.584572,-20.924124,1.926535,-21.693756
3.993750,43.500862,-2.061562,-0.290640,-21.388062,17.079182,-22.205122
4.000000,26.836008,-2.056341,5.294746,-21.910934,32.697502,-22.826426
4.006250,9.357991,-2.050500,10.819636,-22.475943,47.913074,-23.590462
4.012500,-8.402638,-2.044458,16.015614,-23.055902,61.655052,-24.352346
4.018750,-25.901978,-2.039120,20.631927,-23.617785,74.606377,-25.089703
4.025000,-42.606190,-2.034703,24.381147,-24.146242,84.814461,-25.837078
4.031250,-58.018291,-2.030727,29.128836,-24.631586,93.190338,-26.599173
4.037500,-71.709335,-2.027323,31.504860,-25.052813,98.859642,-27.321777
4.043750,-83.341553,-2.025132,33.552845,-25.397779,102.106476,-27.974716
4.050000,-92.676598,-2.024326,35.125740,-25.665890,103.330742,-28.541235
4.056250,-99.586487,-2.023883,36.156124,-25.848019,103.057762,-29.010880
4.062500,-104.068687,-2.023182,36.719845,-25.926615,100.090431,-29.351315
4.068750,-106.250778,-2.023248,36.765713,-25.918394,96.829132,-29.548309
4.075000,-106.375023,-2.025254,36.310417,-25.840675,93.331100,-29.609308
4.081250,-104.775894,-2.028564,35.534042,-25.706984,89.824982,-29.538502
4.087500,-101.870186,-2.031716,34.691738,-25.526106,84.472549,-29.337353
4.093750,-98.150139,-2.034246,34.087811,-25.306644,78.998909,-29.011669
4.100000,-94.157715,-2.036983,32.141537,-25.063063,73.261337,-28.582548
4.106250,-88.274498,-2.040659,30.846352,-24.800604,67.161446,-28.088879
4.112500,-82.391907,-2.044889,30.108793,-24.510494,60.778625,-27.495419
4.118750,-76.505920,-2.049368,29.670561,-24.209341,54.381145,-26.825190
4.125000,-70.618492,-2.054507,29.236574,-23.912249,47.511395,-26.125446
4.131250,-64.729843,-2.060258,28.639790,-23.628170,40.414921,-25.426373
4.137500,-58.836628,-2.066067,27.763653,-23.360382,33.287201,-24.751459
4.143750,-52.937168,-2.071543,26.523396,-23.108103,26.341124,-24.118387
4.150000,-47.034386,-2.077010,24.833626,-22.870310,19.768703,-23.540260
4.156250,-41.131702,-2.082826,24.789610,-22.643700,13.742013,-23.017929
4.162500,-35.227364,-2.088972,24.981585,-22.417433,8.411744,-22.563831
4.168750,-29.319393,-2.095186,23.999062,-22.179731,5.489453,-22.181137
4.175000,-23.407288,-2.101455,23.696226,-21.950594,2.399799,-21.867580
4.181250,-17.491302,-2.107613,23.882095,-21.734428,0.861252,-21.616587
4.187500,-11.570719,-2.113400,24.358274,-21.536362,0.759047,-21.365509
4.193750,-5.645484,-2.118804,24.900700,-21.362122,2.138124,-21.227695
4.200000,0.283729,-2.123583,25.279556,-21.219685,3.101185,-21.173367
4.206250,6.216275,-2.127424,25.279802,-21.116072,4.317518,-21.181076
4.212500,12.151479,-2.130170,24.736736,-21.048452,6.816944,-21.207371
4.218750,18.085508,-2.132162,25.713305,-21.005919,8.365357,-21.256687
4.225000,24.015476,-2.133905,24.799715,-20.984184,8.960535,-21.329483
4.231250,29.941607,-2.135522,23.977060,-20.971991,8.454681,-21.411802
4.237500,35.865154,-2.136899,23.036167,-20.968699,6.678609,-21.481163
4.243750,41.786697,-2.138070,21.642624,-20.990614,5.551285,-21.546726
4.250000,47.706284,-2.138891,19.634941,-21.023228,3.451481,-21.607901
4.256250,53.623631,-2.139345,16.868988,-21.048742,0.903689,-21.648180
4.262500,59.536835,-2.139871,13.112861,-21.052412,-1.678705,-21.656719
4.268750,65.442719,-2.141182,8.167474,-21.023386,-3.940928,-21.622913
4.275000,71.341820,-2.143671,1.853082,-20.954592,-5.569659,-21.540113
4.281250,77.240372,-2.146848,-3.824116,-20.833988,-6.294261,-21.395882
4.287500,83.141014,-2.150429,-10.392425,-20.658649,-5.916492,-21.161217
4.293750,89.040924,-2.155124,-17.596918,-20.451338,-4.531617,-20.906715
4.300000,94.940277,-2.161241,-25.065008,-20.213873,-2.413930,-20.634644
4.306250,98.951881,-2.167554,-32.355747,-19.949579,0.631301,-20.342310
4.312500,102.702049,-2.172986,-39.150681,-19.669277,4.397516,-20.039522
4.318750,105.653427,-2.177953,-45.179417,-19.387617,8.619603,-19.739851
4.325000,107.306259,-2.183424,-50.240047,-19.125818,12.993237,-19.460680
4.331250,107.235130,-2.189264,-54.187538,-18.907038,17.208200,-19.217030
4.337500,105.106628,-2.194432,-56.923050,-18.779848,20.993320,-19.011652
4.343750,100.684792,-2.198406,-58.470238,-18.653465,24.124380,-18.787621
4.350000,93.843102,-2.201482,-57.822613,-18.598530,26.133259,-18.667892
4.356250,84.579369,-2.203480,-55.877934,-18.650986,28.681509,-18.633148
4.362500,73.016029,-2.203882,-52.436890,-18.810392,30.531570,-18.694048
4.368750,59.387417,-2.203101,-47.586578,-19.068377,32.032516,-18.877279
4.375000,44.027790,-2.201899,-41.530678,-19.411600,33.434113,-19.122740
4.381250,27.364382,-2.200269,-34.541264,-19.818741,34.791302,-19.412771
4.387500,9.894196,-2.197486,-26.941528,-20.263468,36.903648,-19.754009
4.393750,-7.852195,-2.193864,-19.145287,-20.728846,38.093948,-20.174700
4.400000,-25.335192,-2.190544,-11.610209,-21.202478,39.925484,-20.650290
4.406250,-42.021698,-2.187718,-2.538382,-21.666147,41.978378,-21.154556
4.412500,-57.413815,-2.184507,4.484318,-22.106300,43.961823,-21.668922
4.418750,-71.083199,-2.181079,11.303584,-22.517859,45.659668,-22.179668
4.425000,-82.694664,-2.178301,17.747223,-22.838039,46.991917,-22.639362
4.431250,-92.011963,-2.176561,23.644377,-23.066999,47.966625,-23.019989
4.437500,-98.907784,-2.175201,28.602757,-23.216553,48.353157,-23.318115
4.443750,-103.379547,-2.174041,32.576778,-23.294203,48.151054,-23.526863
4.450000,-105.553322,-2.173938,35.632217,-23.301962,47.487995,-23.638906
4.456250,-105.666794,-2.175385,37.897442,-23.244457,46.532478,-23.652723
4.462500,-104.054588,-2.177511,39.573380,-23.131649,45.466316,-23.574446
4.468750,-101.139763,-2.179936,40.947578,-22.983116,44.512245,-23.426207
4.475000,-97.417076,-2.183125,40.506012,-22.797548,43.963116,-23.193924
4.481250,-93.421349,-2.187203,40.414516,-22.568226,42.544804,-22.863903
4.487500,-87.525696,-2.191206,40.332207,-22.327364,41.790066,-22.482323
4.493750,-81.624481,-2.194914,40.070328,-22.096397,41.395676,-22.079180
4.500000,-75.723915,-2.199480,39.562347,-21.886332,41.144226,-21.675613
4.506250,-69.826935,-2.205629,38.782482,-21.697906,40.826046,-21.286568
4.512500,-63.924915,-2.212200,37.724789,-21.518496,40.222584,-20.921362
4.518750,-58.010033,-2.217716,36.388355,-21.292566,39.088650,-20.589523
4.525000,-52.086700,-2.222259,34.803326,-21.106443,37.107853,-20.326141
4.531250,-46.164211,-2.227027,34.051075,-20.968361,33.835106,-20.121078
4.537500,-40.243889,-2.232388,33.624687,-20.834757,30.627527,-19.950445
4.543750,-34.318230,-2.237519,32.119442,-20.694086,25.983755,-19.825634
4.550000,-28.384132,-2.241657,31.256680,-20.573387,20.237009,-19.723057
4.556250,-22.444784,-2.244848,30.746405,-20.495193,13.790668,-19.702471
4.562500,-16.504084,-2.247514,30.369869,-20.478870,7.351355,-19.780317
4.568750,-10.562476,-2.249677,29.903406,-20.550407,0.896606,-19.954102
4.575000,-4.618223,-2.250977,29.118464,-20.766689,-5.386490,-20.171516
4.581250,1.329223,-2.251105,27.819038,-21.048676,-11.186121,-20.443260
4.587500,7.277350,-2.249957,24.762260,-21.415306,-15.997480,-20.781946
4.593750,13.224005,-2.247893,22.810213,-21.886942,-19.636839,-21.180172
4.600000,19.166704,-2.245011,20.087971,-22.466200,-22.052706,-21.617771
4.606250,25.105375,-2.241101,16.470060,-23.219116,-23.394262,-22.105595
4.612500,31.039505,-2.236274,12.909993,-24.010059,-23.929396,-22.635149
4.618750,36.964161,-2.231492,8.724859,-24.872726,-23.730873,-23.183441
4.625000,42.876522,-2.227503,4.281720,-25.787882,-23.076096,-23.735245
4.631250,48.782806,-2.223718,-0.131325,-26.721876,-22.292786,-24.276852
4.637500,54.688095,-2.219097,-4.249795,-27.631708,-21.742607,-24.791187
4.643750,60.588413,-2.214207,-7.827557,-28.464651,-21.789034,-25.243370
4.650000,66.475395,-2.210613,-12.557965,-29.159668,-22.781755,-25.585878
4.656250,72.348038,-2.209105,-14.579893,-29.688692,-25.099863,-25.825645
4.662500,78.214996,-2.209141,-15.943594,-30.043718,-27.314512,-25.984491
4.668750,84.081039,-2.210502,-16.516310,-30.193939,-30.808825,-26.035875
4.675000,89.946693,-2.213342,-16.325422,-30.127064,-35.341599,-25.971518
4.681250,93.918388,-2.217556,-15.505129,-29.845701,-40.705990,-25.792320
4.687500,97.621124,-2.222489,-14.258335,-29.373512,-46.676571,-25.509590
4.693750,100.521996,-2.228361,-12.833313,-28.748360,-52.984299,-25.134821
4.700000,102.124863,-2.236191,-11.526362,-27.998323,-59.285088,-24.670673
4.706250,102.005714,-2.245757,-10.822540,-27.127842,-65.212975,-24.109875
4.712500,99.834969,-2.255209,-10.968107,-26.178682,-70.332291,-23.503544
4.718750,95.379196,-2.263377,-12.305883,-25.226631,-76.048645,-22.910061
