Anritsu VNA Frequency[GHz],S21[deg],S21[dB],S11[deg],S11[dB],S22[deg],S22[dB]
1338104381.28,2012_05_27_08:39:41,+40.516,+10.225,+54.803,+10.237,+13.880,+13.689,+13.985,+13.734,10.329173,-15.956
3.006250,34.100601,-1.752370,59.315670,-26.690201,-80.038017,-27.432255
3.012500,34.100601,-1.752370,59.315670,-26.690201,-80.038017,-27.432255
3.018750,34.100601,-1.752370,59.315670,-26.690201,-80.038017,-27.432255
3.025000,34.100601,-1.752370,59.315670,-26.690201,-80.038017,-27.432255
3.031250,34.100601,-1.752370,59.315670,-26.690201,-80.038017,-27.432255
3.037500,34.100601,-1.752370,59.315670,-26.690201,-80.038017,-27.432255
3.043750,34.100601,-1.752370,59.315670,-26.690201,-80.038017,-27.432255
3.050000,34.100601,-1.752370,59.315670,-26.690201,-80.038017,-27.432255
3.056250,34.100601,-1.752370,59.315670,-26.690201,-80.038017,-27.432255
3.062500,34.100601,-1.752370,59.315670,-26.690201,-80.038017,-27.432255
3.068750,34.100601,-1.752370,59.315670,-26.690201,-80.038017,-27.432255
3.075000,34.100601,-1.752370,59.315670,-26.690201,-80.038017,-27.432255
3.081250,34.100601,-1.752370,59.315670,-26.690201,-80.038017,-27.432255
3.087500,34.100601,-1.752370,59.315670,-26.690201,-80.038017,-27.432255
3.093750,34.100601,-1.754186,59.315670,-26.492151,-80.038017,-27.180944
3.100000,40.007278,-1.756296,56.651669,-26.344622,-82.036354,-26.947205
3.106250,45.913967,-1.758389,53.106339,-26.269253,-82.420364,-26.732941
3.112500,51.821232,-1.760517,49.038773,-26.286572,-80.838501,-26.511103
3.118750,57.727844,-1.762818,43.046497,-26.334423,-79.124054,-26.209089
3.125000,63.633514,-1.765245,38.256912,-26.382692,-75.069687,-25.948267
3.131250,69.538673,-1.767782,33.878033,-26.458355,-68.917877,-25.660206
3.137500,75.442673,-1.770655,30.172108,-26.561769,-61.043903,-25.335632
3.143750,81.345238,-1.774048,27.339180,-26.683657,-51.635574,-24.982990
3.150000,87.248291,-1.777745,25.562468,-26.809929,-40.846561,-24.614471
3.156250,93.154724,-1.781245,24.963480,-26.925735,-28.850515,-24.248816
3.162500,97.168633,-1.784446,25.607115,-27.017874,-15.845674,-23.908989
3.168750,100.909393,-1.787746,27.517414,-27.079155,-3.935596,-23.644102
3.175000,103.843094,-1.791316,30.733206,-27.087709,8.329103,-23.399429
3.181250,105.479790,-1.794983,33.498947,-27.030790,20.845545,-23.177126
3.187500,105.394310,-1.798500,37.277649,-26.925695,32.319347,-23.009295
3.193750,103.245392,-1.801745,41.367409,-26.784763,42.321850,-22.911562
3.200000,98.795448,-1.804673,45.197876,-26.616325,50.528469,-22.887568
3.206250,91.922409,-1.807214,48.288445,-26.431133,56.656631,-22.937302
3.212500,82.625038,-1.809573,50.218559,-26.243254,60.509987,-23.068586
3.218750,71.023277,-1.812145,50.679142,-26.063446,61.983322,-23.264315
3.225000,57.355778,-1.814561,51.669682,-25.885733,60.825481,-23.469685
3.231250,41.965462,-1.816455,51.724598,-25.710257,57.321510,-23.692692
3.237500,25.277811,-1.818028,49.354996,-25.536659,53.584282,-23.925344
3.243750,7.780528,-1.819889,46.672344,-25.341795,48.116898,-24.145336
3.250000,-9.993596,-1.822323,43.546242,-25.166317,41.585773,-24.333261
3.256250,-27.494062,-1.824922,39.618061,-25.024294,34.587158,-24.487598
3.262500,-44.186127,-1.827147,35.126377,-24.897732,27.764967,-24.597923
3.268750,-59.578926,-1.829048,30.015284,-24.782808,21.800972,-24.654997
3.275000,-73.248627,-1.831048,24.163033,-24.678749,17.241123,-24.658403
3.281250,-84.855598,-1.833428,17.456720,-24.576370,14.524525,-24.615959
3.287500,-94.160675,-1.836186,9.804814,-24.462450,13.944587,-24.542330
3.293750,-101.039711,-1.839036,1.171364,-24.297657,15.658012,-24.436615
3.300000,-105.492615,-1.841812,-6.264487,-24.129602,19.707150,-24.299997
3.306250,-107.640640,-1.844340,-14.928782,-23.994963,25.953514,-24.159573
3.312500,-107.721252,-1.846587,-23.594090,-23.873901,34.087284,-24.046803
3.318750,-106.076324,-1.848690,-31.971592,-23.774113,43.731022,-23.982504
3.325000,-103.132957,-1.850662,-39.802441,-23.713749,54.439018,-23.977335
3.331250,-99.382698,-1.852258,-46.823944,-23.717653,65.692772,-24.034019
3.337500,-95.358582,-1.853479,-52.856647,-23.850998,76.911446,-24.151081
3.343750,-89.439796,-1.854399,-57.951458,-24.012489,87.517059,-24.314404
3.350000,-83.521461,-1.854910,-62.408401,-24.235067,97.259895,-24.468399
3.356250,-77.603958,-1.855127,-65.873940,-24.561733,105.869804,-24.665331
3.362500,-71.688339,-1.855212,-66.645378,-25.013992,112.126579,-24.914074
3.368750,-65.774910,-1.855040,-66.357475,-25.572708,116.164619,-25.203566
3.375000,-59.862019,-1.854292,-64.881920,-26.211042,117.580116,-25.581457
3.381250,-53.951519,-1.853183,-62.232216,-26.894701,116.206421,-25.916014
3.387500,-48.047310,-1.852465,-58.501041,-27.585039,112.682144,-26.239609
3.393750,-42.149506,-1.852519,-53.841545,-28.237432,106.439835,-26.544308
3.400000,-36.254028,-1.852960,-48.472870,-28.809086,98.042679,-26.821756
3.406250,-30.357330,-1.853256,-42.727303,-29.278887,88.493736,-27.103376
3.412500,-24.460953,-1.853655,-36.925686,-29.621603,78.459839,-27.354998
3.418750,-18.569466,-1.854954,-29.131193,-29.815805,66.580078,-27.554886
3.425000,-12.680996,-1.857242,-22.884867,-29.857258,55.144627,-27.697058
3.431250,-6.789369,-1.859650,-16.332043,-29.761194,44.586529,-27.786982
3.437500,-0.893317,-1.861953,-9.731438,-29.512140,35.358604,-27.828653
3.443750,5.002429,-1.864857,-3.098461,-29.107777,28.144726,-27.769850
3.450000,10.896852,-1.868751,3.037848,-28.594376,21.228573,-27.639894
3.456250,16.795591,-1.872825,8.516240,-28.010674,16.385464,-27.452412
3.462500,22.703192,-1.876284,13.329605,-27.400333,13.322169,-27.209108
3.468750,28.616241,-1.879082,17.559912,-26.809969,11.728633,-26.906174
3.475000,34.529720,-1.881665,21.309759,-26.305111,11.252834,-26.560406
3.481250,40.442692,-1.884112,24.837772,-25.837463,11.499557,-26.187098
3.487500,46.355022,-1.886589,26.869038,-25.438080,12.100840,-25.780519
3.493750,52.265713,-1.889494,28.788132,-25.142580,12.628156,-25.347841
3.500000,58.175838,-1.892837,30.417524,-24.956245,12.643002,-24.901115
3.506250,64.088692,-1.895917,31.655952,-24.863892,11.813235,-24.450857
3.512500,70.005814,-1.898229,32.405411,-24.831686,9.866901,-24.006618
3.518750,75.922775,-1.900308,32.640961,-24.768810,6.602997,-23.573458
3.525000,81.833344,-1.903277,32.575855,-24.754135,1.865701,-23.157825
3.531250,87.739044,-1.907341,32.699276,-24.742445,-2.315276,-22.774080
3.537500,93.647255,-1.911664,32.695354,-24.697653,-7.403449,-22.438972
3.543750,97.666008,-1.915669,32.824581,-24.610441,-12.974509,-22.148727
3.550000,101.414154,-1.919808,33.423107,-24.453928,-18.742191,-21.866045
3.556250,104.355347,-1.924689,32.927563,-24.228764,-24.227972,-21.535139
3.562500,106.001221,-1.929850,33.050312,-23.964846,-29.143808,-21.293056
3.568750,105.931259,-1.934206,33.447052,-23.689449,-32.282475,-21.121216
3.575000,103.804726,-1.937204,33.843208,-23.428892,-34.642338,-21.021336
3.581250,99.379173,-1.939122,33.954414,-23.217543,-35.955833,-21.007627
3.587500,92.527870,-1.940589,33.526184,-23.091459,-36.242653,-21.038939
3.593750,83.251030,-1.941720,32.444267,-23.040613,-35.372589,-21.138693
3.600000,71.674576,-1.941755,30.645697,-23.076477,-33.193211,-21.321163
3.606250,58.035866,-1.940426,29.987715,-23.213219,-29.863993,-21.580387
3.612500,42.670116,-1.938240,29.006884,-23.435791,-25.660210,-21.890347
3.618750,26.001278,-1.935632,28.113142,-23.761381,-20.975513,-22.225651
3.625000,8.523475,-1.932422,27.410343,-24.201529,-16.594965,-22.628941
3.631250,-9.229619,-1.928302,27.516264,-24.718487,-10.718103,-23.062189
3.637500,-26.714661,-1.923830,28.730270,-25.277245,-5.064094,-23.496984
3.643750,-43.403183,-1.919684,31.194111,-25.840714,0.343434,-23.913710
3.650000,-58.802109,-1.916195,33.042698,-26.363491,5.412418,-24.295244
3.656250,-72.481277,-1.913259,35.838203,-26.770655,10.058607,-24.624874
3.662500,-84.098648,-1.910996,38.755383,-27.108541,14.185913,-24.897577
3.668750,-93.417366,-1.909645,42.718117,-27.354853,17.653870,-25.119492
3.675000,-100.313004,-1.908874,46.050152,-27.481588,20.377794,-25.289806
3.681250,-104.783691,-1.908196,48.481857,-27.485926,22.300159,-25.406855
3.687500,-106.952553,-1.908005,49.771206,-27.380878,23.345440,-25.473661
3.693750,-107.060020,-1.909050,49.771816,-27.192955,23.462330,-25.499445
3.700000,-105.445244,-1.911209,48.490841,-26.926798,22.655470,-25.494963
3.706250,-102.528191,-1.913543,46.077362,-26.600845,21.056465,-25.452559
3.712500,-98.799774,-1.915645,42.520561,-26.254002,18.885378,-25.366606
3.718750,-94.797623,-1.918083,36.113106,-25.913351,16.290518,-25.241821
3.725000,-88.902328,-1.921177,28.776794,-25.594803,13.601636,-25.094002
3.731250,-83.005234,-1.924371,20.239452,-25.342117,11.423423,-24.961456
3.737500,-77.103294,-1.927114,12.440326,-25.179346,10.171818,-24.857025
3.743750,-71.198723,-1.929589,4.127379,-25.091711,10.257008,-24.802534
3.750000,-65.295486,-1.932175,-4.148909,-25.066807,10.273643,-24.713146
3.756250,-59.393436,-1.934743,-11.993731,-25.100578,10.204658,-24.608929
3.762500,-53.490334,-1.937135,-18.985678,-25.172321,11.375687,-24.490030
3.768750,-47.587147,-1.939550,-24.689735,-25.245863,13.528975,-24.406027
3.775000,-41.685440,-1.942272,-28.869333,-25.332033,16.202938,-24.345198
3.781250,-35.783985,-1.945092,-31.416504,-25.418335,18.798782,-24.292309
3.787500,-29.880987,-1.947642,-31.984919,-25.483917,20.953533,-24.240023
3.793750,-23.977787,-1.950306,-30.483780,-25.544849,22.359026,-24.191917
3.800000,-18.076603,-1.953413,-28.834213,-25.544342,22.819832,-24.140404
3.806250,-12.176153,-1.956788,-24.683121,-25.457069,22.350677,-24.049274
3.812500,-6.274133,-1.960383,-19.549721,-25.322956,20.815050,-23.926846
3.818750,-0.371595,-1.964324,-13.974074,-25.159021,18.098917,-23.783789
3.825000,5.531632,-1.968629,-8.495780,-24.979610,14.333957,-23.626684
3.831250,11.438784,-1.972628,-1.461379,-24.799431,9.790337,-23.466499
3.837500,17.349876,-1.976042,5.315809,-24.632343,4.788949,-23.339699
3.843750,23.260319,-1.979559,11.990469,-24.474066,-0.331375,-23.201767
3.850000,29.168142,-1.983558,16.878834,-24.318542,-6.258739,-23.034376
3.856250,35.076927,-1.987386,21.657372,-24.175098,-11.798772,-22.876925
3.862500,40.989861,-1.990459,25.904205,-24.042240,-16.932053,-22.738260
3.868750,46.902122,-1.993347,29.290909,-23.906940,-21.637058,-22.615183
3.875000,52.807304,-1.997282,31.495928,-23.746859,-25.939764,-22.496746
3.881250,58.708630,-2.002433,32.162979,-23.567913,-29.909168,-22.367390
3.887500,64.613335,-2.007693,30.900362,-23.371885,-33.728474,-22.232088
3.893750,70.524826,-2.012457,27.632959,-23.140804,-37.655411,-22.095404
3.900000,76.437653,-2.017436,24.439054,-22.864445,-41.820389,-21.950228
3.906250,82.347069,-2.023478,19.867626,-22.542393,-44.524487,-21.794474
3.912500,88.256859,-2.030486,14.389665,-22.176893,-47.637444,-21.623659
3.918750,94.172852,-2.037898,8.471130,-21.774647,-50.867649,-21.424711
3.925000,98.202484,-2.045104,2.473136,-21.362970,-53.975479,-21.170872
3.931250,101.967186,-2.051914,-3.258109,-20.967495,-57.023888,-20.951389
3.937500,104.932747,-2.058306,-8.295078,-20.608335,-57.813145,-20.762550
3.943750,106.606667,-2.064023,-12.307807,-20.308559,-57.419426,-20.612450
3.950000,106.562836,-2.068658,-15.078202,-20.090036,-55.377689,-20.515167
3.956250,104.460510,-2.071615,-16.482487,-19.971157,-51.335114,-20.485870
3.962500,100.059669,-2.072868,-16.460693,-19.961761,-45.040722,-20.536612
3.968750,93.234566,-2.072715,-15.011259,-20.059423,-36.356522,-20.676056
3.975000,83.982941,-2.071231,-14.083069,-20.229517,-25.288795,-20.914568
3.981250,72.425499,-2.068512,-9.985744,-20.523153,-12.005061,-21.280148
3.987500,58.797756,-2.064693,-5.639812,-20.924541,1.888920,-21.687670
3.993750,43.438171,-2.060075,-0.353846,-21.388700,17.049526,-22.198225
4.000000,26.773039,-2.054824,5.222130,-21.911755,32.671673,-22.818491
4.006250,9.294927,-2.048906,10.736495,-22.477741,47.890171,-23.581266
4.012500,-8.465945,-2.042832,15.922494,-23.058725,61.630054,-24.340582
4.018750,-25.965557,-2.037496,20.527327,-23.621830,74.579597,-25.075541
4.025000,-42.669815,-2.033028,24.266796,-24.151684,84.783707,-25.820984
4.031250,-58.082085,-2.029069,29.002565,-24.638361,93.154846,-26.580990
4.037500,-71.773430,-2.025623,31.369064,-25.061127,98.815834,-27.301807
4.043750,-83.406075,-2.023439,33.408489,-25.407227,102.054916,-27.953274
4.050000,-92.741585,-2.022629,34.976315,-25.676359,103.269844,-28.518475
4.056250,-99.651604,-2.022191,36.003014,-25.859098,102.989723,-28.987818
4.062500,-104.133972,-2.021500,36.566082,-25.937784,100.014778,-29.327871
4.068750,-106.316498,-2.021538,36.611774,-25.929485,96.746284,-29.524900
4.075000,-106.441154,-2.023580,36.160385,-25.851391,93.241920,-29.586576
4.081250,-104.842148,-2.026928,35.390461,-25.717096,89.732742,-29.516960
4.087500,-101.936348,-2.030077,34.556492,-25.535286,84.376152,-29.316961
4.093750,-98.216431,-2.032646,33.961956,-25.314642,78.900963,-28.993162
4.100000,-94.223839,-2.035445,32.024113,-25.069914,73.161842,-28.565758
4.106250,-88.340492,-2.039197,30.740406,-24.806320,67.063324,-28.074280
4.112500,-82.457634,-2.043489,30.013948,-24.515667,60.683647,-27.476570
4.118750,-76.571518,-2.048071,29.586426,-24.213804,54.195583,-26.808357
4.125000,-70.683868,-2.053304,29.162798,-23.916340,47.331104,-26.110657
4.131250,-64.794945,-2.059184,28.574377,-23.632437,40.240562,-25.413610
4.137500,-58.901623,-2.065109,27.706165,-23.365372,33.122131,-24.740589
4.143750,-53.002064,-2.070733,26.471464,-23.114170,26.187300,-24.109264
4.150000,-47.099346,-2.076329,24.785093,-22.877773,19.626589,-23.532591
4.156250,-41.196564,-2.082304,24.743832,-22.652626,13.613579,-23.011328
4.162500,-35.292233,-2.088540,24.937815,-22.427498,8.298711,-22.558918
4.168750,-29.384401,-2.094887,23.958334,-22.191423,5.377666,-22.176931
4.175000,-23.472488,-2.101272,23.657234,-21.963522,2.295140,-21.863565
4.181250,-17.556751,-2.107526,23.843225,-21.748716,0.762639,-21.612320
4.187500,-11.636434,-2.113435,24.320715,-21.551352,0.661489,-21.361504
4.193750,-5.711224,-2.118906,24.864313,-21.377800,2.050380,-21.223459
4.200000,0.217936,-2.123721,25.245283,-21.235584,3.009807,-21.168970
4.206250,6.150186,-2.127639,25.246681,-21.131990,4.224195,-21.176332
4.212500,12.085421,-2.130395,24.707199,-21.063997,6.720682,-21.202271
4.218750,18.019220,-2.132432,25.685249,-21.020687,8.266903,-21.251289
4.225000,23.949331,-2.134193,24.776117,-20.997965,8.859268,-21.324007
4.231250,29.875320,-2.135830,23.955309,-20.984591,8.351371,-21.406425
4.237500,35.798641,-2.137201,23.016481,-20.980082,6.573629,-21.475882
4.243750,41.719818,-2.138370,21.625338,-21.000975,5.445140,-21.541979
4.250000,47.639526,-2.139209,19.621834,-21.032295,3.345262,-21.603867
4.256250,53.557148,-2.139631,16.858728,-21.056562,0.798875,-21.645098
4.262500,59.470356,-2.140149,13.103943,-21.059063,-1.782272,-21.654388
4.268750,65.376343,-2.141491,8.160365,-21.029228,-4.041835,-21.621614
4.275000,71.275627,-2.143983,1.846484,-20.959717,-5.668272,-21.539755
4.281250,77.174515,-2.147140,-3.829392,-20.838436,-6.390255,-21.396441
4.287500,83.075493,-2.150697,-10.398446,-20.662535,-6.009592,-21.162777
4.293750,88.976028,-2.155409,-17.603853,-20.454748,-4.620765,-20.908970
4.300000,94.875977,-2.161533,-25.074432,-20.217136,-2.500858,-20.637520
4.306250,98.887848,-2.167853,-32.367332,-19.952747,0.546819,-20.345640
4.312500,102.638527,-2.173286,-39.164845,-19.672401,4.315034,-20.043089
4.318750,105.590446,-2.178253,-45.196857,-19.390718,8.538892,-19.743362
4.325000,107.243423,-2.183715,-50.260632,-19.129053,12.914536,-19.464067
4.331250,107.172371,-2.189550,-54.210903,-18.910593,17.130177,-19.219988
4.337500,105.043854,-2.194709,-56.949646,-18.783323,20.915527,-19.013901
4.343750,100.621567,-2.198690,-58.499271,-18.656532,24.045034,-18.789640
4.350000,93.779518,-2.201775,-57.849903,-18.601315,26.056067,-18.668930
4.356250,84.515213,-2.203724,-55.905285,-18.653843,28.604229,-18.633707
4.362500,72.951515,-2.204118,-52.461151,-18.812923,30.451550,-18.694439
4.368750,59.322346,-2.203282,-47.606346,-19.070551,31.953140,-18.877544
4.375000,43.962170,-2.202050,-41.543507,-19.413227,33.354195,-19.122995
4.381250,27.298407,-2.200376,-34.545601,-19.819740,34.710522,-19.413172
4.387500,9.828096,-2.197555,-26.935431,-20.263550,36.821537,-19.754822
4.393750,-7.918304,-2.193881,-19.129370,-20.728191,38.009209,-20.176193
4.400000,-25.400881,-2.190476,-11.581777,-21.201012,39.837795,-20.652828
4.406250,-42.087006,-2.187564,-2.499159,-21.663973,41.888191,-21.158272
4.412500,-57.478462,-2.184295,4.534665,-22.103794,43.867882,-21.674109
4.418750,-71.146896,-2.180772,11.364243,-22.514509,45.562172,-22.186359
4.425000,-82.757393,-2.177882,17.814329,-22.834459,46.890331,-22.647226
4.431250,-92.073784,-2.176086,23.717497,-23.063210,47.860565,-23.029192
4.437500,-98.968811,-2.174658,28.679771,-23.212784,48.243916,-23.328327
4.443750,-103.439949,-2.173380,32.654781,-23.290628,48.036987,-23.537853
4.450000,-105.613258,-2.173183,35.708515,-23.298674,47.369965,-23.650375
4.456250,-105.726570,-2.174498,37.970673,-23.241604,46.411892,-23.664299
4.462500,-104.114563,-2.176542,39.641026,-23.129492,45.344135,-23.586048
4.468750,-101.200073,-2.178847,41.008102,-22.981817,44.388416,-23.437193
4.475000,-97.478439,-2.181929,40.557899,-22.796881,43.840256,-23.203987
4.481250,-93.483879,-2.185860,40.456440,-22.568466,42.424156,-22.872894
4.487500,-87.589371,-2.189732,40.364986,-22.328321,41.671322,-22.490129
4.493750,-81.689674,-2.193309,40.093716,-22.098063,41.280678,-22.085365
4.500000,-75.791115,-2.197748,39.576702,-21.888670,41.034279,-21.680269
4.506250,-69.895966,-2.203753,38.787945,-21.700655,40.721012,-21.289534
4.512500,-63.995583,-2.210209,37.722954,-21.521273,40.124260,-20.922773
4.518750,-58.082470,-2.215579,36.381546,-21.295427,38.996246,-20.589619
4.525000,-52.160488,-2.220029,34.790714,-21.109705,37.022133,-20.325155
4.531250,-46.239464,-2.224686,34.031410,-20.971756,33.754639,-20.118856
4.537500,-40.320187,-2.230018,33.604839,-20.838053,30.549440,-19.947432
4.543750,-34.395378,-2.235137,32.100693,-20.697500,25.909611,-19.822027
4.550000,-28.461746,-2.239266,31.238895,-20.576843,20.164286,-19.718653
4.556250,-22.522482,-2.242518,30.729832,-20.498934,13.717999,-19.697550
4.562500,-16.581577,-2.245252,30.356407,-20.482847,7.275549,-19.774878
4.568750,-10.639642,-2.247499,29.892941,-20.554995,0.817322,-19.948050
4.575000,-4.694871,-2.248931,29.113796,-20.772886,-5.474648,-20.164761
4.581250,1.253274,-2.249209,27.827898,-21.055531,-11.279080,-20.435873
4.587500,7.202501,-2.248238,24.783190,-21.423004,-16.097141,-20.773865
4.593750,13.150270,-2.246355,22.839691,-21.895699,-19.742863,-21.171047
4.600000,19.094048,-2.243695,20.128910,-22.477091,-22.166519,-21.607363
4.606250,25.033966,-2.240012,16.526060,-23.228958,-23.512650,-22.094175
4.612500,30.969118,-2.235391,12.979933,-24.020491,-24.050589,-22.622377
4.618750,36.894718,-2.230827,8.815690,-24.883478,-23.855726,-23.169304
4.625000,42.808006,-2.227077,4.387296,-25.798187,-23.202972,-23.719507
4.631250,48.714806,-2.223487,-0.009480,-26.730947,-22.416977,-24.259924
4.637500,54.620281,-2.219069,-4.112796,-27.638897,-21.862858,-24.773233
4.643750,60.520744,-2.214350,-7.675899,-28.469267,-21.904402,-25.224239
4.650000,66.407585,-2.210882,-12.394148,-29.161190,-22.890903,-25.565847
4.656250,72.279579,-2.209481,-14.406793,-29.687130,-25.203701,-25.804949
4.662500,78.145836,-2.209628,-15.763031,-30.038614,-27.414354,-25.963312
4.668750,84.010826,-2.211032,-16.332771,-30.185564,-30.902842,-26.014526
4.675000,89.875252,-2.213889,-16.143208,-30.115618,-35.432327,-25.950417
4.681250,93.845757,-2.218048,-15.326312,-29.831514,-40.794498,-25.771681
4.687500,97.547401,-2.222909,-14.087399,-29.357079,-46.763920,-25.489676
4.693750,100.446793,-2.228663,-12.673338,-28.730524,-53.073505,-25.115850
4.700000,102.048668,-2.236361,-11.378317,-27.979776,-59.376781,-24.652664
4.706250,101.928505,-2.245712,-10.687765,-27.109406,-65.307816,-24.092730
4.712500,99.757095,-2.255005,-10.849050,-26.160912,-70.430374,-23.488211
4.718750,95.301033,-2.262952,-12.205120,-25.210173,-76.148422,-22.895943
