Anritsu VNA Frequency[GHz],S21[deg],S21[dB],S11[deg],S11[dB],S22[deg],S22[dB]
1338084777.44,2012_05_27_03:12:57,+40.660,+10.241,+55.144,+10.255,+13.895,+13.705,+14.001,+13.751,10.345710,-16.939
3.006250,33.577335,-1.747624,58.875607,-26.665257,-80.599747,-27.449162
3.012500,33.577335,-1.747624,58.875607,-26.665257,-80.599747,-27.449162
3.018750,33.577335,-1.747624,58.875607,-26.665257,-80.599747,-27.449162
3.025000,33.577335,-1.747624,58.875607,-26.665257,-80.599747,-27.449162
3.031250,33.577335,-1.747624,58.875607,-26.665257,-80.599747,-27.449162
3.037500,33.577335,-1.747624,58.875607,-26.665257,-80.599747,-27.449162
3.043750,33.577335,-1.747624,58.875607,-26.665257,-80.599747,-27.449162
3.050000,33.577335,-1.747624,58.875607,-26.665257,-80.599747,-27.449162
3.056250,33.577335,-1.747624,58.875607,-26.665257,-80.599747,-27.449162
3.062500,33.577335,-1.747624,58.875607,-26.665257,-80.599747,-27.449162
3.068750,33.577335,-1.747624,58.875607,-26.665257,-80.599747,-27.449162
3.075000,33.577335,-1.747624,58.875607,-26.665257,-80.599747,-27.449162
3.081250,33.577335,-1.747624,58.875607,-26.665257,-80.599747,-27.449162
3.087500,33.577335,-1.747624,58.875607,-26.665257,-80.599747,-27.449162
3.093750,33.577335,-1.749404,58.875607,-26.464861,-80.599747,-27.195957
3.100000,39.483349,-1.751504,56.195461,-26.315075,-82.598679,-26.961012
3.106250,45.389439,-1.753601,52.636292,-26.237637,-82.983131,-26.746298
3.112500,51.295849,-1.755713,48.556519,-26.252325,-81.398933,-26.523838
3.118750,57.201538,-1.758061,42.557259,-26.299103,-79.677345,-26.220343
3.125000,63.106098,-1.760547,37.764328,-26.345968,-75.623375,-25.958950
3.131250,69.010201,-1.763124,33.382359,-26.419895,-69.459389,-25.670393
3.137500,74.913338,-1.766066,29.673403,-26.522078,-61.573257,-25.345495
3.143750,80.814713,-1.769543,26.845192,-26.643379,-52.152893,-24.992636
3.150000,86.716888,-1.773314,25.074961,-26.769003,-41.351841,-24.623951
3.156250,92.622475,-1.776860,24.484673,-26.884636,-29.345186,-24.258053
3.162500,96.635529,-1.780158,25.138023,-26.976910,-16.332344,-23.918907
3.168750,100.375404,-1.783556,27.057636,-27.038713,-2.522039,-23.655699
3.175000,103.308784,-1.787230,30.284803,-27.047953,10.029667,-23.410946
3.181250,104.945129,-1.790969,33.058483,-26.992197,23.354347,-23.189581
3.187500,104.859322,-1.794530,36.847523,-26.888695,36.129566,-23.022949
3.193750,102.709908,-1.797862,40.947277,-26.749546,47.864204,-22.926674
3.200000,98.259537,-1.800847,44.785091,-26.583160,58.142437,-22.903957
3.206250,91.386375,-1.803461,47.880039,-26.399956,66.580597,-22.954992
3.212500,82.088631,-1.805849,49.814400,-26.214006,72.863342,-23.088011
3.218750,70.486313,-1.808455,50.275284,-26.035875,76.766312,-23.284800
3.225000,56.818195,-1.810911,51.262062,-25.859547,77.914803,-23.490709
3.231250,41.427292,-1.812828,51.315071,-25.685493,76.483322,-23.714403
3.237500,24.738760,-1.814422,48.940521,-25.513311,74.474281,-23.947006
3.243750,7.240590,-1.816291,46.251575,-25.319622,70.302979,-24.166080
3.250000,-10.534616,-1.818712,43.112720,-25.145580,64.573280,-24.352802
3.256250,-28.036219,-1.821267,39.174038,-25.004026,57.840523,-24.505753
3.262500,-44.729309,-1.823458,34.670403,-24.877598,50.734367,-24.613747
3.268750,-60.123203,-1.825287,29.547113,-24.762711,43.951172,-24.668297
3.275000,-73.794022,-1.827235,23.679804,-24.658459,38.076412,-24.669527
3.281250,-85.401779,-1.829589,16.960461,-24.555866,33.614933,-24.624727
3.287500,-94.707970,-1.832284,9.297298,-24.442038,30.949682,-24.548027
3.293750,-101.588158,-1.835083,0.655460,-24.277697,30.340345,-24.439592
3.300000,-106.042084,-1.837764,-6.789537,-24.109711,31.946224,-24.300808
3.306250,-108.191154,-1.840218,-15.462925,-23.974882,35.748966,-24.158531
3.312500,-108.272812,-1.842463,-24.132885,-23.854031,41.565418,-24.044437
3.318750,-106.628830,-1.844562,-32.512672,-23.754858,49.132023,-23.979147
3.325000,-103.686813,-1.846493,-40.342770,-23.694979,58.106571,-23.973259
3.331250,-99.937859,-1.848092,-47.362350,-23.699411,68.058304,-24.029799
3.337500,-95.915268,-1.849321,-53.390083,-23.832912,78.469711,-24.147417
3.343750,-89.997810,-1.850183,-58.404335,-23.996624,88.805298,-24.310604
3.350000,-84.081001,-1.850707,-62.839916,-24.219995,96.661293,-24.463108
3.356250,-78.165024,-1.850887,-66.267723,-24.547363,105.270615,-24.660669
3.362500,-72.250999,-1.850918,-66.974640,-25.000351,111.536865,-24.909586
3.368750,-66.339134,-1.850679,-66.604057,-25.559563,115.583443,-25.198986
3.375000,-60.427555,-1.849847,-65.036072,-26.198481,117.008804,-25.575359
3.381250,-54.518181,-1.848655,-62.284740,-26.882343,115.662170,-25.909702
3.387500,-48.615128,-1.847796,-58.446301,-27.572933,112.147255,-26.232250
3.393750,-42.718395,-1.847758,-53.681950,-28.225418,105.919136,-26.535366
3.400000,-36.823597,-1.848073,-48.213257,-28.797096,97.544014,-26.811447
3.406250,-30.927626,-1.848170,-42.377258,-29.266771,88.024506,-27.091831
3.412500,-25.031929,-1.848443,-36.504112,-29.609358,78.019875,-27.341848
3.418750,-19.140947,-1.849595,-28.657423,-29.803329,66.174004,-27.540491
3.425000,-13.253025,-1.851711,-22.378918,-29.844604,54.774303,-27.681673
3.431250,-7.361977,-1.853984,-15.818509,-29.747902,44.252552,-27.771193
3.437500,-1.466508,-1.856174,-9.230384,-29.498625,35.058842,-27.812170
3.443750,4.428636,-1.858961,-2.639771,-29.094227,27.880411,-27.753218
3.450000,10.322229,-1.862749,3.437392,-28.580685,20.989252,-27.623383
3.456250,16.219988,-1.866730,8.839852,-27.996799,16.166714,-27.435663
3.462500,22.126291,-1.870060,13.561989,-27.385912,13.118782,-27.192261
3.468750,28.037800,-1.872786,17.690531,-26.794762,11.533671,-26.890196
3.475000,33.949516,-1.875280,21.336193,-26.288708,11.058015,-26.545361
3.481250,39.860725,-1.877679,24.757858,-25.820122,11.297462,-26.173094
3.487500,45.771461,-1.880082,26.691500,-25.419575,11.884728,-25.767277
3.493750,51.680313,-1.882887,28.523148,-25.122494,12.390604,-25.335512
3.500000,57.588161,-1.886121,30.082211,-24.934305,12.378593,-24.890028
3.506250,63.499298,-1.889098,31.267990,-24.840199,11.518698,-24.441044
3.512500,69.414444,-1.891256,31.985775,-24.806702,9.539130,-23.998091
3.518750,75.329536,-1.893210,32.210781,-24.743183,6.242988,-23.565962
3.525000,81.238281,-1.896075,32.073589,-24.725994,1.473592,-23.151318
3.531250,87.142715,-1.899971,32.197067,-24.713261,-2.736955,-22.769033
3.537500,93.049545,-1.904141,32.199837,-24.667982,-7.850891,-22.435125
3.543750,97.067245,-1.908002,32.330692,-24.579987,-13.444195,-22.145308
3.550000,100.814445,-1.912045,32.929813,-24.422951,-19.229868,-21.862898
3.556250,103.754738,-1.916836,32.438637,-24.197691,-24.730343,-21.533577
3.562500,105.399818,-1.921896,32.562485,-23.934021,-29.675739,-21.291641
3.568750,105.329216,-1.926182,32.961460,-23.659029,-32.825317,-21.120289
3.575000,103.202126,-1.929099,33.358356,-23.398708,-35.195492,-21.020849
3.581250,98.775757,-1.931013,33.470684,-23.187637,-36.524338,-21.006845
3.587500,91.923843,-1.932548,33.038818,-23.062258,-36.826294,-21.038301
3.593750,82.646530,-1.933703,31.956097,-23.011944,-35.970982,-21.138033
3.600000,71.069450,-1.933787,30.162825,-23.048023,-33.806587,-21.320465
3.606250,57.429913,-1.932543,29.507187,-23.185228,-30.492352,-21.579721
3.612500,42.063560,-1.930472,28.531666,-23.409180,-26.302166,-21.889009
3.618750,25.393751,-1.927995,27.641869,-23.735966,-21.631311,-22.224346
3.625000,7.914824,-1.924924,26.950363,-24.177269,-17.266336,-22.627596
3.631250,-9.839396,-1.920959,27.063988,-24.695349,-11.397135,-23.060972
3.637500,-27.325459,-1.916651,28.287258,-25.255167,-5.749036,-23.496284
3.643750,-44.015396,-1.912719,30.763121,-25.819967,-0.346270,-23.913515
3.650000,-59.415699,-1.909443,32.625305,-26.344215,4.718605,-24.295528
3.656250,-73.095818,-1.906745,35.432693,-26.753286,9.365935,-24.626045
3.662500,-84.714737,-1.904733,38.362820,-27.092457,13.497110,-24.899763
3.668750,-94.034683,-1.903630,42.337025,-27.339638,16.973661,-25.123289
3.675000,-100.931709,-1.903120,45.676899,-27.467331,19.707132,-25.295000
3.681250,-105.403603,-1.902727,48.112835,-27.472519,21.642658,-25.413382
3.687500,-107.573746,-1.902818,49.403400,-27.367994,22.701363,-25.481657
3.693750,-107.682365,-1.904150,49.403587,-27.179770,22.832167,-25.508327
3.700000,-106.068161,-1.906576,48.115353,-26.913729,22.039034,-25.504423
3.706250,-103.151833,-1.909148,45.696766,-26.587370,20.453817,-25.462786
3.712500,-99.423889,-1.911470,42.129059,-26.239725,18.291840,-25.376625
3.718750,-95.422211,-1.914120,35.708241,-25.897957,15.702906,-25.251022
3.725000,-89.527214,-1.917417,28.360821,-25.578192,13.020794,-25.102144
3.731250,-83.630226,-1.920737,19.808779,-25.325048,10.847502,-24.968288
3.737500,-77.728256,-1.923562,11.994422,-25.161289,9.595205,-24.861784
3.743750,-71.823860,-1.926115,3.665717,-25.072975,9.676993,-24.805033
3.750000,-65.920761,-1.928764,-4.626550,-25.047369,9.689439,-24.712687
3.756250,-60.018814,-1.931378,-12.485382,-25.080782,9.611073,-24.605093
3.762500,-54.115768,-1.933793,-19.490379,-25.152367,10.774336,-24.483475
3.768750,-48.213009,-1.936226,-25.201450,-25.225578,12.918074,-24.396385
3.775000,-42.311890,-1.938950,-29.387470,-25.311804,15.581432,-24.332743
3.781250,-36.411137,-1.941797,-31.943703,-25.398453,18.166414,-24.277071
3.787500,-30.509094,-1.944356,-32.517422,-25.464558,20.312424,-24.222364
3.793750,-24.607164,-1.947024,-31.020655,-25.524311,21.710327,-24.172737
3.800000,-18.707083,-1.950119,-27.486305,-25.524021,22.164841,-24.120049
3.806250,-12.807890,-1.953507,-23.068642,-25.436487,21.692524,-24.028114
3.812500,-6.907219,-1.957096,-17.134104,-25.302000,20.152227,-23.905375
3.818750,-1.006252,-1.961028,-10.267223,-25.137386,17.433462,-23.762403
3.825000,4.895578,-1.965301,-3.072203,-24.957016,13.666551,-23.606108
3.831250,10.801548,-1.969193,6.019268,-24.775652,9.124945,-23.447603
3.837500,16.711071,-1.972470,15.087846,-24.607210,4.125263,-23.323080
3.843750,22.620232,-1.975868,24.175064,-24.447632,-0.988435,-23.186684
3.850000,28.526628,-1.979755,31.474730,-24.290751,-6.911133,-23.021463
3.856250,34.434242,-1.983393,38.544300,-24.146177,-12.444762,-22.866604
3.862500,40.346027,-1.986264,44.846981,-24.012302,-17.570988,-22.730436
3.868750,46.257080,-1.988982,49.950424,-23.876234,-22.266272,-22.609655
3.875000,52.161469,-1.992753,53.446693,-23.716110,-26.556980,-22.493778
3.881250,58.061840,-1.997733,54.919308,-23.536858,-30.514730,-22.366785
3.887500,63.965733,-2.002831,53.927929,-23.340948,-34.321854,-22.233246
3.893750,69.876282,-2.007487,50.391018,-23.110525,-38.235500,-22.098215
3.900000,75.788399,-2.012384,46.396938,-22.835150,-42.387241,-21.954388
3.906250,81.696991,-2.018369,40.534477,-22.514725,-45.081734,-21.799892
3.912500,87.605835,-2.025378,33.341850,-22.150389,-48.187328,-21.629940
3.918750,93.521233,-2.032796,25.368301,-21.749886,-51.412056,-21.431614
3.925000,97.550217,-2.040019,17.080225,-21.340284,-54.516079,-21.177801
3.931250,101.314232,-2.046885,8.936413,-20.946732,-57.566494,-20.958321
3.937500,104.279045,-2.053349,1.486328,-20.589409,-58.356693,-20.769283
3.943750,105.952042,-2.059129,-4.821034,-20.291307,-57.970413,-20.618914
3.950000,105.907387,-2.063814,-9.649766,-20.074041,-55.939243,-20.520842
3.956250,103.803886,-2.066785,-12.774704,-19.956146,-51.908627,-20.490723
3.962500,99.401733,-2.068055,-14.049400,-19.947601,-45.625744,-20.540705
3.968750,92.575768,-2.067937,-13.407887,-20.045671,-36.954674,-20.679113
3.975000,83.322968,-2.066458,-12.758640,-20.217775,-25.899395,-20.916697
3.981250,71.764214,-2.063707,-10.562080,-20.511745,-12.621538,-21.279663
3.987500,58.135296,-2.059830,-6.216418,-20.913086,1.271724,-21.685463
3.993750,42.774693,-2.055158,-0.933263,-21.377913,16.434120,-22.194002
4.000000,26.108461,-2.049870,4.640651,-21.902035,32.062843,-22.812092
4.006250,8.629407,-2.043909,10.155201,-22.469013,47.297504,-23.573561
4.012500,-9.132484,-2.037819,15.340456,-23.051098,61.064564,-24.330299
4.018750,-26.633148,-2.032480,19.949318,-23.615799,74.039665,-25.062473
4.025000,-43.338310,-2.028019,23.695215,-24.147217,84.276779,-25.805676
4.031250,-58.751457,-2.024060,28.440681,-24.635695,92.684189,-26.563593
4.037500,-72.443604,-2.020638,30.817759,-25.060335,98.383614,-27.282143
4.043750,-84.077385,-2.018526,32.869015,-25.408058,101.660507,-27.931971
4.050000,-93.413841,-2.017767,34.447689,-25.678686,102.909187,-28.496115
4.056250,-100.325180,-2.017382,35.484417,-25.862692,102.655190,-28.964533
4.062500,-104.808830,-2.016735,36.057571,-25.942307,99.701828,-29.304295
4.068750,-106.992828,-2.016801,36.111900,-25.934607,96.445534,-29.501556
4.075000,-107.119026,-2.018861,35.667313,-25.856401,92.946846,-29.563776
4.081250,-105.521622,-2.022142,34.903946,-25.721706,89.430702,-29.494942
4.087500,-102.617447,-2.025224,34.075462,-25.538900,84.061241,-29.296204
4.093750,-98.898758,-2.027637,33.485584,-25.317020,78.566566,-28.973576
4.100000,-94.907722,-2.030271,31.551203,-25.070869,72.802109,-28.547705
4.106250,-89.025620,-2.033799,30.270870,-24.805159,66.672241,-28.057558
4.112500,-83.143898,-2.037230,29.546650,-24.511999,60.261761,-27.461143
4.118750,-77.223343,-2.041656,29.121994,-24.207684,53.736916,-26.794363
4.125000,-71.336800,-2.046683,28.700073,-23.907652,46.839275,-26.097633
4.131250,-65.449219,-2.052351,28.112833,-23.621332,39.718384,-25.401470
4.137500,-59.556705,-2.058087,27.245768,-23.351875,32.572712,-24.728888
4.143750,-53.658104,-2.063535,26.011576,-23.098572,25.614258,-24.097549
4.150000,-47.756477,-2.068989,24.325974,-22.860470,19.037132,-23.520584
4.156250,-41.854530,-2.074895,24.285463,-22.633572,13.012664,-22.998365
4.162500,-35.951237,-2.081131,24.483696,-22.407307,7.686596,-22.546301
4.168750,-30.044453,-2.087461,23.501308,-22.170507,4.769499,-22.163673
4.175000,-24.133629,-2.093895,23.196259,-21.942205,1.685548,-21.850494
4.181250,-18.218824,-2.100232,23.379566,-21.727180,0.157729,-21.600069
4.187500,-12.299571,-2.106267,23.852194,-21.530275,0.064954,-21.349194
4.193750,-6.375481,-2.111893,24.392828,-21.357433,1.461383,-21.212505
4.200000,-0.447810,-2.116910,24.770823,-21.216068,2.436753,-21.159357
4.206250,5.483120,-2.120976,24.769478,-21.113710,3.661469,-21.168306
4.212500,11.416700,-2.123919,24.226189,-21.047134,6.169013,-21.195831
4.218750,17.349154,-2.126118,25.203468,-21.005375,7.727721,-21.247210
4.225000,23.277746,-2.128015,24.291845,-20.984200,8.328924,-21.322117
4.231250,29.202051,-2.129799,23.469896,-20.972292,7.827054,-21.406574
4.237500,35.124165,-2.131291,22.530756,-20.968987,6.052870,-21.478018
4.243750,41.043697,-2.132552,21.137646,-20.990742,4.922076,-21.545813
4.250000,46.961918,-2.133470,19.132095,-21.022711,2.817056,-21.608986
4.256250,52.878033,-2.133950,16.367420,-21.047371,0.259841,-21.651443
4.262500,58.789783,-2.134532,12.611080,-21.049980,-2.333797,-21.661837
4.268750,64.694252,-2.135901,7.665187,-21.020088,-4.610228,-21.629505
4.275000,70.592247,-2.138456,1.348490,-20.950525,-6.255605,-21.548038
4.281250,76.489792,-2.141652,-4.333140,-20.828730,-6.997610,-21.404886
4.287500,82.389313,-2.145291,-10.909153,-20.652300,-6.637953,-21.171526
4.293750,88.288307,-2.150104,-18.122629,-20.444063,-5.272072,-20.918125
4.300000,94.186806,-2.156283,-25.603426,-20.206062,-3.172209,-20.646879
4.306250,98.197403,-2.162707,-32.906719,-19.941307,-0.143771,-20.355362
4.312500,101.946945,-2.168241,-39.715813,-19.660826,3.606931,-20.053038
4.318750,104.897240,-2.173353,-45.759537,-19.379271,7.816664,-19.753550
4.325000,106.548729,-2.178982,-50.835751,-19.117823,12.180985,-19.474564
4.331250,106.476646,-2.184972,-54.797138,-18.899473,16.390717,-19.230801
4.337500,104.346794,-2.190254,-57.546478,-18.773357,20.174572,-19.024815
4.343750,99.923454,-2.194366,-59.104485,-18.646519,23.313391,-18.799795
4.350000,93.080513,-2.197583,-58.469471,-18.591925,25.320551,-18.679087
4.356250,83.815552,-2.199670,-56.532753,-18.644764,27.876179,-18.643471
4.362500,72.250778,-2.200181,-53.095890,-18.804232,29.737164,-18.703150
4.368750,58.621094,-2.199434,-48.245701,-19.062239,31.254393,-18.885906
4.375000,43.260208,-2.198284,-42.188721,-19.405237,32.672016,-19.129707
4.381250,26.596096,-2.196624,-35.195477,-19.811893,34.047138,-19.418062
4.387500,9.125232,-2.193822,-27.589470,-20.255781,36.179710,-19.758137
4.393750,-8.621299,-2.190120,-19.785995,-20.720476,37.391956,-20.177977
4.400000,-26.104494,-2.186718,-12.242894,-21.193092,39.242561,-20.652792
4.406250,-42.790897,-2.183786,-3.163977,-21.655819,41.313297,-21.156511
4.412500,-58.182453,-2.180417,3.866995,-22.094952,43.312889,-21.670612
4.418750,-71.851318,-2.176805,10.694098,-22.504803,45.026161,-22.181414
4.425000,-83.462219,-2.173813,17.144184,-22.823795,46.368561,-22.640688
4.431250,-92.779030,-2.171897,23.044914,-23.051289,47.350906,-23.021112
4.437500,-99.674332,-2.170323,28.006670,-23.199413,47.740280,-23.318937
4.443750,-104.145905,-2.168930,31.983181,-23.275499,47.537289,-23.527241
4.450000,-106.319435,-2.168618,35.040226,-23.281414,46.870518,-23.638885
4.456250,-106.433144,-2.169831,37.306450,-23.221981,45.908733,-23.652338
4.462500,-104.821510,-2.171757,38.982857,-23.107473,44.834335,-23.573746
4.468750,-101.907082,-2.173974,40.358570,-22.957222,43.870602,-23.425409
4.475000,-98.185745,-2.176999,39.916210,-22.770447,43.312710,-23.192389
4.481250,-94.191422,-2.180866,39.823978,-22.539976,41.886597,-22.861794
4.487500,-88.297035,-2.184695,39.742481,-22.298283,41.123306,-22.480047
4.493750,-82.397652,-2.188278,39.480347,-22.067034,40.723724,-22.076931
4.500000,-76.499565,-2.192723,38.970650,-21.857243,40.470272,-21.673737
4.506250,-70.604652,-2.198774,38.189480,-21.669456,40.153530,-21.285143
4.512500,-64.704834,-2.205280,37.128857,-21.491100,39.554119,-20.920542
4.518750,-58.792141,-2.210719,35.788944,-21.265686,38.425976,-20.589617
4.525000,-52.870789,-2.215243,34.196766,-21.082005,36.448448,-20.328278
4.531250,-46.950680,-2.220000,33.440056,-20.946701,33.173496,-20.123547
4.537500,-41.032543,-2.225417,33.011585,-20.815187,29.968031,-19.954199
4.543750,-35.108856,-2.230609,31.503572,-20.677177,25.327106,-19.831135
4.550000,-29.176743,-2.234841,30.634401,-20.559195,19.577471,-19.728939
4.556250,-23.238991,-2.238139,30.120760,-20.484022,13.122971,-19.709694
4.562500,-17.300034,-2.240945,29.741676,-20.471050,6.671483,-19.788849
4.568750,-11.359564,-2.243223,29.276001,-20.545715,0.200110,-19.963751
4.575000,-5.416655,-2.244661,28.493725,-20.765472,-6.109702,-20.181223
4.581250,0.529800,-2.244933,27.206455,-21.049618,-11.935854,-20.453346
4.587500,6.477087,-2.243898,24.156450,-21.418650,-16.771852,-20.792433
4.593750,12.422667,-2.241910,22.210667,-21.892174,-20.436871,-21.190893
4.600000,18.364416,-2.239125,19.497717,-22.473652,-22.882240,-21.628563
4.606250,24.302509,-2.235260,15.888686,-23.225843,-24.249477,-22.116993
4.612500,30.235691,-2.230410,12.326367,-24.016552,-24.809256,-22.646685
4.618750,36.159386,-2.225632,8.144897,-24.878273,-24.629866,-23.195131
4.625000,42.070938,-2.221606,3.700780,-25.791107,-23.989388,-23.747021
4.631250,47.976128,-2.217728,-0.719143,-26.721544,-23.212317,-24.289087
4.637500,53.880318,-2.212996,-4.851787,-27.626932,-22.659678,-24.804003
4.643750,59.779732,-2.207952,-8.450446,-28.454346,-22.694880,-25.256693
4.650000,65.665291,-2.204229,-13.209472,-29.143461,-23.669945,-25.599020
4.656250,71.536804,-2.202552,-15.263041,-29.666058,-25.966030,-25.839163
4.662500,77.402512,-2.202468,-16.661163,-30.014725,-28.155329,-25.998484
4.668750,83.267311,-2.203650,-17.271980,-30.159143,-31.618464,-26.049986
4.675000,89.131882,-2.206355,-17.118790,-30.087004,-36.120678,-25.985670
4.681250,94.997375,-2.210443,-16.332621,-29.801167,-41.455952,-25.806383
4.687500,98.972511,-2.215250,-15.117744,-29.325541,-47.403095,-25.523212
4.693750,102.678261,-2.221036,-13.717327,-28.698551,-53.693260,-25.147825
4.700000,105.578545,-2.228829,-12.425951,-27.948469,-59.982189,-24.682207
4.706250,107.183945,-2.238363,-11.735279,-27.078762,-65.903748,-24.119167
4.712500,107.078484,-2.247804,-11.884168,-26.131084,-71.016548,-23.512651
4.718750,104.925110,-2.255988,-13.221326,-25.182283,-76.732376,-22.917805
