Anritsu VNA Frequency[GHz],S21[deg],S21[dB],S11[deg],S11[dB],S22[deg],S22[dB]
1338056305.66,2012_05_26_19:18:25,+59.453,+161.35,+143.02,+161.67,+167.19,+169.40,+164.40,+166.12,153.751740,-5.999
3.006250,44.281883,-2.418523,68.735031,-27.345814,-77.492111,-28.285854
3.012500,44.281883,-2.418523,68.735031,-27.345814,-77.492111,-28.285854
3.018750,44.281883,-2.418523,68.735031,-27.345814,-77.492111,-28.285854
3.025000,44.281883,-2.418523,68.735031,-27.345814,-77.492111,-28.285854
3.031250,44.281883,-2.418523,68.735031,-27.345814,-77.492111,-28.285854
3.037500,44.281883,-2.418523,68.735031,-27.345814,-77.492111,-28.285854
3.043750,44.281883,-2.418523,68.735031,-27.345814,-77.492111,-28.285854
3.050000,44.281883,-2.418523,68.735031,-27.345814,-77.492111,-28.285854
3.056250,44.281883,-2.418523,68.735031,-27.345814,-77.492111,-28.285854
3.062500,44.281883,-2.418523,68.735031,-27.345814,-77.492111,-28.285854
3.068750,44.281883,-2.418523,68.735031,-27.345814,-77.492111,-28.285854
3.075000,44.281883,-2.418523,68.735031,-27.345814,-77.492111,-28.285854
3.081250,44.281883,-2.418523,68.735031,-27.345814,-77.492111,-28.285854
3.087500,44.281883,-2.418523,68.735031,-27.345814,-77.492111,-28.285854
3.093750,44.281883,-2.420815,68.735031,-27.158909,-77.492111,-28.112059
3.100000,50.212524,-2.423582,65.038338,-26.996029,-77.781448,-27.920151
3.106250,56.142693,-2.426420,60.447906,-26.882120,-77.236252,-27.711275
3.112500,62.073803,-2.429364,53.601276,-26.833435,-75.588409,-27.470758
3.118750,68.004791,-2.432424,46.632294,-26.865595,-72.617950,-27.166779
3.125000,73.934654,-2.435635,40.026009,-26.875141,-68.299400,-26.840120
3.131250,79.864052,-2.438938,33.713242,-26.906641,-62.717220,-26.484695
3.137500,85.792397,-2.442567,27.734825,-26.969164,-55.536396,-26.088364
3.143750,91.719154,-2.446720,22.373415,-27.060255,-46.813198,-25.660255
3.150000,95.751648,-2.451200,17.907217,-27.168648,-38.560707,-25.215195
3.156250,99.513947,-2.455537,14.571918,-27.280991,-29.298601,-24.774326
3.162500,102.472542,-2.459586,12.551958,-27.381931,-19.738716,-24.361179
3.168750,104.134018,-2.463647,11.983879,-27.457516,-10.562858,-24.009159
3.175000,104.069443,-2.467909,12.983027,-27.489418,-2.381559,-23.738136
3.181250,101.940208,-2.472293,13.848328,-27.461441,4.692531,-23.481743
3.187500,97.510269,-2.476530,16.293461,-27.383297,9.981997,-23.277014
3.193750,90.658058,-2.480503,19.627600,-27.261925,13.183934,-23.146433
3.200000,81.383308,-2.484265,23.252817,-27.102291,14.325915,-23.098974
3.206250,69.807365,-2.487643,26.683619,-26.911703,13.463648,-23.132643
3.212500,56.166077,-2.490786,29.482574,-26.701826,10.742290,-23.249353
3.218750,40.798721,-2.494042,31.277353,-26.485380,6.442625,-23.469074
3.225000,24.132795,-2.497275,33.972496,-26.265413,0.729787,-23.697105
3.231250,6.662692,-2.500034,36.035786,-26.040703,-6.237955,-23.944258
3.237500,-11.079037,-2.502469,35.905125,-25.816072,-13.758924,-24.212809
3.243750,-28.550432,-2.504991,35.553989,-25.584177,-19.703302,-24.485941
3.250000,-45.219933,-2.508075,34.807438,-25.343170,-25.523365,-24.741901
3.256250,-60.591671,-2.511402,33.252438,-25.140106,-30.603216,-24.967653
3.262500,-74.235748,-2.514435,30.790798,-24.963446,-34.405205,-25.154217
3.268750,-85.812439,-2.517111,27.392412,-24.807285,-36.423256,-25.289656
3.275000,-95.087303,-2.519771,22.882603,-24.670755,-36.280312,-25.368031
3.281250,-101.941032,-2.522760,17.099846,-24.547621,-33.748192,-25.388695
3.287500,-106.372017,-2.526268,9.911666,-24.428062,-28.775526,-25.357618
3.293750,-108.498856,-2.529888,3.409781,-24.291985,-21.486973,-25.276079
3.300000,-108.558029,-2.533434,-3.792709,-24.103664,-12.122753,-25.144567
3.306250,-106.889870,-2.536742,-11.703658,-23.964811,-1.063108,-24.979513
3.312500,-103.921997,-2.539870,-19.760134,-23.840481,11.178314,-24.806421
3.318750,-100.148041,-2.542976,-27.433666,-23.728397,23.988567,-24.648823
3.325000,-96.100479,-2.545928,-34.462692,-23.638201,36.740719,-24.522797
3.331250,-90.156845,-2.548590,-40.616436,-23.585062,50.975197,-24.437183
3.337500,-84.211945,-2.550847,-45.723305,-23.595205,64.709564,-24.397081
3.343750,-78.266273,-2.552697,-49.674236,-23.751377,77.868561,-24.399948
3.350000,-72.320885,-2.554206,-52.529400,-23.895733,88.523750,-24.423075
3.356250,-66.375900,-2.555341,-54.986683,-24.114767,98.265724,-24.447641
3.362500,-60.432728,-2.556250,-54.515263,-24.449606,106.056313,-24.547226
3.368750,-54.491112,-2.556853,-52.910892,-24.901529,111.609711,-24.700548
3.375000,-48.549965,-2.556950,-50.095001,-25.453377,114.603058,-24.918655
3.381250,-42.610355,-2.556500,-46.121876,-26.076801,114.764549,-25.195660
3.387500,-36.675640,-2.556149,-41.141483,-26.738426,112.363419,-25.469540
3.393750,-30.747171,-2.556373,-35.372322,-27.399057,107.201416,-25.751003
3.400000,-24.822182,-2.557000,-29.072685,-28.015160,99.509125,-25.997932
3.406250,-18.897144,-2.557480,-22.580566,-28.556498,90.070541,-26.279419
3.412500,-12.972283,-2.557980,-16.268869,-28.999607,79.905373,-26.563202
3.418750,-7.051804,-2.559103,-10.146128,-29.318611,69.557663,-26.818449
3.425000,-1.135184,-2.561186,-4.222621,-29.499781,57.809055,-27.031900
3.431250,4.782613,-2.563509,1.213386,-29.542118,46.998165,-27.199749
3.437500,10.704095,-2.565690,5.933349,-29.447693,37.581833,-27.328249
3.443750,16.625624,-2.568333,9.895839,-29.194519,30.092472,-27.376272
3.450000,22.545038,-2.571903,12.939382,-28.810410,23.058363,-27.346069
3.456250,28.466043,-2.575909,14.930602,-28.329563,18.178814,-27.250957
3.462500,34.394768,-2.579501,15.986884,-27.789946,15.110512,-27.094616
3.468750,40.329380,-2.582404,16.346947,-27.230900,13.518730,-26.875259
3.475000,46.264580,-2.585078,16.309282,-26.697279,13.052845,-26.601700
3.481250,52.198566,-2.587782,16.221245,-26.221289,13.312816,-26.288902
3.487500,58.131828,-2.590670,14.862191,-25.772356,13.904408,-25.936237
3.493750,64.064087,-2.593881,14.105208,-25.396400,14.421515,-25.545723
3.500000,69.996498,-2.597458,13.695813,-25.115339,14.438411,-25.129173
3.506250,75.930984,-2.601019,13.590717,-24.930395,13.600863,-24.698227
3.512500,81.869453,-2.603940,13.749018,-24.827934,11.635909,-24.264236
3.518750,87.809258,-2.606503,14.139758,-24.771746,8.344750,-23.834677
3.525000,93.744377,-2.609738,14.728982,-24.649597,3.593030,-23.416386
3.531250,97.779999,-2.614041,15.583155,-24.601639,-0.558335,-23.020996
3.537500,101.543571,-2.618831,17.397287,-24.547802,-5.535357,-22.664677
3.543750,104.506683,-2.623325,19.624720,-24.463358,-10.865396,-22.367559
3.550000,106.176193,-2.627833,22.432863,-24.336370,-16.210272,-22.096073
3.556250,106.120270,-2.632827,24.164713,-24.148136,-21.325361,-21.826941
3.562500,103.999985,-2.638212,26.533258,-23.916204,-25.736567,-21.576803
3.568750,99.584229,-2.643111,29.006985,-23.666515,-29.760687,-21.419088
3.575000,92.753174,-2.646837,31.169956,-23.424297,-33.225883,-21.344524
3.581250,83.503235,-2.649429,32.640690,-23.220572,-36.223984,-21.376123
3.587500,71.950310,-2.651459,33.074387,-23.089066,-37.247772,-21.477333
3.593750,58.330284,-2.653106,32.235901,-23.047016,-38.643375,-21.638283
3.600000,42.987209,-2.653936,32.236507,-23.087233,-39.870159,-21.884232
3.606250,26.349606,-2.653474,31.501667,-23.224939,-40.877876,-22.213383
3.612500,8.906086,-2.652018,30.392815,-23.462170,-41.715240,-22.605303
3.618750,-8.815175,-2.650110,29.332870,-23.793970,-42.502796,-23.025751
3.625000,-26.267126,-2.647653,28.564577,-24.243254,-43.555546,-23.494349
3.631250,-42.915539,-2.644400,28.464109,-24.784834,-43.023861,-23.993052
3.637500,-58.270020,-2.640696,29.430521,-25.383646,-42.296978,-24.489149
3.643750,-71.908035,-2.637178,29.742769,-26.002487,-41.084450,-24.958731
3.650000,-83.489227,-2.634289,31.078588,-26.600769,-39.225590,-25.382263
3.656250,-92.773293,-2.632024,32.853294,-27.125757,-36.623295,-25.741213
3.662500,-99.637451,-2.630379,34.391376,-27.535765,-33.242039,-26.023560
3.668750,-104.081207,-2.629584,36.837940,-27.861008,-29.137171,-26.230339
3.675000,-106.224915,-2.629578,38.260117,-28.064398,-24.441751,-26.365631
3.681250,-106.303436,-2.629954,38.652195,-28.130180,-19.304142,-26.429468
3.687500,-104.657387,-2.630785,37.889015,-28.060743,-13.928771,-26.424906
3.693750,-101.716431,-2.632708,35.905361,-27.875750,-8.573936,-26.360567
3.700000,-97.972893,-2.635849,32.721195,-27.610315,-3.505100,-26.250290
3.706250,-93.953041,-2.639474,28.546606,-27.257729,1.058880,-26.104019
3.712500,-88.032722,-2.642928,23.687870,-26.848993,5.004426,-25.916710
3.718750,-82.109779,-2.646463,16.299435,-26.428301,8.216293,-25.691858
3.725000,-76.187637,-2.650619,8.315847,-26.024832,10.617381,-25.428709
3.731250,-70.264633,-2.654991,-0.431395,-25.665159,12.409420,-25.173374
3.737500,-64.336533,-2.658960,-7.989830,-25.390423,13.998142,-24.952618
3.743750,-58.404114,-2.662498,-15.770342,-25.208714,15.492567,-24.777405
3.750000,-52.471344,-2.665861,-23.194759,-25.109852,17.305431,-24.634583
3.756250,-46.539383,-2.669045,-29.824720,-25.086836,18.256203,-24.482790
3.762500,-40.607048,-2.671930,-35.315731,-25.125912,20.239180,-24.315939
3.768750,-34.674389,-2.674642,-39.320854,-25.197687,21.084023,-24.178684
3.775000,-28.743057,-2.677535,-41.604313,-25.283848,22.632847,-24.091555
3.781250,-22.812538,-2.680408,-42.159328,-25.388735,24.097017,-24.031216
3.787500,-16.881285,-2.682970,-40.828697,-25.490137,25.130991,-23.986361
3.793750,-10.950049,-2.685447,-39.434078,-25.579021,25.472414,-23.955221
3.800000,-5.020741,-2.688213,-36.417160,-25.661728,24.943277,-23.936722
3.806250,0.906513,-2.691310,-32.129387,-25.646664,23.526985,-23.902615
3.812500,6.834133,-2.694571,-27.358881,-25.572519,21.255085,-23.840860
3.818750,12.761817,-2.698073,-22.976124,-25.459692,18.033316,-23.758852
3.825000,18.688774,-2.702025,-17.326803,-25.321054,13.955942,-23.661034
3.831250,24.618172,-2.706014,-12.208267,-25.169104,9.276628,-23.552010
3.837500,30.550686,-2.709610,-7.465494,-25.016844,4.329714,-23.445360
3.843750,36.484116,-2.713151,-2.885896,-24.871552,-0.513314,-23.367237
3.850000,42.415699,-2.717091,1.826434,-24.726061,-4.653103,-23.246744
3.856250,48.346741,-2.721110,5.017036,-24.583969,-9.518600,-23.113300
3.862500,54.280998,-2.724659,8.472612,-24.450966,-13.390683,-22.986897
3.868750,60.215988,-2.727952,11.880520,-24.322702,-16.375036,-22.871656
3.875000,66.146019,-2.732007,14.946323,-24.183502,-18.593061,-22.763721
3.881250,72.071899,-2.737332,17.375399,-24.005041,-20.210104,-22.651316
3.887500,77.999664,-2.743024,18.755251,-23.810123,-21.464781,-22.526754
3.893750,83.933914,-2.748286,18.638124,-23.593628,-22.709793,-22.397919
3.900000,89.871277,-2.753536,19.118731,-23.337524,-24.271828,-22.263628
3.906250,93.911613,-2.759616,18.620865,-23.036276,-26.433455,-22.121233
3.912500,97.677048,-2.766760,17.432301,-22.690626,-29.518042,-21.967459
3.918750,100.641289,-2.774550,15.839669,-22.305151,-31.948046,-21.795607
3.925000,102.315308,-2.782272,14.060054,-21.895685,-35.657917,-21.591738
3.931250,102.272408,-2.789649,12.258326,-21.486938,-40.427471,-21.367764
3.937500,100.170319,-2.796670,10.610676,-21.101217,-44.131592,-21.175020
3.943750,95.771118,-2.803252,9.305296,-20.759981,-47.737110,-21.014605
3.950000,88.954041,-2.808993,8.460874,-20.484453,-50.440369,-20.894886
3.956250,79.719772,-2.813343,8.126721,-20.293455,-51.612106,-20.828287
3.962500,68.188011,-2.816036,8.306753,-20.199457,-50.722595,-20.826883
3.968750,54.592682,-2.817298,8.986277,-20.205915,-47.354885,-20.900019
3.975000,39.270687,-2.817287,10.401602,-20.299816,-43.125996,-21.056332
3.981250,22.648277,-2.816051,12.746995,-20.452791,-36.294888,-21.329273
3.987500,5.216732,-2.813678,15.558914,-20.740654,-27.362762,-21.648031
3.993750,-12.493117,-2.810361,18.800917,-21.104839,-16.744654,-22.049646
4.000000,-29.936127,-2.806383,22.436457,-21.528559,-5.536489,-22.547901
4.006250,-46.579472,-2.801641,26.117853,-22.003185,5.625067,-23.149479
4.012500,-61.932781,-2.796382,29.625471,-22.510056,16.067198,-23.894733
4.018750,-75.570763,-2.791330,32.781189,-23.023767,24.671917,-24.597824
4.025000,-87.153427,-2.786991,35.409580,-23.521463,32.757126,-25.280388
4.031250,-96.441246,-2.783154,35.386189,-23.995598,38.048149,-26.005449
4.037500,-103.309189,-2.779777,36.340168,-24.432919,42.400852,-26.734859
4.043750,-107.759209,-2.777318,36.336632,-24.817451,44.635693,-27.432417
4.050000,-109.911972,-2.776016,35.348160,-25.142841,45.256069,-28.073051
4.056250,-110.000290,-2.775323,33.401413,-25.406221,44.822716,-28.639221
4.062500,-108.361809,-2.774534,30.667925,-25.586843,42.092712,-29.109976
4.068750,-105.427139,-2.774217,27.360300,-25.683401,39.433781,-29.456213
4.075000,-101.694420,-2.775610,23.612341,-25.710419,36.975433,-29.670321
4.081250,-97.692291,-2.778572,19.715309,-25.679026,34.823532,-29.751028
4.087500,-91.790398,-2.781891,16.056074,-25.595768,33.182800,-29.695900
4.093750,-85.879311,-2.784628,11.164337,-25.465513,32.301277,-29.504202
4.100000,-79.966812,-2.787381,7.082242,-25.296358,30.249275,-29.185770
4.106250,-74.058311,-2.790996,3.696495,-25.094955,28.609167,-28.763958
4.112500,-68.152420,-2.795478,0.936941,-24.861156,27.101074,-28.256241
4.118750,-62.243870,-2.800424,-1.270121,-24.596100,25.694101,-27.637793
4.125000,-56.332226,-2.805843,-3.108736,-24.311932,24.015507,-26.953556
4.131250,-50.419022,-2.811863,-4.740043,-24.019999,21.769539,-26.240635
4.137500,-44.502159,-2.818106,-6.263192,-23.727900,18.870667,-25.528482
4.143750,-38.579628,-2.824220,-7.746431,-23.438589,15.303691,-24.840237
4.150000,-32.653015,-2.830271,-9.261215,-23.154501,11.089423,-24.193851
4.156250,-26.724852,-2.836548,-8.720700,-22.876324,8.446143,-23.598862
4.162500,-20.795197,-2.843194,-7.567429,-22.602951,6.089345,-23.033899
4.168750,-14.862575,-2.850000,-7.293071,-22.331099,4.463087,-22.590305
4.175000,-8.926383,-2.856941,-5.921407,-22.057850,2.130920,-22.209305
4.181250,-2.986066,-2.863839,-3.801170,-21.797701,1.266921,-21.904003
4.187500,2.958883,-2.870452,-1.252797,-21.559128,1.591803,-21.661942
4.193750,8.908604,-2.876749,1.406925,-21.349590,2.897789,-21.409420
4.200000,14.862045,-2.882499,3.857720,-21.176767,5.466995,-21.300627
4.206250,20.818390,-2.887460,5.781476,-21.048185,6.906102,-21.286848
4.212500,26.777704,-2.891433,9.071881,-20.967314,8.059340,-21.326469
4.218750,32.736908,-2.894546,12.165367,-20.926796,9.802707,-21.381939
4.225000,38.693329,-2.897250,15.386930,-20.917938,10.203038,-21.471401
4.231250,44.645260,-2.899830,17.094221,-20.931499,9.193479,-21.591951
4.237500,50.594521,-2.902182,19.136967,-20.956133,6.647142,-21.727438
4.243750,56.541786,-2.904172,21.088497,-21.003822,4.595157,-21.867086
4.250000,62.487350,-2.905786,22.515976,-21.072479,1.507926,-22.013556
4.256250,68.431259,-2.906908,23.138723,-21.143494,-2.140929,-22.154640
4.262500,74.370949,-2.907924,22.596642,-21.200706,-5.830154,-22.275824
4.268750,80.304398,-2.909361,20.537539,-21.231674,-9.116834,-22.361935
4.275000,86.230598,-2.911812,18.827398,-21.228846,-11.616466,-22.402046
4.281250,92.154213,-2.914965,15.832442,-21.183619,-13.005674,-22.384281
4.287500,96.183670,-2.918518,11.830242,-21.086729,-13.027517,-22.289293
4.293750,99.940308,-2.922877,7.052168,-20.943525,-11.585954,-22.112925
4.300000,102.889404,-2.928605,1.701535,-20.764837,-8.980214,-21.906876
4.306250,104.543480,-2.934990,-3.913010,-20.553230,-5.220325,-21.661633
4.312500,104.482300,-2.940908,-9.504069,-20.315025,-0.399905,-21.379244
4.318750,102.363869,-2.946243,-14.837029,-20.059744,5.186146,-21.069176
4.325000,97.943611,-2.951912,-19.722490,-19.803072,11.173271,-20.746801
4.331250,91.098640,-2.958215,-24.017481,-19.563385,17.163342,-20.429049
4.337500,81.835228,-2.964441,-27.599878,-19.361954,22.774942,-20.128180
4.343750,70.278557,-2.969662,-30.402723,-19.265476,27.649126,-19.841780
4.350000,56.663364,-2.973948,-32.011860,-19.146925,31.456987,-19.576857
4.356250,41.326931,-2.977452,-31.908506,-19.110233,35.666504,-19.396456
4.362500,24.695772,-2.979671,-30.720987,-19.176903,38.852436,-19.304182
4.368750,7.262177,-2.980608,-24.086332,-19.347754,41.376698,-19.319859
4.375000,-10.446608,-2.980760,-18.861937,-19.615284,43.565399,-19.500751
4.381250,-27.886448,-2.980449,-12.307618,-19.964781,45.365524,-19.704203
4.387500,-44.521584,-2.979148,-4.718787,-20.374279,47.182667,-19.966372
4.393750,-59.859440,-2.976675,3.528695,-20.822208,49.689011,-20.313694
4.400000,-73.478661,-2.974001,11.976875,-21.293119,51.330029,-20.766760
4.406250,-85.040924,-2.971554,18.280323,-21.770973,53.389610,-21.285692
4.412500,-94.305283,-2.968850,25.832476,-22.238136,55.511326,-21.842466
4.418750,-101.147980,-2.965601,32.393822,-22.679632,57.457989,-22.414230
4.425000,-105.572495,-2.962465,37.707470,-23.067602,59.067387,-22.972553
4.431250,-107.703735,-2.960120,41.705040,-23.363552,60.303474,-23.469921
4.437500,-107.775208,-2.958296,44.187515,-23.569920,61.064636,-23.886547
4.443750,-106.124413,-2.956579,45.117802,-23.692802,61.237110,-24.210760
4.450000,-103.180519,-2.955712,44.675343,-23.733301,60.881733,-24.430006
4.456250,-99.438515,-2.956452,43.146744,-23.692719,60.139996,-24.535366
4.462500,-95.426575,-2.958378,40.904186,-23.576433,59.176727,-24.524956
4.468750,-89.515923,-2.960715,38.410320,-23.395996,58.190544,-24.404646
4.475000,-83.602287,-2.963626,34.283211,-23.170378,57.420036,-24.196980
4.481250,-77.688965,-2.967374,30.727802,-22.899748,57.220123,-23.878204
4.487500,-71.773453,-2.971759,27.809875,-22.593792,56.148960,-23.463732
4.493750,-65.853149,-2.976130,25.395155,-22.281412,55.823711,-22.995811
4.500000,-59.931061,-2.981116,23.434370,-21.984730,55.941483,-22.506678
4.506250,-54.010258,-2.987567,21.936922,-21.716518,56.256504,-22.021282
4.512500,-48.085583,-2.994776,20.915426,-21.478792,56.521965,-21.559067
4.518750,-42.149113,-3.001324,20.355173,-21.259613,56.475662,-21.136070
4.525000,-36.201260,-3.006696,20.212980,-20.983782,55.827835,-20.772480
4.531250,-30.250444,-3.011812,20.229778,-20.797577,54.219803,-20.518778
4.537500,-24.301746,-3.017333,21.883101,-20.660954,51.089302,-20.315887
4.543750,-18.350149,-3.022879,22.372253,-20.537256,47.914059,-20.183132
4.550000,-12.391525,-3.027629,23.585110,-20.429100,43.173622,-20.122322
4.556250,-6.426385,-3.031384,25.013371,-20.359755,37.113976,-20.074154
4.562500,-0.458926,-3.034452,26.280750,-20.348787,30.457817,-20.179276
4.568750,5.509028,-3.036995,27.073174,-20.417793,23.584358,-20.402994
4.575000,11.478512,-3.038831,27.101557,-20.598103,16.597368,-20.727047
4.581250,17.450972,-3.039637,26.126959,-20.941057,9.369253,-21.077980
4.587500,23.424294,-3.039203,24.981623,-21.318996,2.825567,-21.495293
4.593750,29.396378,-3.037722,23.197218,-21.804754,-2.722149,-21.980352
4.600000,35.364655,-3.035394,20.727102,-22.404621,-7.130357,-22.519264
4.606250,41.327934,-3.032352,17.622997,-23.132736,-10.381519,-23.097927
4.612500,47.286465,-3.028491,13.902553,-23.964901,-12.609922,-23.715826
4.618750,53.237114,-3.024439,9.968799,-24.860346,-13.914031,-24.350496
4.625000,59.177284,-3.020990,5.789630,-25.803310,-14.421617,-24.983004
4.631250,65.110420,-3.017807,1.519274,-26.763836,-14.375589,-25.598555
4.637500,71.041473,-3.013951,-2.628894,-27.703884,-14.072230,-26.186172
4.643750,76.969650,-3.009495,-8.323793,-28.577307,-13.842060,-26.720850
4.650000,82.887070,-3.005731,-13.735102,-29.332876,-14.069891,-27.160469
4.656250,88.789436,-3.003879,-17.074972,-29.921198,-15.093732,-27.469622
4.662500,94.682564,-3.003844,-20.162241,-30.321507,-17.335375,-27.674549
4.668750,98.679512,-3.004971,-23.000769,-30.521868,-19.227182,-27.777431
4.675000,102.403534,-3.007333,-25.444962,-30.505522,-22.283321,-27.761782
4.681250,105.321899,-3.011085,-27.427114,-30.268568,-26.306952,-27.621944
4.687500,106.944382,-3.015771,-28.969603,-29.826813,-31.126221,-27.363983
4.693750,106.845200,-3.021407,-30.149910,-29.213709,-36.545326,-26.999794
4.700000,104.681374,-3.028542,-31.070999,-28.478968,-42.301537,-26.538387
4.706250,100.216377,-3.037630,-31.967634,-27.633530,-48.088394,-25.982687
4.712500,93.336449,-3.047382,-33.285648,-26.699471,-53.570629,-25.316702
4.718750,84.048561,-3.056360,-35.017048,-25.732456,-58.174274,-24.643148
