Anritsu VNA Frequency[GHz],S21[deg],S21[dB],S11[deg],S11[dB],S22[deg],S22[dB]
1338062865.28,2012_05_26_21:07:45,+50.474,+112.98,+92.433,+113.27,+118.69,+120.78,+116.57,+118.10,117.785042,-9.430
3.006250,40.363968,-2.232822,64.970856,-27.128592,-81.184631,-28.103493
3.012500,40.363968,-2.232822,64.970856,-27.128592,-81.184631,-28.103493
3.018750,40.363968,-2.232822,64.970856,-27.128592,-81.184631,-28.103493
3.025000,40.363968,-2.232822,64.970856,-27.128592,-81.184631,-28.103493
3.031250,40.363968,-2.232822,64.970856,-27.128592,-81.184631,-28.103493
3.037500,40.363968,-2.232822,64.970856,-27.128592,-81.184631,-28.103493
3.043750,40.363968,-2.232822,64.970856,-27.128592,-81.184631,-28.103493
3.050000,40.363968,-2.232822,64.970856,-27.128592,-81.184631,-28.103493
3.056250,40.363968,-2.232822,64.970856,-27.128592,-81.184631,-28.103493
3.062500,40.363968,-2.232822,64.970856,-27.128592,-81.184631,-28.103493
3.068750,40.363968,-2.232822,64.970856,-27.128592,-81.184631,-28.103493
3.075000,40.363968,-2.232822,64.970856,-27.128592,-81.184631,-28.103493
3.081250,40.363968,-2.232822,64.970856,-27.128592,-81.184631,-28.103493
3.087500,40.363968,-2.232822,64.970856,-27.128592,-81.184631,-28.103493
3.093750,40.363968,-2.235069,64.970856,-26.928919,-81.184631,-27.877178
3.100000,46.286377,-2.237625,61.670898,-26.760561,-81.300247,-27.650429
3.106250,52.208443,-2.240247,57.503803,-26.652878,-80.543495,-27.424599
3.112500,58.131527,-2.242966,52.937912,-26.621384,-78.641533,-27.180048
3.118750,64.054100,-2.245772,46.580807,-26.657089,-75.370827,-26.857660
3.125000,69.975624,-2.248726,41.277382,-26.675289,-70.756592,-26.546883
3.131250,75.896706,-2.251770,36.580418,-26.718981,-64.924622,-26.210752
3.137500,81.816978,-2.255108,32.630226,-26.793306,-57.450588,-25.836592
3.143750,87.735451,-2.258973,29.622885,-26.893402,-48.434761,-25.432272
3.150000,93.654358,-2.263152,27.733015,-27.006561,-38.015095,-25.011951
3.156250,97.681511,-2.267148,27.075748,-27.118868,-28.239519,-24.595753
3.162500,101.437660,-2.270845,27.707897,-27.215380,-17.675491,-24.207571
3.168750,104.388298,-2.274589,29.639151,-27.283201,-7.052416,-23.884367
3.175000,106.040215,-2.278570,32.883472,-27.304466,2.957409,-23.622065
3.181250,105.967468,-2.282642,35.640667,-27.263865,12.267293,-23.375446
3.187500,103.831291,-2.286577,39.486137,-27.174412,19.902786,-23.182453
3.193750,99.394302,-2.290292,43.671982,-27.043625,25.549988,-23.062504
3.200000,92.534698,-2.293738,47.585796,-26.878113,29.101625,-23.022476
3.206250,83.251892,-2.296826,50.729862,-26.686596,30.507576,-23.060631
3.212500,71.666466,-2.299725,52.682583,-26.481680,29.809628,-23.182119
3.218750,58.013950,-2.302784,53.122662,-26.276037,27.173275,-23.399410
3.225000,42.635815,-2.305766,54.029331,-26.069380,22.574245,-23.618832
3.231250,25.961655,-2.308288,53.960987,-25.860495,16.320471,-23.859888
3.237500,8.482489,-2.310505,51.446686,-25.653685,10.828031,-24.120583
3.243750,-9.272793,-2.312887,48.590069,-25.436327,4.692794,-24.381836
3.250000,-26.758362,-2.315834,45.315952,-25.220909,-1.372730,-24.622345
3.256250,-43.438335,-2.318962,41.290455,-25.044746,-6.761968,-24.833086
3.262500,-58.817650,-2.321787,36.651558,-24.892172,-10.924442,-25.003693
3.268750,-72.470009,-2.324221,31.418390,-24.758131,-13.323524,-25.123178
3.275000,-84.058067,-2.326675,25.491302,-24.641745,-13.576736,-25.187235
3.281250,-93.346031,-2.329522,18.774328,-24.535683,-11.446354,-25.196970
3.287500,-100.210686,-2.332775,11.179012,-24.428688,-6.867509,-25.160091
3.293750,-104.649864,-2.336097,2.654848,-24.294844,0.050696,-25.078436
3.300000,-106.783875,-2.339338,-4.662671,-24.122812,9.079923,-24.952230
3.306250,-106.849701,-2.342323,-12.907803,-23.997185,19.856928,-24.801331
3.312500,-105.189056,-2.345092,-21.184679,-23.885128,31.868250,-24.652306
3.318750,-102.229889,-2.347822,-29.108496,-23.787281,44.521503,-24.527805
3.325000,-98.464355,-2.350380,-36.418125,-23.716234,57.200535,-24.442314
3.331250,-94.424484,-2.352654,-42.873520,-23.691092,69.286545,-24.402807
3.337500,-88.488853,-2.354532,-48.294773,-23.747509,82.326645,-24.412048
3.343750,-82.552803,-2.356083,-52.559494,-23.902796,94.390312,-24.463297
3.350000,-76.617157,-2.357254,-56.384754,-24.071575,103.616737,-24.524235
3.356250,-70.682304,-2.358121,-59.222496,-24.323359,111.660263,-24.599848
3.362500,-64.749176,-2.358803,-59.301311,-24.689993,117.444885,-24.742695
3.368750,-58.817837,-2.359227,-58.367485,-25.164974,120.968170,-24.934454
3.375000,-52.887154,-2.359138,-56.313808,-25.728018,121.928528,-25.191542
3.381250,-46.958591,-2.358589,-53.166523,-26.349453,120.166580,-25.484306
3.387500,-41.035015,-2.358221,-49.034191,-26.995171,116.166084,-25.765848
3.393750,-35.117886,-2.358491,-44.095520,-27.624935,109.617493,-26.045361
3.400000,-29.203707,-2.359174,-38.571358,-28.196375,100.940071,-26.285910
3.406250,-23.288998,-2.359675,-32.772915,-28.684099,91.101387,-26.557556
3.412500,-17.374662,-2.360218,-27.041332,-29.066055,80.937065,-26.818956
3.418750,-11.464424,-2.361478,-21.341188,-29.318605,68.950851,-27.043661
3.425000,-5.557458,-2.363624,-15.670983,-29.431513,57.432495,-27.221571
3.431250,0.351183,-2.365999,-10.310797,-29.410509,46.821545,-27.352871
3.437500,6.263899,-2.368238,-5.474966,-29.254133,37.570431,-27.444656
3.443750,12.176741,-2.370942,-1.170154,-28.944571,30.255302,-27.448833
3.450000,18.087809,-2.374601,2.345000,-28.517620,23.327051,-27.380220
3.456250,24.001619,-2.378569,4.958803,-28.008940,18.500500,-27.251595
3.462500,29.923246,-2.382010,6.774190,-27.457453,15.451570,-27.066122
3.468750,35.850380,-2.384814,8.006553,-26.903864,13.853738,-26.822298
3.475000,41.778187,-2.387389,8.911999,-26.396955,13.359276,-26.529888
3.481250,47.704845,-2.389927,9.815549,-25.946795,13.579694,-26.203936
3.487500,53.630390,-2.392609,9.529807,-25.534800,14.124237,-25.841032
3.493750,59.555058,-2.395664,9.716800,-25.205627,14.583177,-25.445223
3.500000,65.479042,-2.399090,10.171128,-24.974148,14.527604,-25.028046
3.506250,71.405136,-2.402490,10.824848,-24.834599,13.619146,-24.600161
3.512500,77.335304,-2.405179,11.602899,-24.764784,11.587030,-24.171310
3.518750,83.266045,-2.407577,12.448712,-24.713438,8.234070,-23.747906
3.525000,89.191788,-2.410731,13.306064,-24.637207,3.421373,-23.336487
3.531250,95.112869,-2.415006,14.995587,-24.606428,-0.801364,-22.949768
3.537500,99.140678,-2.419707,16.959188,-24.556332,-5.870646,-22.604515
3.543750,102.901016,-2.424126,19.310207,-24.469938,-11.331153,-22.313318
3.550000,105.859215,-2.428621,22.229576,-24.332554,-16.880068,-22.037457
3.556250,107.519104,-2.433654,24.060953,-24.130917,-22.167990,-21.755997
3.562500,107.456131,-2.439083,26.468397,-23.887863,-26.794165,-21.506882
3.568750,105.335175,-2.443893,28.943199,-23.629934,-31.234207,-21.347864
3.575000,100.921242,-2.447507,31.085743,-23.383326,-35.111698,-21.269184
3.581250,94.087509,-2.449949,32.517296,-23.180862,-38.598972,-21.297176
3.587500,84.828934,-2.451862,32.900291,-23.057991,-40.247131,-21.379566
3.593750,73.266403,-2.453372,32.033554,-23.019289,-42.254185,-21.527546
3.600000,59.640598,-2.453945,32.046371,-23.064600,-44.126415,-21.762241
3.606250,44.292583,-2.453210,31.305185,-23.211138,-45.799717,-22.079206
3.612500,27.645910,-2.451482,30.205772,-23.455143,-47.298752,-22.455545
3.618750,10.188578,-2.449267,29.176449,-23.796764,-48.721912,-22.857788
3.625000,-7.545734,-2.446496,28.420517,-24.256947,-50.416634,-23.316927
3.631250,-25.009430,-2.442864,28.395859,-24.804016,-50.441040,-23.805222
3.637500,-41.671894,-2.438828,29.467241,-25.402149,-50.168636,-24.291000
3.643750,-57.045498,-2.435046,31.797201,-26.013540,-49.318577,-24.752241
3.650000,-70.702339,-2.431854,33.534397,-26.596352,-47.724552,-25.168667
3.656250,-82.299484,-2.429318,36.241055,-27.092060,-45.290081,-25.523188
3.662500,-91.597862,-2.427464,39.171261,-27.481844,-41.981636,-25.805437
3.668750,-98.476097,-2.426499,43.306183,-27.785147,-37.871426,-26.019297
3.675000,-102.932297,-2.426249,46.789982,-27.964193,-33.091690,-26.166580
3.681250,-105.085564,-2.426362,49.433758,-28.008059,-27.793514,-26.246538
3.687500,-105.173759,-2.426938,50.992577,-27.923380,-22.204885,-26.262167
3.693750,-103.540375,-2.428667,51.287205,-27.732618,-16.598789,-26.222164
3.700000,-100.611557,-2.431671,50.247601,-27.462822,-11.252608,-26.140474
3.706250,-96.873779,-2.435005,48.040009,-27.108267,-6.383200,-26.021442
3.712500,-92.857071,-2.438187,44.725002,-26.710453,-2.104027,-25.858356
3.718750,-86.943848,-2.441536,38.473995,-26.307875,1.438515,-25.655594
3.725000,-81.031609,-2.445533,31.183605,-25.924662,4.182536,-25.418245
3.731250,-75.118011,-2.449678,22.636908,-25.592094,6.391889,-25.194458
3.737500,-69.199387,-2.453444,14.764262,-25.347672,8.361917,-25.002153
3.743750,-63.277218,-2.456750,6.222364,-25.191650,10.237447,-24.858128
3.750000,-57.355122,-2.460013,-2.382781,-25.112484,12.482163,-24.725117
3.756250,-51.434380,-2.463092,-10.586393,-25.104078,13.921636,-24.580912
3.762500,-45.512691,-2.465890,-17.963926,-25.149549,16.337875,-24.416464
3.768750,-39.590565,-2.468593,-24.065125,-25.216103,17.701378,-24.291994
3.775000,-33.669819,-2.471453,-28.581827,-25.298759,19.719208,-24.208704
3.781250,-27.749935,-2.474329,-31.419958,-25.396225,21.649017,-24.145887
3.787500,-21.828615,-2.476923,-32.248947,-25.485083,23.142857,-24.094345
3.793750,-15.907406,-2.479437,-30.915941,-25.564291,23.923075,-24.054300
3.800000,-9.987930,-2.482259,-29.298553,-25.624554,23.805885,-24.022226
3.806250,-4.069896,-2.485396,-25.303013,-25.584539,22.781065,-23.966539
3.812500,1.848786,-2.488717,-20.063984,-25.493149,20.831928,-23.882639
3.818750,7.767579,-2.492350,-14.284481,-25.368387,17.848589,-23.779015
3.825000,13.686237,-2.496398,-8.529859,-25.223305,13.943711,-23.659842
3.831250,19.607294,-2.500378,-1.172894,-25.070299,9.374283,-23.533113
3.837500,25.531876,-2.503889,5.942356,-24.922201,4.475824,-23.416925
3.843750,31.456419,-2.507438,12.924845,-24.782177,-0.381132,-23.330297
3.850000,37.378696,-2.511408,18.065117,-24.641378,-4.381015,-23.191940
3.856250,43.300667,-2.515431,23.079620,-24.506247,-9.305298,-23.051956
3.862500,49.225891,-2.518839,27.508423,-24.379551,-13.250465,-22.925573
3.868750,55.151154,-2.522087,31.000742,-24.252869,-16.287399,-22.814108
3.875000,61.070683,-2.526209,33.254787,-24.107506,-18.529947,-22.711172
3.881250,66.985954,-2.531490,33.987164,-23.924213,-20.143442,-22.602331
3.887500,72.903763,-2.537102,32.790535,-23.727346,-21.383396,-22.483246
3.893750,78.828217,-2.542220,29.492149,-23.501030,-22.623194,-22.361984
3.900000,84.755669,-2.547347,26.265776,-23.230715,-24.169991,-22.234127
3.906250,90.680389,-2.553399,21.694345,-22.914003,-26.314402,-22.096621
3.912500,96.604622,-2.560484,16.259220,-22.552820,-29.398933,-21.946430
3.918750,100.639748,-2.568038,10.450230,-22.153355,-31.862926,-21.774214
3.925000,104.409950,-2.575495,4.676143,-21.735577,-35.645069,-21.560745
3.931250,107.382965,-2.582541,-0.716940,-21.325756,-40.570541,-21.344131
3.937500,109.064842,-2.589182,-5.354842,-20.946018,-44.546944,-21.159067
3.943750,109.027786,-2.595346,-8.907560,-20.618628,-48.434795,-21.007332
3.950000,106.931824,-2.600552,-11.153275,-20.364933,-51.485336,-20.899778
3.956250,102.540062,-2.604281,-11.982780,-20.203434,-53.066177,-20.849771
3.962500,95.729187,-2.606385,-11.366251,-20.145567,-52.635456,-20.869471
3.968750,86.495171,-2.607042,-9.337761,-20.192451,-49.753586,-20.967875
3.975000,74.956627,-2.606427,-7.890818,-20.323784,-44.128746,-21.154043
3.981250,61.349224,-2.604678,-3.401129,-20.529692,-37.518635,-21.473135
3.987500,46.012508,-2.601812,1.432254,-20.870428,-28.134687,-21.825115
3.993750,29.372007,-2.598106,6.875768,-21.278009,-16.626204,-22.270546
4.000000,11.918880,-2.593694,12.536325,-21.743822,-3.999361,-22.819029
4.006250,-5.814236,-2.588621,17.993855,-22.256544,9.037313,-23.482367
4.012500,-23.282681,-2.583183,22.956688,-22.793186,21.696373,-24.230244
4.018750,-39.955986,-2.578148,27.181488,-23.326046,32.493786,-24.953436
4.025000,-55.342060,-2.573862,30.427368,-23.833963,43.128063,-25.647062
4.031250,-69.010002,-2.570127,32.699394,-24.310431,50.630089,-26.379452
4.037500,-80.616531,-2.566848,34.119694,-24.738657,57.073059,-27.092222
4.043750,-89.927078,-2.564629,34.624386,-25.104048,61.020298,-27.751875
4.050000,-96.818474,-2.563577,34.155434,-25.403212,62.862770,-28.337387
4.056250,-101.286217,-2.563015,32.720383,-25.631800,63.099739,-28.835426
4.062500,-103.448685,-2.562320,30.492435,-25.768259,60.466785,-29.223816
4.068750,-103.547806,-2.562149,27.623341,-25.819471,57.344803,-29.478382
4.075000,-101.929520,-2.563783,24.235260,-25.801367,53.844337,-29.599760
4.081250,-99.016335,-2.566897,20.627703,-25.726103,50.147011,-29.590456
4.087500,-95.290779,-2.570107,17.183464,-25.601170,46.556072,-29.450893
4.093750,-91.283356,-2.572671,12.434409,-25.432386,43.432896,-29.183456
4.100000,-85.380577,-2.575348,8.417239,-25.229868,38.971878,-28.803265
4.106250,-79.481949,-2.578882,5.030792,-25.000774,34.884396,-28.339956
4.112500,-73.584816,-2.583180,2.227125,-24.742041,31.041039,-27.792358
4.118750,-67.684570,-2.587898,-0.075712,-24.458317,27.582359,-27.153490
4.125000,-61.782131,-2.593120,-2.073356,-24.163925,24.110916,-26.469343
4.131250,-55.878201,-2.598958,-3.898630,-23.869514,20.513298,-25.773468
4.137500,-49.970047,-2.605053,-5.625838,-23.581491,16.790709,-25.092339
4.143750,-44.056210,-2.610964,-7.306502,-23.301409,12.976163,-24.445816
4.150000,-38.138386,-2.616801,-9.002480,-23.030149,9.099593,-23.849077
4.156250,-32.219494,-2.623061,-8.617064,-22.766682,5.199722,-23.306854
4.162500,-26.299229,-2.629597,-7.588445,-22.507412,3.474583,-22.789827
4.168750,-20.375614,-2.636372,-7.393238,-22.244513,2.317707,-22.387102
4.175000,-14.448325,-2.643251,-6.101771,-21.984705,0.520640,-22.042376
4.181250,-8.517328,-2.650124,-4.055801,-21.738522,0.014563,-21.762388
4.187500,-2.581481,-2.656705,-1.555609,-21.512638,0.573643,-21.520704
4.193750,3.359023,-2.662914,1.083703,-21.314461,2.003147,-21.315794
4.200000,9.303279,-2.668583,3.535086,-21.151192,4.877082,-21.221024
4.206250,15.250853,-2.673443,5.479909,-21.030342,6.272756,-21.213793
4.212500,21.201042,-2.677212,8.812129,-20.953400,9.135838,-21.237007
4.218750,27.151150,-2.680167,11.971970,-20.911341,10.977890,-21.282452
4.225000,33.098103,-2.682751,15.262562,-20.896965,11.967734,-21.360928
4.231250,39.040936,-2.685184,17.030279,-20.900072,11.963808,-21.465317
4.237500,44.981533,-2.687407,19.120264,-20.912510,10.781738,-21.577261
4.243750,50.919834,-2.689263,21.074463,-20.950232,10.363399,-21.691513
4.250000,56.857037,-2.690741,22.493916,-21.005219,9.069180,-21.811861
4.256250,62.792442,-2.691738,23.093248,-21.059336,7.324048,-21.923649
4.262500,68.723854,-2.692665,22.493826,-21.097176,5.535172,-22.013088
4.268750,74.648674,-2.694136,20.341677,-21.107105,4.036226,-22.066513
4.275000,80.566467,-2.696653,18.493484,-21.082550,3.112338,-22.073999
4.281250,86.482368,-2.699841,15.317358,-21.014099,3.005126,-22.023491
4.287500,92.399696,-2.703369,11.083841,-20.893608,3.897777,-21.891703
4.293750,96.421753,-2.707842,6.005761,-20.732332,5.802066,-21.698780
4.300000,100.168877,-2.713656,0.300288,-20.539473,8.326879,-21.481998
4.306250,103.114731,-2.719959,-5.687257,-20.316854,11.603224,-21.231424
4.312500,104.772827,-2.725648,-11.669387,-20.072309,15.484558,-20.951630
4.318750,104.713356,-2.730722,-17.402239,-19.816759,19.709394,-20.652985
4.325000,102.588295,-2.736176,-22.684889,-19.567276,23.976521,-20.351694
4.331250,98.160271,-2.742207,-27.355860,-19.343378,27.976042,-20.063795
4.337500,91.314262,-2.747820,-31.275305,-19.170492,31.431410,-19.798750
4.343750,82.053322,-2.752495,-34.361153,-19.085106,34.101410,-19.540855
4.350000,70.495590,-2.756191,-35.705303,-18.991928,35.742756,-19.329704
4.356250,56.875179,-2.758971,-35.770123,-18.993746,37.873940,-19.202971
4.362500,41.532841,-2.760392,-34.496239,-19.100670,39.279640,-19.167032
4.368750,24.894476,-2.760508,-31.825045,-19.309067,40.367001,-19.246521
4.375000,7.447129,-2.760039,-27.839819,-19.609543,41.517342,-19.447632
4.381250,-10.278127,-2.759122,-22.709314,-19.985218,42.564007,-19.683245
4.387500,-27.731457,-2.757161,-16.657412,-20.412296,44.353069,-19.966787
4.393750,-44.380272,-2.754190,-9.997035,-20.870293,45.203953,-20.341080
4.400000,-59.738964,-2.751217,-3.111546,-21.344814,46.936565,-20.797859
4.406250,-73.381012,-2.748614,1.741386,-21.819235,48.979378,-21.303751
4.412500,-84.961731,-2.745739,8.035725,-22.276398,51.019165,-21.834660
4.418750,-94.242172,-2.742422,13.593841,-22.704464,52.826439,-22.371986
4.425000,-101.104446,-2.739496,18.229647,-23.065826,54.263477,-22.883232
4.431250,-105.551895,-2.737497,21.922161,-23.332346,55.331501,-23.324287
4.437500,-107.701279,-2.735979,24.435953,-23.511341,55.879082,-23.683924
4.443750,-107.786781,-2.734623,25.773993,-23.609589,55.833782,-23.953180
4.450000,-106.151772,-2.734182,26.113091,-23.628536,55.288933,-24.121754
4.456250,-103.225716,-2.735315,25.708261,-23.570835,54.403828,-24.184059
4.462500,-99.495735,-2.737494,24.883615,-23.443714,53.354145,-24.141039
4.468750,-95.488411,-2.740064,24.037640,-23.261456,52.350513,-24.003553
4.475000,-89.583824,-2.743225,21.723003,-23.040890,51.648205,-23.791836
4.481250,-83.679497,-2.747227,20.105217,-22.773563,49.815754,-23.467548
4.487500,-77.772247,-2.751613,19.098249,-22.480215,48.740726,-23.067963
4.493750,-71.859947,-2.755824,18.469446,-22.188084,47.943939,-22.630186
4.500000,-65.946648,-2.760751,18.120565,-21.915613,47.190990,-22.181753
4.506250,-60.035618,-2.767147,17.996592,-21.671469,46.288795,-21.743141
4.512500,-54.120682,-2.774183,18.045813,-21.452951,45.052441,-21.329069
4.518750,-48.193459,-2.780443,18.201469,-21.238926,43.286793,-20.952429
4.525000,-42.255928,-2.785506,18.376616,-20.983437,40.765469,-20.637136
4.531250,-36.316879,-2.790519,19.869320,-20.818789,37.172665,-20.421320
4.537500,-30.379992,-2.796043,21.631851,-20.689894,33.802284,-20.238729
4.543750,-24.439201,-2.801478,22.269407,-20.562763,29.045425,-20.119198
4.550000,-18.490610,-2.806026,23.564659,-20.453224,23.409420,-20.051645
4.556250,-12.535966,-2.809579,25.034540,-20.384445,17.181356,-20.028652
4.562500,-6.579470,-2.812555,26.333895,-20.375107,11.284117,-20.134750
4.568750,-0.600618,-2.814974,27.147997,-20.448334,5.652958,-20.355909
4.575000,5.359045,-2.816663,27.186619,-20.641348,0.505393,-20.644981
4.581250,11.321693,-2.817262,26.202419,-20.953081,-4.243432,-20.976023
4.587500,17.285391,-2.816592,25.096182,-21.325281,-7.884540,-21.372900
4.593750,23.247744,-2.814919,23.273327,-21.801079,-10.274714,-21.833897
4.600000,29.206133,-2.812526,20.739359,-22.385298,-11.428687,-22.342449
4.606250,35.160198,-2.809283,17.509155,-23.114786,-11.504898,-22.890877
4.612500,41.109562,-2.805174,13.685219,-23.919676,-10.825723,-23.478422
4.618750,47.050617,-2.800989,9.693744,-24.789061,-9.587751,-24.081549
4.625000,52.981197,-2.797409,5.389344,-25.708143,-8.075495,-24.683004
4.631250,58.904823,-2.794073,0.990736,-26.646955,-6.643744,-25.269304
4.637500,64.826843,-2.790099,-3.263891,-27.566179,-5.667636,-25.828049
4.643750,70.745636,-2.785583,-9.029661,-28.417923,-5.526506,-26.329308
4.650000,76.652817,-2.781972,-14.471408,-29.148552,-6.597044,-26.732010
4.656250,82.545380,-2.780334,-17.813816,-29.711309,-9.187999,-27.005199
4.662500,88.430428,-2.780356,-20.931431,-30.096777,-11.629472,-27.191803
4.668750,94.314285,-2.781576,-23.777630,-30.283895,-15.609582,-27.274050
4.675000,98.303467,-2.784147,-26.197544,-30.256861,-20.700432,-27.238791
4.681250,102.019821,-2.788063,-28.153990,-30.013710,-26.640987,-27.083107
4.687500,104.933296,-2.792852,-29.687227,-29.572943,-33.171207,-26.815014
4.693750,106.552338,-2.798555,-30.884918,-28.969902,-40.009354,-26.447020
4.700000,106.447136,-2.805928,-31.867727,-28.251032,-46.809120,-25.985924
4.706250,104.277962,-2.815122,-32.936958,-27.412722,-53.201103,-25.429619
4.712500,99.816971,-2.824707,-34.421555,-26.492723,-58.803711,-24.777254
4.718750,92.948296,-2.833305,-36.382580,-25.547861,-65.010674,-24.134691
