Anritsu VNA Frequency[GHz],S21[deg],S21[dB],S11[deg],S11[dB],S22[deg],S22[dB]
1338082488.54,2012_05_27_02:34:48,+40.671,+10.250,+55.227,+10.268,+13.907,+13.717,+14.013,+13.763,10.369527,-17.227
3.006250,33.860306,-1.747504,59.121120,-26.654751,-80.418846,-27.439442
3.012500,33.860306,-1.747504,59.121120,-26.654751,-80.418846,-27.439442
3.018750,33.860306,-1.747504,59.121120,-26.654751,-80.418846,-27.439442
3.025000,33.860306,-1.747504,59.121120,-26.654751,-80.418846,-27.439442
3.031250,33.860306,-1.747504,59.121120,-26.654751,-80.418846,-27.439442
3.037500,33.860306,-1.747504,59.121120,-26.654751,-80.418846,-27.439442
3.043750,33.860306,-1.747504,59.121120,-26.654751,-80.418846,-27.439442
3.050000,33.860306,-1.747504,59.121120,-26.654751,-80.418846,-27.439442
3.056250,33.860306,-1.747504,59.121120,-26.654751,-80.418846,-27.439442
3.062500,33.860306,-1.747504,59.121120,-26.654751,-80.418846,-27.439442
3.068750,33.860306,-1.747504,59.121120,-26.654751,-80.418846,-27.439442
3.075000,33.860306,-1.747504,59.121120,-26.654751,-80.418846,-27.439442
3.081250,33.860306,-1.747504,59.121120,-26.654751,-80.418846,-27.439442
3.087500,33.860306,-1.747504,59.121120,-26.654751,-80.418846,-27.439442
3.093750,33.860306,-1.749428,59.121120,-26.455374,-80.418846,-27.187809
3.100000,39.766914,-1.751667,56.455067,-26.305212,-82.426422,-26.954346
3.106250,45.673744,-1.753906,52.907532,-26.227461,-82.815605,-26.740944
3.112500,51.581142,-1.756194,48.842205,-26.241470,-81.230431,-26.518353
3.118750,57.487495,-1.758706,42.854225,-26.287596,-79.513077,-26.217785
3.125000,63.392887,-1.761305,38.066086,-26.334238,-75.451263,-25.956751
3.131250,69.298050,-1.763995,33.691891,-26.407753,-69.281342,-25.668972
3.137500,75.201965,-1.767010,29.986481,-26.509243,-61.388664,-25.345144
3.143750,81.104347,-1.770593,27.157734,-26.629780,-51.958328,-24.993071
3.150000,87.007408,-1.774403,25.383488,-26.755383,-41.147369,-24.625141
3.156250,92.913429,-1.777964,24.786497,-26.871134,-29.130396,-24.260223
3.162500,96.926964,-1.781271,25.431887,-26.963903,-16.106274,-23.921623
3.168750,100.667427,-1.784676,27.338358,-27.026442,-2.285946,-23.658735
3.175000,103.600868,-1.788302,30.551781,-27.036539,10.271557,-23.414162
3.181250,105.237602,-1.792046,33.313732,-26.981930,23.600496,-23.193104
3.187500,105.151962,-1.795560,37.088867,-26.879801,36.383141,-23.025923
3.193750,103.002769,-1.798811,41.174988,-26.742090,48.122181,-22.929981
3.200000,98.552544,-1.801744,45.003387,-26.577333,58.402550,-22.906931
3.206250,91.679482,-1.804281,48.090755,-26.395723,66.837944,-22.957151
3.212500,82.381973,-1.806643,50.020847,-26.211250,73.116760,-23.089207
3.218750,70.780312,-1.809183,50.481518,-26.034678,77.015610,-23.285500
3.225000,57.112965,-1.811587,51.473888,-25.859619,78.161179,-23.490858
3.231250,41.722675,-1.813452,51.531441,-25.686619,76.723770,-23.713753
3.237500,25.034952,-1.814998,49.167110,-25.515289,74.708511,-23.945848
3.243750,7.537668,-1.816838,46.490559,-25.322458,70.534515,-24.164820
3.250000,-10.236088,-1.819264,43.367302,-25.149632,64.802727,-24.351231
3.256250,-27.736530,-1.821821,39.445446,-25.008564,58.068199,-24.503935
3.262500,-44.428406,-1.824043,34.958897,-24.882851,50.963139,-24.611889
3.268750,-59.821129,-1.825945,29.850185,-24.768318,44.182964,-24.666534
3.275000,-73.490936,-1.827966,23.995581,-24.664347,38.312000,-24.668179
3.281250,-85.097794,-1.830399,17.287104,-24.561646,33.857540,-24.623825
3.287500,-94.403084,-1.833212,9.631222,-24.447311,31.201811,-24.547157
3.293750,-101.282349,-1.836131,0.995229,-24.282972,30.600245,-24.439354
3.300000,-105.735619,-1.838923,-6.445576,-24.114655,32.216717,-24.301294
3.306250,-107.883957,-1.841519,-15.113791,-23.979042,36.024502,-24.159922
3.312500,-107.965195,-1.843865,-23.786089,-23.857002,41.849678,-24.046402
3.318750,-106.320740,-1.846109,-32.169346,-23.756691,49.424976,-23.981907
3.325000,-103.378166,-1.848126,-40.001934,-23.695530,58.406204,-23.976883
3.331250,-99.628677,-1.849797,-47.024475,-23.698689,68.360786,-24.034513
3.337500,-95.605331,-1.851132,-53.047527,-23.830969,78.775414,-24.152916
3.343750,-89.687180,-1.852075,-58.084820,-23.991686,89.110443,-24.317549
3.350000,-83.769432,-1.852637,-62.527752,-24.213825,96.964676,-24.472048
3.356250,-77.852287,-1.852899,-65.964142,-24.539486,105.572792,-24.671555
3.362500,-71.937309,-1.852978,-66.682861,-24.990698,111.835312,-24.922068
3.368750,-66.024269,-1.852834,-66.326851,-25.548254,115.878792,-25.213001
3.375000,-60.111469,-1.852101,-64.775185,-26.185448,117.301712,-25.590321
3.381250,-54.200939,-1.850968,-62.044044,-26.867830,115.941612,-25.926266
3.387500,-48.296635,-1.850223,-58.226566,-27.557201,112.421043,-26.250355
3.393750,-42.398506,-1.850290,-53.484829,-28.208580,106.186966,-26.554592
3.400000,-36.502766,-1.850711,-48.038349,-28.779388,97.802254,-26.831295
3.406250,-30.605732,-1.850959,-42.224628,-29.248615,88.270195,-27.111822
3.412500,-24.709049,-1.851308,-36.367077,-29.591026,78.254211,-27.361689
3.418750,-18.817225,-1.852560,-28.533392,-29.785257,66.396332,-27.559727
3.425000,-12.928202,-1.854777,-22.266764,-29.826982,54.982609,-27.699841
3.431250,-7.036551,-1.857123,-15.714202,-29.731489,44.446434,-27.787687
3.437500,-1.140577,-1.859322,-9.132926,-29.483440,35.241680,-27.827198
3.443750,4.755063,-1.862156,-2.544375,-29.080339,28.053749,-27.766399
3.450000,10.649171,-1.865924,3.534653,-28.568316,21.155127,-27.634747
3.456250,16.547361,-1.869854,8.941221,-27.986156,16.329432,-27.444948
3.462500,22.454027,-1.873125,13.668594,-27.377556,13.281353,-27.199459
3.468750,28.365824,-1.875770,17.803703,-26.788622,11.696649,-26.895805
3.475000,34.277714,-1.878155,21.453943,-26.285341,11.228025,-26.549059
3.481250,40.188946,-1.880421,24.883579,-25.818840,11.474330,-26.174921
3.487500,46.099419,-1.882697,26.818390,-25.420525,12.077981,-25.767479
3.493750,52.008259,-1.885371,28.655222,-25.125828,12.598762,-25.334488
3.500000,57.916069,-1.888483,30.218174,-24.939693,12.601970,-24.887732
3.506250,63.826813,-1.891374,31.405386,-24.847521,11.757620,-24.438021
3.512500,69.741753,-1.893451,32.123669,-24.815220,9.795513,-23.994425
3.518750,75.656548,-1.895321,32.338493,-24.752604,6.514288,-23.562054
3.525000,81.565392,-1.898114,32.218449,-24.737883,1.760054,-23.147245
3.531250,87.469734,-1.901991,32.345833,-24.725594,-2.440644,-22.764694
3.537500,93.376595,-1.906139,32.353397,-24.680435,-7.545593,-22.430704
3.543750,97.394554,-1.910007,32.490833,-24.592787,-13.129769,-22.141214
3.550000,101.142273,-1.914023,33.097267,-24.435614,-18.912010,-21.859491
3.556250,104.083206,-1.918795,32.616230,-24.210148,-24.415075,-21.531631
3.562500,105.729309,-1.923878,32.752056,-23.946020,-29.351927,-21.290440
3.568750,105.659897,-1.928155,33.164055,-23.670065,-32.501392,-21.120258
3.575000,103.534210,-1.931087,33.574638,-23.408979,-34.871159,-21.022467
3.581250,99.109550,-1.932959,33.697937,-23.197157,-36.195770,-21.009680
3.587500,92.259308,-1.934411,33.277008,-23.070818,-36.491436,-21.042633
3.593750,82.983551,-1.935513,32.201614,-23.019524,-35.627571,-21.143972
3.600000,71.408142,-1.935575,30.411102,-23.055023,-33.455959,-21.327806
3.606250,57.769978,-1.934269,29.754951,-23.191515,-30.129490,-21.588354
3.612500,42.405014,-1.932114,28.778095,-23.414385,-25.925762,-21.899277
3.618750,25.736494,-1.929594,27.884695,-23.740541,-21.238974,-22.235601
3.625000,8.258306,-1.926426,27.189003,-24.181158,-16.858288,-22.639759
3.631250,-9.494988,-1.922425,27.294966,-24.699083,-10.972086,-23.073700
3.637500,-26.980816,-1.918071,28.509708,-25.258766,-5.309221,-23.509687
3.643750,-43.670528,-1.914094,30.975616,-25.822901,0.104108,-23.927084
3.650000,-59.070866,-1.910757,32.826931,-26.347111,5.183122,-24.309626
3.656250,-72.751495,-1.907992,35.625294,-26.755461,9.838004,-24.640102
3.662500,-84.370735,-1.905947,38.544212,-27.094360,13.975658,-24.913784
3.668750,-93.691147,-1.904815,42.514107,-27.341377,17.453074,-25.137360
3.675000,-100.588844,-1.904264,45.849960,-27.468538,20.185476,-25.308928
3.681250,-105.061264,-1.903792,48.282486,-27.473015,22.116051,-25.427309
3.687500,-107.231873,-1.903810,49.574375,-27.367720,23.167540,-25.495338
3.693750,-107.341034,-1.905094,49.575756,-27.178686,23.288322,-25.521870
3.700000,-105.727188,-1.907491,48.291767,-26.911337,22.484371,-25.517851
3.706250,-102.811218,-1.910040,45.879093,-26.583666,20.884476,-25.476013
3.712500,-99.083542,-1.912362,42.320789,-26.234421,18.711344,-25.389900
3.718750,-95.081902,-1.915009,35.910381,-25.891432,16.109083,-25.264677
3.725000,-89.187035,-1.918299,28.570570,-25.570007,13.411959,-25.115913
3.731250,-83.289940,-1.921641,20.032522,-25.315039,11.223904,-24.982357
3.737500,-77.387604,-1.924550,12.230435,-25.149328,9.960732,-24.876312
3.743750,-71.482887,-1.927186,3.914781,-25.059225,10.031815,-24.820234
3.750000,-65.579414,-1.929903,-4.364618,-25.032255,10.035275,-24.728338
3.756250,-59.677017,-1.932574,-12.212428,-25.064491,9.950269,-24.621328
3.762500,-53.773430,-1.935054,-19.207127,-25.135035,11.106680,-24.500801
3.768750,-47.869919,-1.937540,-24.910473,-25.207682,13.244919,-24.414654
3.775000,-41.967876,-1.940290,-29.089663,-25.293871,15.903320,-24.351757
3.781250,-36.066288,-1.943105,-31.639959,-25.380594,18.488323,-24.296974
3.787500,-30.163288,-1.945618,-32.207806,-25.447495,20.632982,-24.243057
3.793750,-24.260336,-1.948227,-30.709312,-25.508640,22.031078,-24.193792
3.800000,-18.359194,-1.951235,-29.062090,-25.509970,22.485636,-24.141735
3.806250,-12.458619,-1.954558,-24.914652,-25.424467,22.010197,-24.050024
3.812500,-6.556916,-1.958040,-19.783226,-25.291845,20.470520,-23.927355
3.818750,-0.654670,-1.961867,-14.210165,-25.129511,17.752098,-23.784039
3.825000,5.248231,-1.966048,-8.735021,-24.951775,13.988733,-23.627460
3.831250,11.155361,-1.969918,-1.701749,-24.772869,9.443771,-23.467817
3.837500,17.066004,-1.973232,5.072465,-24.606941,4.444242,-23.342762
3.843750,22.976322,-1.976678,11.745263,-24.449585,-0.675113,-23.205378
3.850000,28.883888,-1.980618,16.630648,-24.294680,-6.598801,-23.038918
3.856250,34.792423,-1.984387,21.408009,-24.151827,-12.136908,-22.882896
3.862500,40.705032,-1.987452,25.656002,-24.019283,-17.267233,-22.745373
3.868750,46.617142,-1.990410,29.043184,-23.884165,-21.968096,-22.623531
3.875000,52.522507,-1.994417,31.251032,-23.724461,-26.265366,-22.506538
3.881250,58.424026,-1.999616,31.925352,-23.545687,-30.230204,-22.378727
3.887500,64.328888,-2.004975,30.667362,-23.349974,-34.043163,-22.244473
3.893750,70.240440,-2.009854,27.406277,-23.119551,-37.964622,-22.108814
3.900000,76.153191,-2.014963,24.219481,-22.843672,-42.122616,-21.964342
3.906250,82.063133,-2.021123,19.656507,-22.522623,-44.821121,-21.809162
3.912500,87.973114,-2.028294,14.185228,-22.157667,-47.930290,-21.636541
3.918750,93.889381,-2.035784,8.272449,-21.756685,-51.154209,-21.439041
3.925000,97.919327,-2.043080,2.282083,-21.346155,-54.258316,-21.185987
3.931250,101.684196,-2.049992,-3.443019,-20.951941,-57.302010,-20.967400
3.937500,104.649704,-2.056396,-8.473985,-20.593937,-58.090931,-20.779064
3.943750,106.323471,-2.062122,-12.484255,-20.295094,-57.699688,-20.629292
3.950000,106.279427,-2.066717,-15.253191,-20.077454,-55.663387,-20.532118
3.956250,104.176056,-2.069613,-16.657486,-19.959257,-51.626427,-20.502983
3.962500,99.774277,-2.070741,-16.638014,-19.950378,-45.338917,-20.553869
3.968750,92.948196,-2.070477,-15.192212,-20.048134,-36.661350,-20.693075
3.975000,83.695160,-2.068847,-14.266897,-20.219412,-25.601280,-20.931902
3.981250,72.136223,-2.065944,-10.175393,-20.512526,-12.319309,-21.298512
3.987500,58.506893,-2.061897,-5.830885,-20.913010,1.578998,-21.706388
3.993750,43.145508,-2.057070,-0.544887,-21.376923,16.745472,-22.217386
4.000000,26.478853,-2.051610,5.031674,-21.899519,32.376755,-22.838415
4.006250,8.999240,-2.045490,10.548698,-22.464685,47.607655,-23.601810
4.012500,-8.763207,-2.039235,15.738022,-23.044647,61.375610,-24.362806
4.018750,-26.263968,-2.033717,20.350613,-23.606808,74.348778,-25.098610
4.025000,-42.969292,-2.029094,24.100109,-24.135477,84.587051,-25.845196
4.031250,-58.382458,-2.024963,28.849112,-24.621340,92.988914,-26.606131
4.037500,-72.074280,-2.021448,31.229828,-25.043184,98.686554,-27.327213
4.043750,-83.707115,-2.019172,33.284367,-25.388597,101.960358,-27.978743
4.050000,-93.042542,-2.018298,34.865211,-25.657114,103.207253,-28.543488
4.056250,-99.952591,-2.017787,35.903435,-25.839615,102.953873,-29.011843
4.062500,-104.434860,-2.017075,36.477623,-25.918222,100.000275,-29.350603
4.068750,-106.617088,-2.017104,36.530117,-25.909853,96.745567,-29.545923
4.075000,-106.741600,-2.019114,36.082352,-25.831902,93.249748,-29.605654
4.081250,-105.141907,-2.022367,35.313065,-25.697996,89.739075,-29.533915
4.087500,-102.235786,-2.025471,34.477585,-25.516499,84.376122,-29.332010
4.093750,-98.515465,-2.027916,33.879284,-25.296497,78.888908,-29.005964
4.100000,-94.522766,-2.030650,31.937101,-25.052525,73.132614,-28.576553
4.106250,-88.639053,-2.034224,30.647369,-24.789484,67.011192,-28.083061
4.112500,-82.755829,-2.038331,29.913383,-24.499052,60.609169,-27.483217
4.118750,-76.869179,-2.042771,29.475218,-24.197506,54.094330,-26.813541
4.125000,-70.981285,-2.047809,29.043549,-23.900066,47.205025,-26.114679
4.131250,-65.092537,-2.053466,28.447868,-23.615849,40.091923,-25.416740
4.137500,-59.198631,-2.059182,27.573669,-23.348089,32.953453,-24.742945
4.143750,-53.299007,-2.064641,26.335869,-23.096069,26.001457,-24.111229
4.150000,-47.396400,-2.070060,24.648766,-22.858658,19.427952,-23.534653
4.156250,-41.493599,-2.075912,24.607124,-22.632528,13.407493,-23.013281
4.162500,-35.589634,-2.082079,24.805889,-22.406513,8.085333,-22.560440
4.168750,-29.682175,-2.088413,23.827486,-22.169584,5.159610,-22.178493
4.175000,-23.770634,-2.094829,23.526829,-21.940598,2.072226,-21.865429
4.181250,-17.855499,-2.101160,23.714832,-21.724810,0.539318,-21.614882
4.187500,-11.935954,-2.107190,24.193426,-21.526974,0.442198,-21.365492
4.193750,-6.011426,-2.112819,24.739048,-21.353117,1.826089,-21.228209
4.200000,-0.083278,-2.117864,25.121639,-21.210764,2.790518,-21.175030
4.206250,5.848226,-2.121994,25.124081,-21.107349,4.006598,-21.183432
4.212500,11.782493,-2.125023,24.584398,-21.039667,6.503605,-21.210468
4.218750,17.715782,-2.127306,25.562243,-20.997108,8.049633,-21.261044
4.225000,23.645170,-2.129346,24.650398,-20.975191,8.641419,-21.335144
4.231250,29.570433,-2.131202,23.827894,-20.962727,8.132078,-21.418644
4.237500,35.493633,-2.132839,22.886976,-20.959042,6.352471,-21.489004
4.243750,41.414394,-2.134240,21.490238,-20.980490,5.220315,-21.555561
4.250000,47.333721,-2.135260,19.481022,-21.012451,3.116971,-21.617641
4.256250,53.251228,-2.135825,16.711704,-21.037024,0.564404,-21.658724
4.262500,59.164093,-2.136463,12.951453,-21.039766,-2.022048,-21.667864
4.268750,65.069733,-2.137924,8.001497,-21.010168,-4.290307,-21.634314
4.275000,70.968742,-2.140491,1.682498,-20.940941,-5.925645,-21.551664
4.281250,76.867126,-2.143657,-4.001548,-20.819618,-6.655786,-21.407406
4.287500,82.767303,-2.147226,-10.579212,-20.643707,-6.281929,-21.172943
4.293750,88.667122,-2.151936,-17.794476,-20.436113,-4.905078,-20.918648
4.300000,94.565926,-2.157997,-25.272749,-20.198553,-2.794004,-20.646746
4.306250,98.576759,-2.164278,-32.573971,-19.934368,0.244563,-20.354647
4.312500,102.326492,-2.169630,-39.379795,-19.654438,4.003536,-20.052082
4.318750,105.276772,-2.174500,-45.419281,-19.373365,8.218849,-19.752560
4.325000,106.928360,-2.179893,-50.490417,-19.112297,12.587071,-19.473825
4.331250,106.856026,-2.185662,-54.446384,-18.894304,16.796177,-19.230721
4.337500,104.726295,-2.190714,-57.189545,-18.767147,20.576830,-19.025633
4.343750,100.303085,-2.194614,-58.736290,-18.641035,23.706762,-18.801598
4.350000,93.460190,-2.197610,-58.096226,-18.586515,25.712132,-18.682110
4.356250,84.195244,-2.199518,-56.153816,-18.639265,28.260832,-18.648033
4.362500,72.631065,-2.199895,-52.710896,-18.798309,30.110485,-18.709356
4.368750,59.001778,-2.199050,-47.855080,-19.055626,31.615728,-18.892696
4.375000,43.641380,-2.197815,-41.791462,-19.397896,33.024609,-19.138592
4.381250,26.977825,-2.196101,-34.792706,-19.803843,34.387863,-19.428518
4.387500,9.507554,-2.193300,-27.182814,-20.247379,36.506733,-19.770197
4.393750,-8.238564,-2.189583,-19.376747,-20.711464,37.705986,-20.191360
4.400000,-25.721155,-2.186205,-11.832270,-21.183661,39.545563,-20.667192
4.406250,-42.407246,-2.183298,-2.751808,-21.646025,41.607281,-21.171747
4.412500,-57.798496,-2.180017,4.279352,-22.084780,43.598427,-21.686270
4.418750,-71.467430,-2.176421,11.105344,-22.494377,45.303738,-22.197365
4.425000,-83.078384,-2.173441,17.552124,-22.813393,46.641285,-22.657148
4.431250,-92.395554,-2.171529,23.450537,-23.041216,47.620296,-23.037476
4.437500,-99.291344,-2.169964,28.409328,-23.189665,48.009079,-23.335304
4.443750,-103.763535,-2.168607,32.380951,-23.266161,47.806713,-23.543346
4.450000,-105.937805,-2.168237,35.431896,-23.272686,47.143829,-23.654696
4.456250,-106.052261,-2.169413,37.690941,-23.213913,46.188168,-23.667688
4.462500,-104.441277,-2.171315,39.359295,-23.100063,45.122173,-23.588593
4.468750,-101.527557,-2.173530,40.726219,-22.950686,44.165798,-23.439703
4.475000,-97.806656,-2.176524,40.275528,-22.764301,43.616447,-23.206392
4.481250,-93.812630,-2.180370,40.173866,-22.534529,42.201305,-22.875486
4.487500,-87.918472,-2.184204,40.084427,-22.293318,41.447414,-22.493309
4.493750,-82.019058,-2.187778,39.814117,-22.062307,41.056786,-22.089672
4.500000,-76.120255,-2.192280,39.298138,-21.852388,40.811165,-21.686066
4.506250,-70.224701,-2.198360,38.511097,-21.664270,40.500481,-21.297060
4.512500,-64.323746,-2.204868,37.446384,-21.485390,39.907639,-20.931995
4.518750,-58.409786,-2.210356,36.103344,-21.260649,38.784290,-20.600746
4.525000,-52.486938,-2.214956,34.503014,-21.075989,36.812222,-20.339016
4.531250,-46.564888,-2.219778,33.747597,-20.939354,33.543949,-20.133801
4.537500,-40.644791,-2.225226,33.319492,-20.807060,30.343691,-19.963737
4.543750,-34.719326,-2.230450,31.811802,-20.668333,25.708311,-19.839872
4.550000,-28.785276,-2.234700,30.946457,-20.549633,19.964998,-19.738289
4.556250,-22.845509,-2.238031,30.437275,-20.473629,13.514671,-19.718288
4.562500,-16.904549,-2.240882,30.063261,-20.459530,7.071409,-19.796608
4.568750,-10.962674,-2.243177,29.601927,-20.532961,0.610095,-19.971451
4.575000,-5.017898,-2.244672,28.825771,-20.752733,-5.685391,-20.188524
4.581250,0.930159,-2.244965,27.550829,-21.036852,-11.498016,-20.460318
4.587500,6.878972,-2.243994,24.506477,-21.406212,-16.321659,-20.799091
4.593750,12.825832,-2.242042,22.569799,-21.880209,-19.975502,-21.197128
4.600000,18.768669,-2.239307,19.865349,-22.462612,-22.406948,-21.634375
4.606250,24.707748,-2.235546,16.272650,-23.218874,-23.763758,-22.122065
4.612500,30.642344,-2.230791,12.718993,-24.012583,-24.311829,-22.651131
4.618750,36.566978,-2.226082,8.547177,-24.878029,-24.122206,-23.198618
4.625000,42.479534,-2.222132,4.112526,-25.795664,-23.475340,-23.749647
4.631250,48.385769,-2.218337,-0.299517,-26.731628,-22.695971,-24.290291
4.637500,54.290882,-2.213667,-4.425612,-27.642881,-22.145437,-24.803999
4.643750,60.191189,-2.208712,-8.018755,-28.476479,-22.185827,-25.255590
4.650000,66.077744,-2.205030,-12.773312,-29.171522,-23.169800,-25.597139
4.656250,71.949753,-2.203404,-14.824851,-29.699991,-25.476900,-25.836159
4.662500,77.815979,-2.203352,-16.221189,-30.053602,-27.681435,-25.994621
4.668750,83.681183,-2.204551,-16.832180,-30.202013,-31.160786,-26.045691
4.675000,89.546005,-2.207298,-16.680017,-30.132675,-35.679291,-25.981298
4.681250,93.516632,-2.211396,-15.896149,-29.848618,-41.030415,-25.802227
4.687500,97.218536,-2.216219,-14.683290,-29.373539,-46.990185,-25.519560
4.693750,100.118355,-2.222059,-13.285413,-28.745394,-53.291710,-25.145071
4.700000,101.720467,-2.229873,-11.997663,-27.992699,-59.590275,-24.680698
4.706250,101.600235,-2.239428,-11.305825,-27.119648,-65.516693,-24.119001
4.712500,99.428574,-2.248951,-11.456327,-26.168171,-70.633423,-23.513536
4.718750,94.972046,-2.257218,-12.792423,-25.214373,-76.352409,-22.920153
