Anritsu VNA Frequency[GHz],S21[deg],S21[dB],S11[deg],S11[dB],S22[deg],S22[dB]
1338072026.73,2012_05_26_23:40:26,+41.787,+10.490,+58.017,+10.524,+14.316,+14.125,+14.408,+14.188,10.779652,-18.102
3.006250,34.871964,-1.798063,60.228085,-26.694368,-79.201546,-27.540092
3.012500,34.871964,-1.798063,60.228085,-26.694368,-79.201546,-27.540092
3.018750,34.871964,-1.798063,60.228085,-26.694368,-79.201546,-27.540092
3.025000,34.871964,-1.798063,60.228085,-26.694368,-79.201546,-27.540092
3.031250,34.871964,-1.798063,60.228085,-26.694368,-79.201546,-27.540092
3.037500,34.871964,-1.798063,60.228085,-26.694368,-79.201546,-27.540092
3.043750,34.871964,-1.798063,60.228085,-26.694368,-79.201546,-27.540092
3.050000,34.871964,-1.798063,60.228085,-26.694368,-79.201546,-27.540092
3.056250,34.871964,-1.798063,60.228085,-26.694368,-79.201546,-27.540092
3.062500,34.871964,-1.798063,60.228085,-26.694368,-79.201546,-27.540092
3.068750,34.871964,-1.798063,60.228085,-26.694368,-79.201546,-27.540092
3.075000,34.871964,-1.798063,60.228085,-26.694368,-79.201546,-27.540092
3.081250,34.871964,-1.798063,60.228085,-26.694368,-79.201546,-27.540092
3.087500,34.871964,-1.798063,60.228085,-26.694368,-79.201546,-27.540092
3.093750,34.871964,-1.799996,60.228085,-26.493650,-79.201546,-27.282990
3.100000,40.780235,-1.802246,57.488937,-26.340309,-81.293350,-27.044605
3.106250,46.688610,-1.804521,53.872490,-26.258032,-81.752365,-26.827461
3.112500,52.597408,-1.806864,49.750191,-26.265995,-80.227623,-26.605703
3.118750,58.505428,-1.809366,43.723919,-26.310257,-78.565056,-26.295902
3.125000,64.412392,-1.812002,38.879066,-26.352709,-74.607544,-26.031982
3.131250,70.319229,-1.814731,34.465210,-26.421131,-68.477379,-25.741610
3.137500,76.224937,-1.817740,30.731253,-26.516733,-60.633682,-25.414972
3.143750,82.129280,-1.821321,27.884220,-26.632156,-51.248627,-25.059618
3.150000,88.034309,-1.825151,26.103960,-26.753119,-40.478474,-24.687588
3.156250,93.942528,-1.828743,25.510859,-26.865093,-28.499014,-24.317865
3.162500,97.957939,-1.832049,26.166552,-26.954664,-15.508101,-23.974100
3.168750,101.700676,-1.835420,28.090202,-27.013447,-3.609473,-23.703827
3.175000,104.636559,-1.838982,31.315968,-27.020853,8.646937,-23.457251
3.181250,106.275200,-1.842650,34.082996,-26.963648,21.152182,-23.232044
3.187500,106.191284,-1.846135,37.870369,-26.859291,32.626797,-23.060640
3.193750,104.043854,-1.849298,41.969692,-26.719048,42.634689,-22.959600
3.200000,99.595276,-1.852159,45.802189,-26.551104,50.850975,-22.932055
3.206250,92.723846,-1.854628,48.884254,-26.365597,56.991673,-22.978670
3.212500,83.427864,-1.856928,50.798538,-26.176744,60.860348,-23.106497
3.218750,71.827362,-1.859409,51.229240,-25.995131,62.361080,-23.301447
3.225000,58.161121,-1.861774,52.179047,-25.815525,61.240105,-23.505239
3.231250,42.771683,-1.863626,52.186440,-25.637768,57.768520,-23.726845
3.237500,26.085102,-1.865164,49.763718,-25.462488,54.070877,-23.958549
3.243750,8.589177,-1.867012,47.025394,-25.268238,48.650257,-24.178429
3.250000,-9.183590,-1.869446,43.842205,-25.092186,42.172421,-24.366861
3.256250,-26.682882,-1.872059,39.866257,-24.949827,35.233109,-24.522127
3.262500,-43.373482,-1.874326,35.323257,-24.823895,28.474556,-24.633512
3.268750,-58.764793,-1.876305,30.165617,-24.710382,22.574551,-24.691874
3.275000,-72.432800,-1.878388,24.274500,-24.608341,18.071846,-24.697119
3.281250,-84.037819,-1.880885,17.543310,-24.508572,15.408913,-24.656084
3.287500,-93.341049,-1.883766,9.882347,-24.398546,14.880825,-24.581512
3.293750,-100.218536,-1.886745,1.255186,-24.241966,16.633675,-24.474649
3.300000,-104.669670,-1.889629,-6.173684,-24.076303,20.704250,-24.337055
3.306250,-106.815765,-1.892269,-14.786415,-23.944914,26.957756,-24.193850
3.312500,-106.894539,-1.894642,-23.393539,-23.826849,35.090450,-24.076508
3.318750,-105.247459,-1.896927,-31.699192,-23.729221,44.722069,-24.006075
3.325000,-102.302269,-1.899009,-39.442829,-23.669111,55.398769,-23.993645
3.331250,-98.549988,-1.900738,-46.364895,-23.671629,66.601807,-24.043089
3.337500,-94.524063,-1.902069,-52.282200,-23.805666,77.756721,-24.152859
3.343750,-88.602684,-1.903029,-57.167061,-23.965044,88.286560,-24.308874
3.350000,-82.682007,-1.903603,-61.517258,-24.185242,97.950569,-24.457687
3.356250,-76.761688,-1.903890,-64.836945,-24.508537,106.476280,-24.647419
3.362500,-70.843323,-1.903983,-65.435493,-24.957100,112.654602,-24.891100
3.368750,-64.926804,-1.903806,-64.970161,-25.512632,116.615273,-25.175285
3.375000,-59.010666,-1.903103,-63.322540,-26.148920,117.973747,-25.536938
3.381250,-53.096699,-1.902007,-60.509964,-26.831816,116.555611,-25.871082
3.387500,-47.188816,-1.901257,-56.631519,-27.522970,112.986938,-26.190443
3.393750,-41.287189,-1.901294,-51.851620,-28.177794,106.724503,-26.489546
3.400000,-35.387959,-1.901723,-46.388321,-28.753428,98.320160,-26.757774
3.406250,-29.487917,-1.901992,-40.578159,-29.228266,88.774994,-27.030165
3.412500,-23.588150,-1.902365,-34.745983,-29.577290,78.768112,-27.272596
3.418750,-17.693457,-1.903644,-26.957369,-29.778330,66.925720,-27.463806
3.425000,-11.801998,-1.905896,-20.752066,-29.826885,55.532825,-27.597769
3.431250,-5.907702,-1.908281,-14.272845,-29.735779,45.020477,-27.680494
3.437500,-0.009434,-1.910516,-7.773062,-29.493380,35.838768,-27.718103
3.443750,5.888570,-1.913352,-1.286024,-29.094940,28.659639,-27.657162
3.450000,11.784880,-1.917140,4.702749,-28.585257,21.779882,-27.526876
3.456250,17.685167,-1.921147,10.019897,-28.003365,16.969366,-27.341003
3.462500,23.593895,-1.924517,14.661603,-27.392702,13.926860,-27.102154
3.468750,29.507919,-1.927196,18.714581,-26.799210,12.336997,-26.808165
3.475000,35.422466,-1.929623,22.287212,-26.285524,11.853641,-26.473291
3.481250,41.336426,-1.931925,25.630384,-25.813953,12.086427,-26.112623
3.487500,47.250088,-1.934245,27.499237,-25.407082,12.663994,-25.720741
3.493750,53.162094,-1.937003,29.278517,-25.102846,13.158067,-25.303743
3.500000,59.073528,-1.940152,30.791660,-24.907705,13.132699,-24.873192
3.506250,64.987823,-1.943073,31.936319,-24.807858,12.259652,-24.438820
3.512500,70.906250,-1.945181,32.618610,-24.770483,10.270563,-24.009218
3.518750,76.825073,-1.947073,32.804485,-24.700834,6.964308,-23.589111
3.525000,82.737770,-1.949870,32.612724,-24.682882,2.191106,-23.184370
3.531250,88.645981,-1.953755,32.730091,-24.670687,-2.023633,-22.809158
3.537500,94.556244,-1.957924,32.713413,-24.627131,-7.132229,-22.479717
3.543750,98.577286,-1.961792,32.832611,-24.542406,-12.704013,-22.192993
3.550000,102.327995,-1.965802,33.417973,-24.391306,-18.458179,-21.912529
3.556250,105.271652,-1.970561,32.920284,-24.172743,-23.931843,-21.595446
3.562500,106.920052,-1.975595,33.052059,-23.915712,-28.819633,-21.351612
3.568750,106.852127,-1.979860,33.464840,-23.647051,-33.792233,-21.180489
3.575000,104.727928,-1.982771,33.880016,-23.393253,-36.351498,-21.082067
3.581250,100.304367,-1.984627,34.011662,-23.188847,-38.376915,-21.071268
3.587500,93.455185,-1.986046,33.600658,-23.069941,-39.842999,-21.107292
3.593750,84.180283,-1.987087,32.529316,-23.026638,-40.587513,-21.211079
3.600000,72.605774,-1.987096,30.749825,-23.069674,-40.354488,-21.398264
3.606250,58.968647,-1.985709,30.106670,-23.213541,-39.200508,-21.662945
3.612500,43.604469,-1.983478,29.135157,-23.446356,-37.287701,-21.978960
3.618750,26.937103,-1.980880,28.247255,-23.781208,-34.894802,-22.319181
3.625000,9.460382,-1.977680,27.574484,-24.231142,-32.678928,-22.726910
3.631250,-8.291573,-1.973647,27.695248,-24.759226,-28.748718,-23.164776
3.637500,-25.775333,-1.969255,28.924032,-25.329676,-24.720276,-23.604427
3.643750,-42.462811,-1.965231,31.402241,-25.905247,-20.529968,-24.024738
3.650000,-57.860687,-1.961936,33.266762,-26.441149,-16.201406,-24.409210
3.656250,-71.538612,-1.959243,36.082470,-26.864988,-11.780982,-24.740776
3.662500,-83.154800,-1.957310,39.039173,-27.212076,-7.352712,-25.014023
3.668750,-92.472366,-1.956304,43.038277,-27.467308,-3.067168,-25.235071
3.675000,-99.366806,-1.955906,46.404240,-27.600637,0.947905,-25.402985
3.681250,-103.836212,-1.955710,48.870022,-27.608229,4.573997,-25.516041
3.687500,-106.003685,-1.955981,50.193092,-27.502249,7.652680,-25.577221
3.693750,-106.109253,-1.957517,50.219109,-27.308632,10.028820,-25.595577
3.700000,-104.492126,-1.960203,48.941227,-27.035759,11.593497,-25.582510
3.706250,-101.573006,-1.963061,46.523197,-26.698248,12.352286,-25.532375
3.712500,-97.842270,-1.965669,42.954220,-26.336334,12.411248,-25.437679
3.718750,-93.837616,-1.968575,36.516918,-25.978411,11.807595,-25.303862
3.725000,-87.939499,-1.972107,29.130692,-25.642092,10.758955,-25.145458
3.731250,-82.039581,-1.975676,20.535620,-25.370472,9.786525,-25.002819
3.737500,-76.134399,-1.978766,12.662781,-25.189629,9.250546,-24.887506
3.743750,-70.226761,-1.981524,4.253042,-25.087278,9.513800,-24.822054
3.750000,-64.320297,-1.984342,-4.126737,-25.051426,11.292880,-24.727470
3.756250,-58.415413,-1.987076,-12.073776,-25.077572,11.115047,-24.618320
3.762500,-52.509296,-1.989565,-19.164413,-25.145288,12.170086,-24.494337
3.768750,-46.603153,-1.992028,-24.957172,-25.218191,14.187471,-24.405199
3.775000,-40.698570,-1.994771,-29.208389,-25.306681,16.740076,-24.341389
3.781250,-34.794643,-1.997542,-31.822063,-25.398914,19.215664,-24.286823
3.787500,-28.889496,-2.000050,-32.437923,-25.473661,21.254292,-24.234049
3.793750,-22.984388,-2.002580,-30.959044,-25.542196,22.548950,-24.186268
3.800000,-17.081184,-2.005519,-29.311413,-25.555895,22.907148,-24.136522
3.806250,-11.178933,-2.008763,-25.149261,-25.480501,22.337811,-24.049206
3.812500,-5.275436,-2.012167,-19.974808,-25.357178,20.727934,-23.930759
3.818750,0.628402,-2.015927,-14.336748,-25.203066,17.960495,-23.791134
3.825000,6.532705,-2.020031,-8.776054,-25.031925,14.162844,-23.638153
3.831250,12.440866,-2.023819,-1.644972,-24.858053,9.600730,-23.482016
3.837500,18.352751,-2.027096,5.235535,-24.695253,4.595923,-23.358185
3.843750,24.263929,-2.030483,12.015524,-24.539997,-0.502549,-23.226185
3.850000,30.172537,-2.034352,17.005117,-24.385359,-6.411559,-23.063133
3.856250,36.081802,-2.038057,21.882162,-24.241655,-11.910525,-22.909639
3.862500,41.995224,-2.041019,26.218699,-24.107409,-16.991962,-22.775019
3.868750,47.908188,-2.043878,29.681219,-23.970478,-21.638527,-22.656561
3.875000,53.814316,-2.047775,31.952534,-23.809046,-25.877373,-22.543718
3.881250,59.716484,-2.052910,32.690193,-23.625452,-29.779583,-22.420460
3.887500,65.622177,-2.058202,31.486515,-23.425568,-33.522812,-22.289524
3.893750,71.534424,-2.062999,28.262356,-23.191217,-37.374210,-22.157482
3.900000,77.448624,-2.068048,25.101318,-22.911945,-41.470379,-22.015942
3.906250,83.359840,-2.074157,20.560614,-22.587305,-44.110760,-21.863411
3.912500,89.271255,-2.081284,15.107751,-22.218624,-47.167374,-21.695242
3.918750,95.189049,-2.088774,9.214043,-21.813410,-50.349388,-21.499624
3.925000,99.220596,-2.096061,3.251685,-21.398239,-53.414204,-21.250515
3.931250,102.987526,-2.102979,-2.440303,-20.999144,-56.385651,-21.029816
3.937500,105.955627,-2.109440,-7.440922,-20.636183,-57.124626,-20.839632
3.943750,107.631935,-2.115267,-11.420468,-20.332268,-56.685894,-20.687824
3.950000,107.590569,-2.119970,-14.158589,-20.109270,-54.598499,-20.587788
3.956250,105.490463,-2.123031,-15.530552,-19.985920,-50.508709,-20.554844
3.962500,101.091682,-2.124336,-15.481970,-19.971729,-44.167248,-20.601162
3.968750,94.269409,-2.124193,-14.013647,-20.064825,-35.435574,-20.735456
3.975000,85.020180,-2.122740,-13.077161,-20.234274,-24.323078,-20.967916
3.981250,73.465057,-2.120020,-8.981004,-20.519619,-10.991025,-21.336111
3.987500,59.839455,-2.116162,-4.642987,-20.916992,2.919839,-21.739414
3.993750,44.482121,-2.111514,0.611079,-21.378124,18.119858,-22.245792
4.000000,27.819382,-2.106222,6.152597,-21.898151,33.770359,-22.862394
4.006250,10.343442,-2.100296,11.619792,-22.461119,49.008476,-23.617472
4.012500,-7.415135,-2.094241,16.748035,-23.039873,62.830868,-24.382320
4.018750,-24.912199,-2.088847,21.287846,-23.601858,75.781548,-25.121128
4.025000,-41.613884,-2.084323,24.957968,-24.131145,85.988846,-25.865875
4.031250,-57.023682,-2.080313,29.627539,-24.618853,94.394745,-26.626455
4.037500,-70.712364,-2.076877,31.926428,-25.043625,100.094246,-27.348347
4.043750,-82.342537,-2.074664,33.902111,-25.393276,103.381630,-28.001120
4.050000,-91.675293,-2.073855,35.412933,-25.667044,104.652466,-28.567663
4.056250,-98.582809,-2.073396,36.387096,-25.856678,104.432396,-29.037928
4.062500,-103.062798,-2.072688,36.904877,-25.942835,101.513954,-29.380653
4.068750,-105.242851,-2.072694,36.916950,-25.942171,98.300400,-29.580294
4.075000,-105.365097,-2.074641,36.442890,-25.871553,94.850082,-29.644308
4.081250,-103.763779,-2.077878,35.659122,-25.744635,91.382599,-29.577080
4.087500,-100.856232,-2.080960,34.822205,-25.569725,86.054329,-29.379919
4.093750,-97.134430,-2.083382,34.234539,-25.355827,80.591782,-29.058510
4.100000,-93.140038,-2.085989,32.312229,-25.116419,74.846039,-28.633043
4.106250,-87.254677,-2.089509,31.049212,-24.856791,68.715881,-28.141390
4.112500,-81.369896,-2.093567,30.339445,-24.568624,62.268414,-27.546713
4.118750,-75.481628,-2.097990,29.936491,-24.267488,55.703140,-26.879997
4.125000,-69.591927,-2.102985,29.545456,-23.968321,48.746159,-26.182398
4.131250,-63.700924,-2.108634,28.993069,-23.680576,41.545254,-25.484529
4.137500,-57.805210,-2.114360,28.161615,-23.407640,34.301720,-24.810240
4.143750,-51.902878,-2.119836,26.963942,-23.149494,27.232697,-24.177250
4.150000,-45.997829,-2.125351,25.313843,-22.904732,20.532806,-23.598854
4.156250,-40.091949,-2.131306,25.306692,-22.669868,14.385891,-23.076227
4.162500,-34.184925,-2.137592,25.530691,-22.435953,8.940265,-22.609352
4.168750,-28.274311,-2.144081,24.563267,-22.191751,5.903806,-22.223289
4.175000,-22.359699,-2.150645,24.282862,-21.954756,2.736220,-21.903955
4.181250,-16.441654,-2.157197,24.482117,-21.730667,1.141495,-21.646564
4.187500,-10.518917,-2.163446,24.966120,-21.524826,0.997100,-21.395708
4.193750,-4.591348,-2.169323,25.509113,-21.343340,2.279947,-21.245913
4.200000,1.339292,-2.174615,25.883337,-21.194174,3.216519,-21.182966
4.206250,7.273232,-2.178987,25.873318,-21.084328,4.415505,-21.185690
4.212500,13.209663,-2.182278,25.312531,-21.011717,6.904467,-21.207916
4.218750,19.144958,-2.184774,26.264172,-20.966103,8.444897,-21.254419
4.225000,25.076468,-2.187019,25.324146,-20.942425,9.042260,-21.326393
4.231250,31.003588,-2.189064,24.471869,-20.929623,8.551335,-21.410135
4.237500,36.928226,-2.190828,23.504530,-20.925674,6.803920,-21.483389
4.243750,42.850414,-2.192303,22.087160,-20.948029,5.725084,-21.553156
4.250000,48.771290,-2.193414,20.058624,-20.981850,3.688247,-21.620054
4.256250,54.690228,-2.194073,17.274603,-21.009539,1.213831,-21.667452
4.262500,60.604691,-2.194760,13.509439,-21.016392,-1.285601,-21.683889
4.268750,66.511932,-2.196154,8.562064,-20.991680,-3.456751,-21.658840
4.275000,72.412918,-2.198680,2.253509,-20.928047,-4.992929,-21.584988
4.281250,78.313385,-2.201838,-3.410032,-20.813597,-5.623984,-21.449930
4.287500,84.215630,-2.205389,-9.957159,-20.644527,-5.153553,-21.225613
4.293750,90.117729,-2.210060,-17.124180,-20.442924,-3.664268,-20.977018
4.300000,96.018837,-2.216043,-24.546638,-20.211262,-1.459846,-20.710703
4.306250,100.032173,-2.222277,-31.785303,-19.952677,1.659693,-20.422962
4.312500,103.783997,-2.227655,-38.523109,-19.677717,5.487150,-20.123159
4.318750,106.737305,-2.232534,-44.492256,-19.400408,9.755767,-19.824434
4.325000,108.391579,-2.237922,-49.493389,-19.141533,14.159128,-19.544415
4.331250,108.322266,-2.243664,-53.382381,-18.923582,18.383968,-19.298229
4.337500,106.195076,-2.248722,-56.065121,-18.788624,22.156466,-19.089905
4.343750,101.774353,-2.252646,-57.540684,-18.667168,25.253590,-18.866358
4.350000,94.934258,-2.255594,-56.856400,-18.607538,27.267824,-18.740355
4.356250,85.672318,-2.257547,-54.872265,-18.652405,29.778955,-18.700016
4.362500,74.110550,-2.255948,-51.399498,-18.802408,31.586918,-18.755043
4.368750,60.479908,-2.255105,-46.525421,-19.049704,33.054249,-18.931351
4.375000,45.122906,-2.253820,-40.456997,-19.381847,34.457035,-19.176733
4.381250,28.462606,-2.252091,-33.467335,-19.778505,35.785847,-19.465189
4.387500,10.995390,-2.249246,-25.880728,-20.213858,37.878250,-19.803646
4.393750,-6.747419,-2.245511,-18.106613,-20.671083,39.064812,-20.223082
4.400000,-24.226782,-2.242097,-10.601142,-21.137636,40.915054,-20.699259
4.406250,-40.909439,-2.239176,-1.568351,-21.595951,42.999447,-21.205557
4.412500,-56.298008,-2.235906,5.409758,-22.032417,45.024654,-21.722826
4.418750,-69.963982,-2.232348,12.181647,-22.440260,46.770039,-22.237604
4.425000,-81.572105,-2.229482,18.560553,-22.762659,48.141159,-22.704082
4.431250,-90.886856,-2.227629,24.395662,-22.994579,49.157310,-23.091576
4.437500,-97.780441,-2.226181,29.299309,-23.147587,49.585533,-23.396341
4.443750,-102.250656,-2.224962,33.216347,-23.228868,49.413273,-23.611631
4.450000,-104.422897,-2.224738,36.213165,-23.240225,48.765995,-23.729689
4.456250,-104.535538,-2.226045,38.420776,-23.186066,47.814228,-23.748791
4.462500,-102.923195,-2.228172,40.041397,-23.076010,46.736813,-23.674520
4.468750,-100.008362,-2.230587,41.363991,-22.928608,45.755306,-23.527517
4.475000,-96.285988,-2.233791,40.869263,-22.745054,45.158989,-23.299290
4.481250,-92.290855,-2.237808,40.716808,-22.516874,43.672733,-22.970060
4.487500,-86.395683,-2.241875,40.590672,-22.275349,42.852142,-22.587023
4.493750,-80.494965,-2.245623,40.289875,-22.042189,42.382874,-22.180824
4.500000,-74.594902,-2.250244,39.746719,-21.829031,42.049191,-21.773233
4.506250,-68.697784,-2.256470,38.934963,-21.637129,41.645851,-21.379576
4.512500,-62.795547,-2.263125,37.847645,-21.455217,40.961613,-21.009501
4.518750,-56.879990,-2.268747,36.484180,-21.236074,39.757050,-20.672562
4.525000,-50.955502,-2.273395,34.844261,-21.044458,37.726315,-20.403250
4.531250,-45.031162,-2.278276,34.085835,-20.904245,34.434299,-20.195366
4.537500,-39.108982,-2.283769,33.641312,-20.773039,31.222868,-20.021503
4.543750,-33.181110,-2.289047,32.117188,-20.634974,26.597950,-19.895172
4.550000,-27.244818,-2.293331,31.249336,-20.516504,20.892038,-19.793840
4.556250,-21.302814,-2.296698,30.741280,-20.440077,14.474662,-19.769257
4.562500,-15.359249,-2.299547,30.372011,-20.425024,8.118441,-19.845673
4.568750,-9.414459,-2.301885,29.917355,-20.496248,1.767493,-20.021532
4.575000,-3.467300,-2.303428,29.150690,-20.706501,-4.389806,-20.241701
4.581250,2.483281,-2.303784,27.877569,-20.990976,-10.079069,-20.515556
4.587500,8.434402,-2.302835,24.850241,-21.356310,-14.773709,-20.856321
4.593750,14.383736,-2.300968,22.926289,-21.825403,-18.295868,-21.257626
4.600000,20.329157,-2.298278,20.240835,-22.402758,-20.598114,-21.699139
4.606250,26.270607,-2.294552,16.691486,-23.163557,-21.820917,-22.189985
4.612500,32.207382,-2.289878,13.110683,-23.955006,-22.251320,-22.722399
4.618750,38.134609,-2.285189,8.963796,-24.821823,-21.960844,-23.273600
4.625000,44.049656,-2.281182,4.541181,-25.744837,-21.231718,-23.827991
4.631250,49.958225,-2.277417,0.130270,-26.690733,-20.388773,-24.371918
4.637500,55.865673,-2.272785,-4.009321,-27.616346,-19.794598,-24.889156
4.643750,61.768574,-2.267807,-7.631263,-28.468616,-19.813910,-25.345196
4.650000,67.658112,-2.264022,-12.428058,-29.186829,-20.801050,-25.693182
4.656250,73.533234,-2.262278,-14.526772,-29.739040,-23.125019,-25.933998
4.662500,79.402374,-2.262161,-15.964273,-30.117134,-25.349005,-26.095110
4.668750,85.270660,-2.263266,-16.624525,-30.289953,-28.871637,-26.149305
4.675000,91.138481,-2.265922,-16.519688,-30.243906,-33.438301,-26.087650
4.681250,95.112503,-2.269911,-15.774615,-29.980284,-38.839851,-25.910904
4.687500,98.817642,-2.274676,-14.585753,-29.521431,-44.850620,-25.629700
4.693750,101.720833,-2.280437,-13.195357,-28.904739,-51.204258,-25.256136
4.700000,103.325989,-2.288163,-11.888422,-28.161034,-57.557140,-24.793131
4.706250,103.209015,-2.297681,-11.150019,-27.292683,-63.540108,-24.233379
4.712500,101.040085,-2.307219,-11.240124,-26.341648,-68.727371,-23.623722
4.718750,96.585999,-2.315531,-12.476797,-25.380903,-74.511429,-23.026871
