Anritsu VNA Frequency[GHz],S21[deg],S21[dB],S11[deg],S11[dB],S22[deg],S22[dB]
1338111574.88,2012_05_27_10:39:34,+40.685,+10.266,+55.136,+10.283,+13.915,+13.725,+14.019,+13.771,10.380392,-15.881
3.006250,34.196743,-1.754982,59.363617,-26.671648,-79.878159,-27.429640
3.012500,34.196743,-1.754982,59.363617,-26.671648,-79.878159,-27.429640
3.018750,34.196743,-1.754982,59.363617,-26.671648,-79.878159,-27.429640
3.025000,34.196743,-1.754982,59.363617,-26.671648,-79.878159,-27.429640
3.031250,34.196743,-1.754982,59.363617,-26.671648,-79.878159,-27.429640
3.037500,34.196743,-1.754982,59.363617,-26.671648,-79.878159,-27.429640
3.043750,34.196743,-1.754982,59.363617,-26.671648,-79.878159,-27.429640
3.050000,34.196743,-1.754982,59.363617,-26.671648,-79.878159,-27.429640
3.056250,34.196743,-1.754982,59.363617,-26.671648,-79.878159,-27.429640
3.062500,34.196743,-1.754982,59.363617,-26.671648,-79.878159,-27.429640
3.068750,34.196743,-1.754982,59.363617,-26.671648,-79.878159,-27.429640
3.075000,34.196743,-1.754982,59.363617,-26.671648,-79.878159,-27.429640
3.081250,34.196743,-1.754982,59.363617,-26.671648,-79.878159,-27.429640
3.087500,34.196743,-1.754982,59.363617,-26.671648,-79.878159,-27.429640
3.093750,34.196743,-1.756780,59.363617,-26.470203,-79.878159,-27.177980
3.100000,40.104317,-1.758834,56.677662,-26.318424,-81.889565,-26.944073
3.106250,46.011555,-1.760891,53.107586,-26.237885,-82.286766,-26.730585
3.112500,51.919388,-1.762935,49.017502,-26.249140,-80.712471,-26.508114
3.118750,57.826607,-1.765167,43.012650,-26.291862,-78.995316,-26.206421
3.125000,63.732384,-1.767497,38.205761,-26.335428,-74.953880,-25.946560
3.131250,69.637817,-1.769925,33.813107,-26.406042,-68.801155,-25.659483
3.137500,75.542206,-1.772713,30.094433,-26.504631,-60.927078,-25.336126
3.143750,81.444672,-1.775997,27.254141,-26.622992,-51.517624,-24.984488
3.150000,87.347984,-1.779620,25.472872,-26.746403,-40.726662,-24.616962
3.156250,93.254753,-1.783007,24.873524,-26.860638,-28.729147,-24.251781
3.162500,97.269028,-1.786122,25.520279,-26.952320,-15.722821,-23.912796
3.168750,101.010330,-1.789388,27.431580,-27.014551,-1.918337,-23.648806
3.175000,103.944885,-1.792965,30.652328,-27.024965,10.627031,-23.404369
3.181250,105.582161,-1.796614,33.422379,-26.970871,23.947680,-23.182720
3.187500,105.497536,-1.800118,37.211567,-26.869532,36.720734,-23.014706
3.193750,103.349533,-1.803396,41.310425,-26.733448,48.451416,-22.917429
3.200000,98.900459,-1.806360,45.151932,-26.570457,58.727543,-22.893770
3.206250,92.028732,-1.808956,48.252224,-26.391100,67.160088,-22.943830
3.212500,82.732170,-1.811361,50.192822,-26.208986,73.438232,-23.075645
3.218750,71.131393,-1.813964,50.660564,-26.034506,77.337456,-23.271833
3.225000,57.464611,-1.816450,51.656799,-25.861340,78.481987,-23.477360
3.231250,42.074982,-1.818380,51.714207,-25.690151,77.043823,-23.701002
3.237500,25.387705,-1.820003,49.348389,-25.520065,75.030426,-23.934101
3.243750,7.890709,-1.821892,46.671017,-25.329517,70.857910,-24.154465
3.250000,-9.883354,-1.824358,43.545708,-25.157751,65.130302,-24.342325
3.256250,-27.384043,-1.826946,39.619347,-25.017775,58.402020,-24.496893
3.262500,-44.076180,-1.829192,35.128922,-24.892923,51.301479,-24.606733
3.268750,-59.469646,-1.831112,30.015205,-24.779573,44.527065,-24.663345
3.275000,-73.139694,-1.833154,24.160421,-24.676508,38.664570,-24.666264
3.281250,-84.747284,-1.835599,17.451679,-24.574263,34.217075,-24.622787
3.287500,-94.053001,-1.838415,9.798582,-24.460392,31.567890,-24.547115
3.293750,-100.932846,-1.841340,1.166605,-24.296253,30.973568,-24.440449
3.300000,-105.386696,-1.844195,-6.271474,-24.128059,32.596409,-24.302408
3.306250,-107.535332,-1.846811,-14.932232,-23.992607,36.412922,-24.160646
3.312500,-107.616653,-1.849195,-23.595289,-23.870859,42.242634,-24.046394
3.318750,-105.972626,-1.851420,-31.971073,-23.770388,49.820004,-23.980623
3.325000,-103.029793,-1.853515,-39.795242,-23.708727,58.802990,-23.974066
3.331250,-99.279968,-1.855225,-46.812778,-23.712740,68.758430,-24.029882
3.337500,-95.256577,-1.856582,-52.833340,-23.848019,79.172646,-24.146593
3.343750,-89.337837,-1.857573,-57.881699,-24.008013,89.507370,-24.309565
3.350000,-83.419716,-1.858170,-62.314579,-24.231070,97.360680,-24.462761
3.356250,-77.502373,-1.858412,-65.751961,-24.558767,105.967545,-24.660736
3.362500,-71.586533,-1.858532,-66.477928,-25.012657,112.226486,-24.910028
3.368750,-65.673004,-1.858316,-66.134613,-25.573446,116.267387,-25.200151
3.375000,-59.759693,-1.857512,-64.595238,-26.214106,117.691368,-25.573742
3.381250,-53.848373,-1.856351,-61.876194,-26.900200,116.336250,-25.909096
3.387500,-47.943535,-1.855487,-58.073109,-27.592884,112.817284,-26.231522
3.393750,-42.044907,-1.855419,-53.344242,-28.247530,106.586571,-26.533777
3.400000,-36.148590,-1.855728,-47.907619,-28.821409,98.206573,-26.807840
3.406250,-30.250946,-1.855824,-42.101662,-29.293043,88.680336,-27.085064
3.412500,-24.353670,-1.856081,-36.249386,-29.637106,78.671921,-27.331305
3.418750,-18.461290,-1.857200,-28.419119,-29.832142,66.820099,-27.525532
3.425000,-12.572064,-1.859297,-22.151798,-29.873903,55.414494,-27.661673
3.431250,-6.679621,-1.861565,-15.595129,-29.777281,44.885559,-27.745609
3.437500,-0.783033,-1.863734,-9.005161,-29.527290,35.685520,-27.781921
3.443750,5.113264,-1.866536,-2.402407,-29.121574,28.496004,-27.718441
3.450000,11.008255,-1.870391,3.693200,-28.606039,21.599119,-27.584410
3.456250,16.907175,-1.874410,9.115975,-28.019745,16.771643,-27.393869
3.462500,22.814768,-1.877845,13.864960,-27.406990,13.717831,-27.149187
3.468750,28.727791,-1.880690,18.021692,-26.813673,12.126104,-26.847353
3.475000,34.641022,-1.883310,21.695549,-26.306248,11.646452,-26.502806
3.481250,40.553802,-1.885829,25.144661,-25.835697,11.880837,-26.132637
3.487500,46.465683,-1.888405,27.104614,-25.434032,12.466297,-25.730022
3.493750,52.375973,-1.891377,28.958012,-25.136599,12.969639,-25.302542
3.500000,58.285683,-1.894852,30.535593,-24.948824,12.957769,-24.861710
3.506250,64.197868,-1.898054,31.733219,-24.856073,12.099098,-24.417826
3.512500,70.114578,-1.900474,32.461494,-24.822855,10.123654,-23.979979
3.518750,76.031387,-1.902661,32.685299,-24.757273,6.830179,-23.552727
3.525000,81.941513,-1.905698,32.585018,-24.744064,2.064891,-23.142599
3.531250,87.847153,-1.909825,32.707729,-24.732622,-2.141197,-22.764011
3.537500,93.755341,-1.914200,32.714039,-24.688354,-7.249577,-22.431858
3.543750,97.774178,-1.918225,32.851772,-24.601509,-12.833826,-22.143557
3.550000,101.522797,-1.922424,33.458992,-24.445108,-18.608921,-21.861691
3.556250,104.464531,-1.927329,32.973019,-24.220573,-24.101925,-21.536043
3.562500,106.110924,-1.932449,33.103657,-23.957235,-29.031727,-21.293552
3.568750,106.041565,-1.936817,33.508667,-23.682320,-32.167351,-21.121683
3.575000,103.915886,-1.939762,33.911968,-23.422411,-34.522614,-21.021940
3.581250,99.491058,-1.941620,34.028046,-23.211401,-35.829334,-21.007954
3.587500,92.640480,-1.943092,33.601723,-23.086100,-36.105415,-21.039745
3.593750,83.364311,-1.944093,32.520428,-23.035772,-35.228333,-21.139454
3.600000,71.788124,-1.944068,30.722118,-23.072327,-33.041245,-21.322138
3.606250,58.149731,-1.942683,30.063051,-23.209349,-29.701099,-21.581858
3.612500,42.783905,-1.940386,29.083332,-23.432653,-25.484779,-21.892273
3.618750,26.115108,-1.937701,28.190145,-23.759014,-20.788586,-22.227854
3.625000,8.636768,-1.934412,27.492443,-24.200348,-16.394300,-22.631580
3.631250,-9.116817,-1.930205,27.603691,-24.718651,-10.504318,-23.065367
3.637500,-26.602612,-1.925654,28.825544,-25.278690,-4.839751,-23.500916
3.643750,-43.291878,-1.921474,31.295504,-25.843132,0.575981,-23.917978
3.650000,-58.691593,-1.917922,33.151550,-26.367315,5.655118,-24.299942
3.656250,-72.371277,-1.914960,35.954689,-26.775122,10.308516,-24.629929
3.662500,-83.989349,-1.912689,38.881275,-27.113953,14.438038,-24.902779
3.668750,-93.308250,-1.911331,42.851349,-27.360680,17.908230,-25.125059
3.675000,-100.204147,-1.910583,46.190659,-27.487358,20.632763,-25.295469
3.681250,-104.674782,-1.909935,48.626484,-27.491566,22.553202,-25.412319
3.687500,-106.843155,-1.909768,49.918686,-27.386095,23.596235,-25.478964
3.693750,-106.950012,-1.910837,49.918400,-27.196762,23.708420,-25.504217
3.700000,-105.334229,-1.912994,48.632927,-26.929434,22.894861,-25.499413
3.706250,-102.416092,-1.915367,46.214005,-26.601938,21.288712,-25.456791
3.712500,-98.686356,-1.917470,42.646343,-26.252998,19.108519,-25.370193
3.718750,-94.682907,-1.919884,36.228287,-25.909929,16.502981,-25.244993
3.725000,-88.786171,-1.922952,28.880304,-25.589014,13.805772,-25.096704
3.731250,-82.887489,-1.926071,20.330770,-25.334558,11.618054,-24.963955
3.737500,-76.984169,-1.928717,12.520393,-25.169630,10.356671,-24.859148
3.743750,-71.078552,-1.931142,4.194639,-25.080389,10.430955,-24.804768
3.750000,-65.174263,-1.933625,-4.092431,-25.054441,10.439488,-24.715605
3.756250,-59.271366,-1.936117,-11.946579,-25.087355,10.361505,-24.611513
3.762500,-53.367733,-1.938439,-18.946390,-25.158863,11.523818,-24.493404
3.768750,-47.464100,-1.940755,-24.654402,-25.232109,13.664385,-24.409710
3.775000,-41.562260,-1.943418,-28.835943,-25.318577,16.330643,-24.349871
3.781250,-35.660633,-1.946183,-31.382681,-25.405497,18.920500,-24.297764
3.787500,-29.758028,-1.948690,-31.947756,-25.472652,21.068201,-24.246145
3.793750,-23.855160,-1.951331,-30.440208,-25.534632,22.467619,-24.198750
3.800000,-17.954578,-1.954393,-28.786346,-25.535439,22.923412,-24.147863
3.806250,-12.054631,-1.957770,-24.626610,-25.449341,22.448277,-24.057060
3.812500,-6.153200,-1.961341,-19.485081,-25.316267,20.910706,-23.934755
3.818750,-0.251239,-1.965286,-13.903552,-25.153099,18.194700,-23.791573
3.825000,5.651465,-1.969568,-8.417295,-24.974308,14.432220,-23.634363
3.831250,11.558125,-1.973527,-1.373662,-24.794331,9.888646,-23.473633
3.837500,17.468596,-1.976895,5.410537,-24.627153,4.887823,-23.345772
3.843750,23.378845,-1.980389,12.092238,-24.468506,-0.227889,-23.207672
3.850000,29.286417,-1.984357,16.984016,-24.312263,-6.151683,-23.039324
3.856250,35.195137,-1.988139,21.764650,-24.168011,-11.687336,-22.880880
3.862500,41.108047,-1.991206,26.012938,-24.033934,-16.816246,-22.741295
3.868750,47.020325,-1.994105,29.398411,-23.897152,-21.518541,-22.617451
3.875000,52.925949,-1.998048,31.601690,-23.735903,-25.818142,-22.498640
3.881250,58.827473,-2.003242,32.266449,-23.555437,-29.784470,-22.368937
3.887500,64.732765,-2.008550,31.000353,-23.357893,-33.601490,-22.233208
3.893750,70.644569,-2.013383,27.733093,-23.125824,-37.527672,-22.096411
3.900000,76.558037,-2.018483,24.538181,-22.848703,-41.691223,-21.951239
3.906250,82.468117,-2.024647,19.966150,-22.526258,-44.395222,-21.795626
3.912500,88.378052,-2.031800,14.487189,-22.160221,-47.507946,-21.625046
3.918750,94.294495,-2.039388,8.565553,-21.757778,-50.741550,-21.426449
3.925000,98.324768,-2.046734,2.568637,-21.346125,-53.849136,-21.172571
3.931250,102.089890,-2.053700,-3.160398,-20.950905,-56.899143,-20.953428
3.937500,105.055931,-2.060220,-8.193496,-20.592234,-57.689899,-20.764664
3.943750,106.730118,-2.066065,-12.202520,-20.293039,-57.300354,-20.614683
3.950000,106.686531,-2.070783,-14.970638,-20.075165,-55.262527,-20.517544
3.956250,104.584290,-2.073843,-16.371378,-19.956905,-51.223747,-20.488205
3.962500,100.183479,-2.075130,-16.346153,-19.947920,-44.933613,-20.539127
3.968750,93.358727,-2.075032,-14.894891,-20.045656,-36.253551,-20.678757
3.975000,84.107384,-2.073554,-13.964422,-20.216265,-25.189270,-20.917210
3.981250,72.550125,-2.070804,-9.860364,-20.509865,-11.905567,-21.284258
3.987500,58.922642,-2.066924,-5.507478,-20.910242,1.987818,-21.692490
3.993750,43.563190,-2.062240,-0.218750,-21.373653,17.148075,-22.203718
4.000000,26.898289,-2.056908,5.362105,-21.895741,32.773560,-22.824942
4.006250,9.420205,-2.050913,10.884190,-22.460114,47.998077,-23.588827
4.012500,-8.340384,-2.044792,16.076954,-23.039051,61.751923,-24.350071
4.018750,-25.839666,-2.039359,20.691191,-23.600077,74.709442,-25.087490
4.025000,-42.543896,-2.034843,24.438519,-24.127600,84.930267,-25.834242
4.031250,-57.956326,-2.030845,29.184334,-24.611881,93.319450,-26.596180
4.037500,-71.647720,-2.027429,31.560511,-25.032377,99.000015,-27.318525
4.043750,-83.280357,-2.025245,33.609818,-25.376541,102.260132,-27.971451
4.050000,-92.616058,-2.024471,35.185009,-25.644211,103.497559,-28.537766
4.056250,-99.526642,-2.024136,36.218170,-25.825918,103.237099,-29.007511
4.062500,-104.009407,-2.023511,36.785225,-25.904175,100.279648,-29.348202
4.068750,-106.192230,-2.023689,36.833179,-25.896002,97.027237,-29.545366
4.075000,-106.317238,-2.025886,36.380939,-25.818432,93.536491,-29.606701
4.081250,-104.718697,-2.029368,35.607277,-25.684999,90.034767,-29.536333
4.087500,-101.813248,-2.032666,34.768990,-25.504482,84.682594,-29.335461
4.093750,-98.093185,-2.035362,34.168510,-25.285534,79.206017,-29.010239
4.100000,-94.100632,-2.038247,32.226738,-25.042704,73.463402,-28.581686
4.106250,-88.217140,-2.042044,30.938723,-24.780949,67.354454,-28.088898
4.112500,-82.333687,-2.046376,30.204201,-24.491959,60.963436,-27.489803
4.118750,-76.447014,-2.050953,29.769869,-24.191668,54.459942,-26.820415
4.125000,-70.558266,-2.056113,29.339638,-23.895378,47.580040,-26.121635
4.131250,-64.668457,-2.061860,28.746433,-23.612167,40.473370,-25.423653
4.137500,-58.773869,-2.067620,27.874718,-23.345312,33.340515,-24.750141
4.143750,-52.872982,-2.073065,26.637672,-23.093885,26.392370,-24.118402
4.150000,-46.969131,-2.078407,24.952290,-22.856792,19.820559,-23.541647
4.156250,-41.065197,-2.084122,24.911287,-22.630653,13.798973,-23.020912
4.162500,-35.160053,-2.090130,25.105021,-22.404699,8.473114,-22.568447
4.168750,-29.251389,-2.096219,24.121855,-22.167976,5.544417,-22.186438
4.175000,-23.338913,-2.102370,23.818954,-21.939121,2.460407,-21.873781
4.181250,-17.422853,-2.108440,24.003065,-21.723297,0.925283,-21.623238
4.187500,-11.502556,-2.114172,24.474899,-21.525269,0.823085,-21.373463
4.193750,-5.577652,-2.119497,25.012405,-21.351154,2.204607,-21.235979
4.200000,0.350863,-2.124271,25.385517,-21.208485,3.165030,-21.181856
4.206250,6.282552,-2.128152,25.379749,-21.104704,4.375410,-21.189987
4.212500,12.216912,-2.130950,24.830711,-21.036854,6.867230,-21.216272
4.218750,18.150063,-2.133042,25.801502,-20.994001,8.408934,-21.265650
4.225000,24.078987,-2.134892,24.881622,-20.971937,8.995608,-21.338482
4.231250,30.004292,-2.136665,24.051813,-20.959263,8.481351,-21.420862
4.237500,35.926949,-2.138154,23.104424,-20.955656,6.698526,-21.490454
4.243750,41.847675,-2.139505,21.705433,-20.977455,5.565926,-21.555840
4.250000,47.766819,-2.140508,19.693134,-21.009794,3.462083,-21.616798
4.256250,53.684093,-2.141085,16.922249,-21.034966,0.912386,-21.657028
4.262500,59.597347,-2.141771,13.162714,-21.038454,-1.669563,-21.665430
4.268750,65.503166,-2.143248,8.214013,-21.009552,-3.930158,-21.631485
4.275000,71.402534,-2.145848,1.897981,-20.941153,-5.553679,-21.548418
4.281250,77.301582,-2.149117,-3.781044,-20.821030,-6.270448,-21.403753
4.287500,83.202965,-2.152792,-10.352669,-20.646330,-5.883463,-21.168751
4.293750,89.103706,-2.157583,-17.557549,-20.439749,-4.489422,-20.913656
4.300000,95.003876,-2.163755,-25.027645,-20.203133,-2.360873,-20.641001
4.306250,99.015945,-2.170133,-32.318943,-19.939781,0.696104,-20.348173
4.312500,102.766907,-2.175631,-39.113926,-19.660532,4.473626,-20.044872
4.318750,105.719200,-2.180630,-45.142597,-19.379904,8.705763,-19.744562
4.325000,107.372406,-2.186110,-50.202656,-19.119020,13.088473,-19.464998
4.331250,107.301918,-2.191981,-54.149296,-18.901012,17.310133,-19.220840
4.337500,105.173912,-2.197140,-56.884144,-18.771641,21.099018,-19.014898
4.343750,100.752327,-2.201086,-58.427990,-18.645433,24.231853,-18.789871
4.350000,93.910774,-2.204134,-57.780865,-18.589708,26.245560,-18.669443
4.356250,84.647141,-2.206128,-55.835613,-18.640562,28.791517,-18.634054
4.362500,73.084007,-2.206491,-52.392979,-18.797272,30.637821,-18.694651
4.368750,59.455612,-2.205645,-47.541733,-19.051853,32.135227,-18.877218
4.375000,44.096207,-2.204410,-41.484032,-19.391319,33.533844,-19.122234
4.381250,27.433168,-2.202758,-34.493340,-19.794474,34.885433,-19.411892
4.387500,9.963275,-2.199961,-26.893738,-20.234957,36.988972,-19.752842
4.393750,-7.782603,-2.196310,-19.097761,-20.696424,38.172619,-20.173433
4.400000,-25.265341,-2.192984,-11.563961,-21.166466,39.996689,-20.649336
4.406250,-41.951221,-2.190171,-2.494085,-21.627014,42.044010,-21.154095
4.412500,-57.342857,-2.187007,4.527567,-22.064785,44.021973,-21.669167
4.418750,-71.011505,-2.183614,11.343330,-22.474499,45.716217,-22.180908
4.425000,-82.622368,-2.180877,17.781868,-22.793966,47.043186,-22.641760
4.431250,-91.939331,-2.179211,23.674541,-23.022907,48.015625,-23.023720
4.437500,-98.834663,-2.177912,28.628796,-23.173380,48.400951,-23.323118
4.443750,-103.306313,-2.176774,32.596622,-23.252729,48.197193,-23.533031
4.450000,-105.479752,-2.176672,35.644924,-23.262718,47.533264,-23.646204
4.456250,-105.593040,-2.178087,37.902416,-23.207811,46.577099,-23.661001
4.462500,-103.980865,-2.180195,39.570194,-23.098076,45.510986,-23.583555
4.468750,-101.066208,-2.182568,40.937077,-22.952915,44.557308,-23.435461
4.475000,-97.344063,-2.185675,40.487152,-22.770819,44.009205,-23.203495
4.481250,-93.348564,-2.189590,40.387543,-22.544828,42.593765,-22.873384
4.487500,-87.453125,-2.193460,40.299255,-22.306953,41.839508,-22.491341
4.493750,-81.551941,-2.196998,40.031612,-22.078508,41.447723,-22.087202
4.500000,-75.652138,-2.201388,39.518761,-21.870487,41.199173,-21.682547
4.506250,-69.755463,-2.207324,38.734882,-21.683590,40.883755,-21.292150
4.512500,-63.853683,-2.213691,37.674198,-21.505224,40.284260,-20.925436
4.518750,-57.939629,-2.218999,36.336544,-21.282667,39.153904,-20.592047
4.525000,-52.016369,-2.223383,34.747200,-21.097073,37.178814,-20.327038
4.531250,-46.094364,-2.228029,33.996105,-20.959711,33.914452,-20.120409
4.537500,-40.174538,-2.233254,33.574142,-20.826639,30.712494,-19.948483
4.543750,-34.249413,-2.238301,32.071030,-20.686563,26.076670,-19.822113
4.550000,-28.315975,-2.242411,31.212555,-20.566351,20.337271,-19.717937
4.556250,-22.377043,-2.245625,30.707153,-20.488413,13.894894,-19.695978
4.562500,-16.436666,-2.248328,30.335638,-20.472422,7.461671,-19.772596
4.568750,-10.495400,-2.250522,29.874323,-20.543583,1.012245,-19.945469
4.575000,-4.551538,-2.251961,29.095984,-20.759886,-5.265271,-20.161695
4.581250,1.395850,-2.252214,27.807137,-21.041784,-11.062053,-20.432648
4.587500,7.343912,-2.251225,24.757626,-21.407862,-15.870734,-20.770697
4.593750,13.290670,-2.249342,22.810709,-21.879011,-19.507080,-21.168730
4.600000,19.233622,-2.246664,20.097219,-22.458103,-21.923473,-21.606087
4.606250,25.172924,-2.242963,16.490395,-23.213692,-23.262686,-22.093904
4.612500,31.107975,-2.238320,12.910650,-24.004730,-23.800138,-22.623283
4.618750,37.033192,-2.233737,8.730103,-24.868671,-23.600748,-23.172045
4.625000,42.946632,-2.229895,4.284218,-25.785830,-22.946775,-23.724098
4.631250,48.854076,-2.226249,-0.138785,-26.722456,-22.164881,-24.265921
4.637500,54.759995,-2.221759,-4.274700,-27.635754,-21.616545,-24.780510
4.643750,60.661514,-2.216954,-7.875417,-28.472353,-21.665970,-25.232817
4.650000,66.549583,-2.213374,-12.634614,-29.171148,-22.661758,-25.575762
4.656250,72.423149,-2.211841,-14.688045,-29.703815,-24.984037,-25.815355
4.662500,78.291054,-2.211873,-16.084419,-30.062307,-27.205559,-25.974281
4.668750,84.157722,-2.213123,-16.691170,-30.215673,-30.704567,-26.025587
4.675000,90.023659,-2.215849,-16.531961,-30.151346,-35.243561,-25.961226
4.681250,93.995758,-2.219874,-15.739556,-29.871721,-40.614071,-25.781786
4.687500,97.699028,-2.224607,-14.516531,-29.400324,-46.590176,-25.498777
4.693750,100.599800,-2.230227,-13.109057,-28.775028,-52.904205,-25.123928
4.700000,102.203056,-2.237836,-11.812371,-28.024012,-59.210358,-24.659641
4.706250,102.083527,-2.247139,-11.113118,-27.152206,-65.142548,-24.098778
4.712500,99.912613,-2.256357,-11.253516,-26.200787,-70.266937,-23.492802
4.718750,95.456543,-2.264335,-12.581865,-25.245655,-75.984314,-22.899307
