Anritsu VNA Frequency[GHz],S21[deg],S21[dB],S11[deg],S11[dB],S22[deg],S22[dB]
1338079545.71,2012_05_27_01:45:45,+40.744,+10.251,+55.386,+10.268,+13.905,+13.714,+14.010,+13.761,10.362950,-17.594
3.006250,33.866623,-1.746999,59.124092,-26.639063,-80.372551,-27.447136
3.012500,33.866623,-1.746999,59.124092,-26.639063,-80.372551,-27.447136
3.018750,33.866623,-1.746999,59.124092,-26.639063,-80.372551,-27.447136
3.025000,33.866623,-1.746999,59.124092,-26.639063,-80.372551,-27.447136
3.031250,33.866623,-1.746999,59.124092,-26.639063,-80.372551,-27.447136
3.037500,33.866623,-1.746999,59.124092,-26.639063,-80.372551,-27.447136
3.043750,33.866623,-1.746999,59.124092,-26.639063,-80.372551,-27.447136
3.050000,33.866623,-1.746999,59.124092,-26.639063,-80.372551,-27.447136
3.056250,33.866623,-1.746999,59.124092,-26.639063,-80.372551,-27.447136
3.062500,33.866623,-1.746999,59.124092,-26.639063,-80.372551,-27.447136
3.068750,33.866623,-1.746999,59.124092,-26.639063,-80.372551,-27.447136
3.075000,33.866623,-1.746999,59.124092,-26.639063,-80.372551,-27.447136
3.081250,33.866623,-1.746999,59.124092,-26.639063,-80.372551,-27.447136
3.087500,33.866623,-1.746999,59.124092,-26.639063,-80.372551,-27.447136
3.093750,33.866623,-1.748860,59.124092,-26.436790,-80.372551,-27.198057
3.100000,39.773304,-1.751067,56.443985,-26.283508,-82.384827,-26.966221
3.106250,45.679943,-1.753302,52.882568,-26.202145,-82.777855,-26.752922
3.112500,51.587250,-1.755578,48.801826,-26.212492,-81.195000,-26.531580
3.118750,57.493637,-1.758083,42.803940,-26.256136,-79.483818,-26.231564
3.125000,63.399063,-1.760725,38.005917,-26.299879,-75.431664,-25.969675
3.131250,69.304131,-1.763484,33.622765,-26.371073,-69.266785,-25.681156
3.137500,75.208008,-1.766550,29.910048,-26.470789,-61.379700,-25.355856
3.143750,81.110527,-1.770155,27.079597,-26.590284,-51.956520,-25.002468
3.150000,87.013779,-1.774068,25.307508,-26.715284,-41.151760,-24.633179
3.156250,92.920204,-1.777729,24.716158,-26.831596,-29.140877,-24.266531
3.162500,96.934059,-1.781050,25.368614,-26.925474,-16.122017,-23.926342
3.168750,100.674553,-1.784495,27.285110,-26.989300,-2.305379,-23.661905
3.175000,103.608826,-1.788155,30.509922,-27.001848,10.247787,-23.416344
3.181250,105.245903,-1.791862,33.281242,-26.949566,23.576530,-23.194962
3.187500,105.160568,-1.795418,37.068428,-26.850399,36.357857,-23.027086
3.193750,103.011589,-1.798691,41.166260,-26.715656,48.097576,-22.929579
3.200000,98.561447,-1.801651,45.002350,-26.553679,58.381931,-22.905895
3.206250,91.688309,-1.804215,48.095409,-26.374735,66.822601,-22.956129
3.212500,82.390610,-1.806562,50.027035,-26.192760,73.108093,-23.087679
3.218750,70.788536,-1.809204,50.484425,-26.018080,77.016106,-23.283007
3.225000,57.120426,-1.811676,51.471199,-25.844364,78.170776,-23.487799
3.231250,41.729439,-1.813660,51.520569,-25.672230,76.743721,-23.710209
3.237500,25.040634,-1.815352,49.145840,-25.501469,74.739944,-23.941761
3.243750,7.542334,-1.817356,46.455963,-25.310656,70.576202,-24.159828
3.250000,-10.232716,-1.819944,43.317638,-25.137926,64.855568,-24.345585
3.256250,-27.734085,-1.822675,39.382893,-24.997498,58.131073,-24.497482
3.262500,-44.427132,-1.825072,34.883675,-24.872335,51.035732,-24.604958
3.268750,-59.821083,-1.827137,29.763184,-24.758530,44.262054,-24.659081
3.275000,-73.491745,-1.829277,23.899487,-24.655268,38.396854,-24.660210
3.281250,-85.099533,-1.831817,17.183811,-24.553257,33.945492,-24.615664
3.287500,-94.405273,-1.834697,9.525712,-24.440239,31.293480,-24.539284
3.293750,-101.285057,-1.837643,0.889913,-24.277452,30.694241,-24.431986
3.300000,-105.738876,-1.840461,-6.550256,-24.109272,32.308197,-24.294708
3.306250,-107.887672,-1.843007,-15.212901,-23.974510,36.117897,-24.154209
3.312500,-107.968956,-1.845270,-23.877197,-23.853594,41.940151,-24.042025
3.318750,-106.324478,-1.847391,-32.250706,-23.753841,49.513584,-23.978889
3.325000,-103.381813,-1.849330,-40.072880,-23.693041,58.492313,-23.975533
3.331250,-99.632233,-1.850890,-47.086567,-23.696505,68.444336,-24.035051
3.337500,-95.609016,-1.852067,-53.105919,-23.826576,78.857872,-24.155422
3.343750,-89.690643,-1.852870,-58.129356,-23.985567,89.191521,-24.321665
3.350000,-83.772667,-1.853311,-62.562035,-24.206354,97.044159,-24.478029
3.356250,-77.855644,-1.853445,-65.992867,-24.529503,105.651016,-24.678736
3.362500,-71.940430,-1.853481,-66.705650,-24.975473,111.910065,-24.930395
3.368750,-66.027374,-1.853220,-66.354584,-25.528545,115.949615,-25.222281
3.375000,-60.114544,-1.852387,-64.800583,-26.160748,117.367172,-25.597115
3.381250,-54.203899,-1.851179,-62.067631,-26.837852,116.010956,-25.933201
3.387500,-48.299595,-1.850333,-58.249325,-27.521755,112.488243,-26.255562
3.393750,-42.401306,-1.850368,-53.506607,-28.167837,106.250717,-26.557203
3.400000,-36.505405,-1.850717,-48.057793,-28.733776,97.864037,-26.831022
3.406250,-30.608341,-1.850923,-42.242687,-29.198870,88.331833,-27.107540
3.412500,-24.711706,-1.851213,-36.383636,-29.538027,78.319328,-27.352959
3.418750,-18.819780,-1.852400,-28.549231,-29.729862,66.465485,-27.546511
3.425000,-12.930876,-1.854548,-22.279776,-29.770288,55.058182,-27.682203
3.431250,-7.038958,-1.856880,-15.724027,-29.674526,44.529305,-27.766109
3.437500,-1.143070,-1.859072,-9.136948,-29.426947,35.333469,-27.801796
3.443750,4.752759,-1.861916,-2.545734,-29.025942,28.150993,-27.738213
3.450000,10.646871,-1.865680,3.536476,-28.516520,21.261213,-27.604395
3.456250,16.545227,-1.869654,8.946298,-27.937990,16.442083,-27.413548
3.462500,22.452065,-1.873013,13.680586,-27.333464,13.398692,-27.167837
3.468750,28.363852,-1.875728,17.819632,-26.749119,11.814875,-26.864775
3.475000,34.275814,-1.878231,21.473633,-26.249449,11.342753,-26.519424
3.481250,40.187336,-1.880595,24.903414,-25.787455,11.586854,-26.147427
3.487500,46.098129,-1.883008,26.841736,-25.393147,12.180237,-25.743057
3.493750,52.007168,-1.885827,28.679443,-25.101608,12.690348,-25.313311
3.500000,57.915432,-1.889059,30.241444,-24.917988,12.679848,-24.870367
3.506250,63.826473,-1.892095,31.426933,-24.827269,11.820826,-24.424417
3.512500,69.741646,-1.894280,32.144852,-24.795620,9.842307,-23.984440
3.518750,75.656952,-1.896237,32.365253,-24.735058,6.542967,-23.555260
3.525000,81.565926,-1.899120,32.240623,-24.721127,1.770798,-23.143562
3.531250,87.470566,-1.903073,32.366692,-24.708759,-2.446080,-22.763510
3.537500,93.377724,-1.907273,32.373768,-24.663670,-7.563833,-22.431608
3.543750,97.395782,-1.911140,32.510944,-24.575966,-13.158951,-22.143606
3.550000,101.143608,-1.915184,33.117489,-24.418890,-18.949650,-21.862070
3.556250,104.084641,-1.919958,32.635281,-24.193624,-24.452318,-21.537367
3.562500,105.730972,-1.924991,32.770939,-23.929749,-29.398003,-21.296251
3.568750,105.661705,-1.929262,33.181416,-23.654259,-32.550255,-21.126461
3.575000,103.536087,-1.932116,33.590519,-23.393799,-34.918343,-21.028141
3.581250,99.111374,-1.933913,33.713062,-23.182852,-36.238110,-21.014679
3.587500,92.261177,-1.935287,33.292442,-23.057302,-36.526546,-21.047728
3.593750,82.985695,-1.936249,32.214291,-23.006861,-35.662136,-21.148623
3.600000,71.410706,-1.936175,30.424408,-23.043501,-33.485630,-21.331762
3.606250,57.773468,-1.934762,29.768034,-23.181013,-30.153946,-21.591192
3.612500,42.409103,-1.932454,28.788383,-23.405022,-25.943012,-21.900543
3.618750,25.741585,-1.929780,27.895222,-23.733068,-21.250170,-22.235416
3.625000,8.264533,-1.926455,27.202303,-24.175482,-16.859741,-22.637484
3.631250,-9.487782,-1.922309,27.311089,-24.695160,-10.968975,-23.069649
3.637500,-26.972288,-1.917875,28.530157,-25.256710,-5.302726,-23.503494
3.643750,-43.660698,-1.913816,30.997353,-25.823105,0.115691,-23.919338
3.650000,-59.059677,-1.910441,32.852806,-26.348824,5.197900,-24.300158
3.656250,-72.739143,-1.907686,35.655186,-26.759720,9.858768,-24.629107
3.662500,-84.357147,-1.905684,38.581478,-27.100468,13.998101,-24.901518
3.668750,-93.676727,-1.904611,42.553852,-27.349186,17.475183,-25.123905
3.675000,-100.573624,-1.904171,45.893562,-27.477993,20.208048,-25.294865
3.681250,-105.045616,-1.903909,48.330986,-27.483749,22.138016,-25.412706
3.687500,-107.216095,-1.904077,49.626785,-27.379345,23.189463,-25.480297
3.693750,-107.325249,-1.905538,49.629368,-27.191172,23.308622,-25.506752
3.700000,-105.711952,-1.908115,48.343586,-26.923922,22.500963,-25.503242
3.706250,-102.796265,-1.910847,45.923576,-26.596113,20.897869,-25.461987
3.712500,-99.069298,-1.913298,42.358589,-26.246433,18.721949,-25.376789
3.718750,-95.068405,-1.916061,35.938774,-25.902191,16.117571,-25.252337
3.725000,-89.174431,-1.919424,28.585709,-25.579506,13.416189,-25.104223
3.731250,-83.278214,-1.922823,20.031607,-25.322779,11.227038,-24.971939
3.737500,-77.376678,-1.925715,12.211858,-25.155569,9.960032,-24.866354
3.743750,-71.472961,-1.928331,3.875699,-25.063713,10.026585,-24.810568
3.750000,-65.570114,-1.930999,-4.424188,-25.035194,10.027335,-24.719166
3.756250,-59.668407,-1.933630,-12.292344,-25.065804,9.940812,-24.613131
3.762500,-53.765350,-1.936022,-19.306473,-25.134768,11.093316,-24.493540
3.768750,-47.862129,-1.938381,-25.027475,-25.206161,13.223714,-24.407543
3.775000,-41.960468,-1.941060,-29.219116,-25.291327,15.881184,-24.344946
3.781250,-36.058937,-1.943804,-31.780170,-25.377308,18.461981,-24.290310
3.787500,-30.156137,-1.946244,-32.353790,-25.443731,20.603415,-24.236727
3.793750,-24.253330,-1.948774,-30.854353,-25.506010,21.997139,-24.187601
3.800000,-18.352413,-1.951707,-27.317102,-25.507185,22.446890,-24.135588
3.806250,-12.452073,-1.954952,-22.890923,-25.422098,21.970079,-24.044178
3.812500,-6.550549,-1.958386,-16.945147,-25.290720,20.429163,-23.921652
3.818750,-0.648720,-1.962155,-10.066448,-25.129723,17.712732,-23.778833
3.825000,5.253734,-1.966254,-2.855006,-24.953411,13.950726,-23.622334
3.831250,11.160139,-1.970052,6.253291,-24.776081,9.410763,-23.463150
3.837500,17.070036,-1.973267,15.341141,-24.611673,4.411541,-23.337763
3.843750,22.979383,-1.976611,24.448797,-24.455849,-0.702912,-23.201227
3.850000,28.886082,-1.980456,31.766846,-24.302219,-6.619693,-23.035349
3.856250,34.793697,-1.984156,38.854244,-24.160261,-12.151368,-22.879625
3.862500,40.705269,-1.987103,45.173447,-24.028366,-17.274635,-22.742739
3.868750,46.616318,-1.989919,50.289398,-23.893408,-21.971031,-22.621717
3.875000,52.520824,-1.993794,53.798508,-23.733162,-26.263502,-22.505655
3.881250,58.421520,-1.998899,55.281910,-23.553761,-30.221882,-22.378504
3.887500,64.325676,-2.004135,54.304527,-23.356823,-34.029732,-22.245159
3.893750,70.236687,-2.008921,50.775105,-23.124802,-37.948078,-22.110367
3.900000,76.149345,-2.013949,46.787514,-22.847544,-42.104504,-21.966654
3.906250,82.059036,-2.020073,40.931961,-22.524525,-44.802364,-21.812227
3.912500,87.969193,-2.027183,33.741989,-22.157646,-47.910923,-21.642550
3.918750,93.885666,-2.034700,25.769503,-21.754049,-51.139648,-21.444838
3.925000,97.916245,-2.042056,17.483152,-21.341724,-54.245544,-21.191566
3.931250,101.681572,-2.049004,9.341605,-20.945734,-57.294140,-20.972521
3.937500,104.647865,-2.055525,1.893388,-20.586163,-58.087196,-20.783907
3.943750,106.322258,-2.061383,-4.413317,-20.286135,-57.700436,-20.633850
3.950000,106.278854,-2.066139,-9.245166,-20.067429,-55.667706,-20.536394
3.956250,104.176605,-2.069230,-12.373109,-19.948502,-51.633953,-20.507000
3.962500,99.775368,-2.070583,-13.651224,-19.939314,-45.348358,-20.557724
3.968750,92.950066,-2.070487,-13.012938,-20.037144,-36.674458,-20.696712
3.975000,83.697983,-2.069051,-12.363779,-20.207653,-25.615910,-20.934927
3.981250,72.139717,-2.066327,-10.161921,-20.501398,-12.341651,-21.298670
3.987500,58.510822,-2.062477,-5.818520,-20.901806,1.551761,-21.705559
3.993750,43.150169,-2.057798,-0.534755,-21.365891,16.711903,-22.214699
4.000000,26.484005,-2.052457,5.040297,-21.888592,32.335976,-22.832788
4.006250,9.004658,-2.046440,10.560813,-22.453894,47.560040,-23.591433
4.012500,-8.757226,-2.040240,15.754204,-23.033958,61.311314,-24.347754
4.018750,-26.257488,-2.034785,20.372257,-23.596298,74.272316,-25.078718
4.025000,-42.962517,-2.030217,24.128176,-24.125082,84.494034,-25.819296
4.031250,-58.375290,-2.026180,28.886766,-24.610979,92.881134,-26.573656
4.037500,-72.066940,-2.022678,31.276598,-25.033112,98.562645,-27.288525
4.043750,-83.699837,-2.020448,33.339832,-25.378942,101.820869,-27.933998
4.050000,-93.035080,-2.019665,34.930664,-25.648195,103.054100,-28.493572
4.056250,-99.945129,-2.019236,35.978065,-25.831617,102.788994,-28.957239
4.062500,-104.427246,-2.018576,36.562626,-25.911148,99.823418,-29.292564
4.068750,-106.609528,-2.018672,36.623890,-25.904083,96.563377,-29.485973
4.075000,-106.734032,-2.020731,36.181725,-25.827286,93.063454,-29.544907
4.081250,-105.134644,-2.024059,35.417690,-25.694431,89.551704,-29.473909
4.087500,-102.228561,-2.027184,34.587437,-25.514284,84.190430,-29.273939
4.093750,-98.508438,-2.029643,33.994087,-25.295666,78.706787,-28.950937
4.100000,-94.515694,-2.032330,32.055111,-25.053053,72.956047,-28.525803
4.106250,-88.632217,-2.035847,30.768576,-24.791046,66.841751,-28.037460
4.112500,-82.748993,-2.039834,30.035189,-24.501417,60.447525,-27.443371
4.118750,-76.862686,-2.044135,29.598236,-24.200409,53.940243,-26.779799
4.125000,-70.974792,-2.049022,29.165094,-23.903103,47.061157,-26.087027
4.131250,-65.085846,-2.054518,28.569004,-23.618866,39.957283,-25.394951
4.137500,-59.192200,-2.060070,27.695541,-23.350868,32.826252,-24.726555
4.143750,-53.292206,-2.065314,26.457134,-23.098186,25.880764,-24.099463
4.150000,-47.389553,-2.070602,24.770021,-22.859898,19.313311,-23.526497
4.156250,-41.486839,-2.076343,24.729065,-22.632553,13.296525,-23.008049
4.162500,-35.582844,-2.082431,24.924744,-22.404915,7.983221,-22.559776
4.168750,-29.675085,-2.088671,23.944233,-22.166840,5.069513,-22.179413
4.175000,-23.763737,-2.095056,23.639074,-21.936377,1.989971,-21.867632
4.181250,-17.848562,-2.101383,23.825666,-21.718962,0.463682,-21.618111
4.187500,-11.928917,-2.107449,24.298037,-21.519289,0.373950,-21.370584
4.193750,-6.004725,-2.113162,24.838591,-21.343662,1.772658,-21.234077
4.200000,-0.076885,-2.118313,25.215096,-21.199566,2.748285,-21.181341
4.206250,5.854210,-2.122567,25.210783,-21.094376,3.975254,-21.190248
4.212500,11.787914,-2.125693,24.662703,-21.025270,6.483399,-21.218040
4.218750,17.720396,-2.128103,25.632753,-20.981434,8.040518,-21.268921
4.225000,23.649200,-2.130259,24.713728,-20.958405,8.642017,-21.343351
4.231250,29.573776,-2.132232,23.882641,-20.944986,8.140225,-21.427122
4.237500,35.495995,-2.133942,22.933825,-20.940407,6.366259,-21.497807
4.243750,41.415817,-2.135386,21.527126,-20.961502,5.240527,-21.564550
4.250000,47.334301,-2.136465,19.507921,-20.992943,3.137916,-21.626492
4.256250,53.250713,-2.137116,16.730408,-21.017570,0.585821,-21.667629
4.262500,59.162769,-2.137808,12.962403,-21.020512,-2.003115,-21.676506
4.268750,65.067558,-2.139273,8.005482,-20.991472,-4.273549,-21.642914
4.275000,70.965820,-2.141911,1.680066,-20.922787,-5.913722,-21.560080
4.281250,76.863617,-2.145129,-4.009378,-20.802519,-6.648926,-21.415562
4.287500,82.763397,-2.148764,-10.592634,-20.627552,-6.281700,-21.180588
4.293750,88.662704,-2.153602,-17.811300,-20.421078,-4.911129,-20.925911
4.300000,94.561401,-2.159762,-25.293331,-20.184654,-2.805495,-20.653526
4.306250,98.572235,-2.166150,-32.595482,-19.921703,0.226531,-20.360929
4.312500,102.322021,-2.171679,-39.400841,-19.643002,3.980300,-20.057915
4.318750,105.272865,-2.176723,-45.439007,-19.363026,8.191340,-19.757912
4.325000,106.924866,-2.182295,-50.508533,-19.102936,12.555970,-19.478561
4.331250,106.853233,-2.188262,-54.462379,-18.885590,16.763395,-19.235014
4.337500,104.724411,-2.193514,-57.203545,-18.758305,20.543825,-19.029724
4.343750,100.302460,-2.197596,-58.750145,-18.633112,23.675644,-18.804838
4.350000,93.460487,-2.200749,-58.109642,-18.578674,25.679155,-18.685173
4.356250,84.196960,-2.202796,-56.167065,-18.630898,28.228086,-18.650801
4.362500,72.634010,-2.203264,-52.727684,-18.789322,30.082178,-18.711843
4.368750,59.005821,-2.202529,-47.876724,-19.045828,31.589817,-18.895006
4.375000,43.646851,-2.201388,-41.819267,-19.387007,33.002579,-19.141083
4.381250,26.984310,-2.199706,-34.829659,-19.792089,34.367653,-19.431198
4.387500,9.514931,-2.196904,-27.230001,-20.234510,36.489887,-19.773157
4.393750,-8.230454,-2.193211,-19.435949,-20.697750,37.693008,-20.194456
4.400000,-25.712486,-2.189801,-11.902600,-21.168985,39.537170,-20.670961
4.406250,-42.397991,-2.186853,-2.834807,-21.630693,41.602665,-21.176111
4.412500,-57.789177,-2.183516,4.185199,-22.069313,43.598270,-21.691212
4.418750,-71.458138,-2.179885,11.000813,-22.478672,45.307957,-22.203373
4.425000,-83.069389,-2.176902,17.441076,-22.798044,46.650234,-22.663715
4.431250,-92.387177,-2.174974,23.334129,-23.026495,47.634678,-23.044779
4.437500,-99.283455,-2.173393,28.290081,-23.175852,48.028778,-23.343054
4.443750,-103.756279,-2.171995,32.262054,-23.253567,47.830914,-23.551682
4.450000,-105.931328,-2.171651,35.315071,-23.261269,47.171524,-23.663280
4.456250,-106.046631,-2.172807,37.578465,-23.203947,46.219936,-23.676285
4.462500,-104.436478,-2.174709,39.253765,-23.091547,45.155792,-23.596905
4.468750,-101.523476,-2.176909,40.629765,-22.943365,44.201683,-23.447517
4.475000,-97.803352,-2.179894,40.190376,-22.758186,43.653725,-23.213520
4.481250,-93.809921,-2.183710,40.101337,-22.529423,42.237209,-22.881636
4.487500,-87.916199,-2.187544,40.022499,-22.288958,41.482952,-22.498480
4.493750,-82.017059,-2.191048,39.763847,-22.058197,41.089760,-22.093626
4.500000,-76.118752,-2.195479,39.258369,-21.848257,40.840214,-21.688766
4.506250,-70.223183,-2.201527,38.481716,-21.659824,40.524124,-21.298618
4.512500,-64.322273,-2.207958,37.425869,-21.480490,39.925476,-20.932507
4.518750,-58.408215,-2.213342,36.090000,-21.255693,38.795429,-20.599764
4.525000,-52.485489,-2.217801,34.498741,-21.069553,36.816135,-20.336926
4.531250,-46.563263,-2.222553,33.746147,-20.931873,33.539577,-20.130989
4.537500,-40.643013,-2.227929,33.320984,-20.798943,30.333998,-19.960384
4.543750,-34.717381,-2.233100,31.814230,-20.659159,25.692251,-19.836321
4.550000,-28.782967,-2.237251,30.948624,-20.539557,19.943258,-19.734348
4.556250,-22.843195,-2.240506,30.436520,-20.462801,13.487145,-19.714378
4.562500,-16.902048,-2.243271,30.059137,-20.448195,7.037885,-19.793566
4.568750,-10.959748,-2.245507,29.591648,-20.521374,0.572706,-19.968824
4.575000,-5.014911,-2.246966,28.807899,-20.741344,-5.726571,-20.187117
4.581250,0.933417,-2.247225,27.510180,-21.025623,-11.544475,-20.459778
4.587500,6.882215,-2.246217,24.458521,-21.395477,-16.371943,-20.799637
4.593750,12.829126,-2.244262,22.507277,-21.870295,-20.027328,-21.199043
4.600000,18.772205,-2.241511,19.787531,-22.453835,-22.462095,-21.637344
4.606250,24.711363,-2.237729,16.171648,-23.213823,-23.818604,-22.127029
4.612500,30.646109,-2.232993,12.591398,-24.009634,-24.370914,-22.657526
4.618750,36.570759,-2.228279,8.398035,-24.878012,-24.183283,-23.206728
4.625000,42.483219,-2.224371,3.941166,-25.798870,-23.537796,-23.759100
4.631250,48.389519,-2.220596,-0.493590,-26.738588,-22.759108,-24.301527
4.637500,54.294613,-2.215966,-4.642825,-27.653755,-22.205816,-24.816633
4.643750,60.194855,-2.211057,-8.257509,-28.491280,-22.244507,-25.269300
4.650000,66.081345,-2.207405,-13.030977,-29.190229,-23.226019,-25.611839
4.656250,71.953323,-2.205813,-15.099068,-29.722263,-25.530334,-25.851831
4.662500,77.819496,-2.205805,-16.509134,-30.078840,-27.730059,-26.010927
4.668750,83.684509,-2.207032,-17.127724,-30.229610,-31.206837,-26.062334
4.675000,89.549377,-2.209811,-16.979101,-30.162163,-35.722054,-25.997982
4.681250,93.520302,-2.213917,-16.193796,-29.879021,-41.070095,-25.818605
4.687500,97.222282,-2.218733,-14.974625,-29.403936,-47.027092,-25.535400
4.693750,100.122192,-2.224544,-13.567585,-28.775175,-53.327602,-25.160280
4.700000,101.724243,-2.232363,-12.266973,-28.021070,-59.626183,-24.695091
4.706250,101.604408,-2.241920,-11.558425,-27.146212,-65.553871,-24.132435
4.712500,99.432899,-2.251415,-11.688951,-26.192549,-70.670799,-23.525583
4.718750,94.976784,-2.259658,-13.003901,-25.235962,-76.392548,-22.931049
