Anritsu VNA Frequency[GHz],S21[deg],S21[dB],S11[deg],S11[dB],S22[deg],S22[dB]
1338117460.26,2012_05_27_12:17:40,+40.743,+10.247,+55.347,+10.262,+13.909,+13.718,+14.014,+13.764,10.461754,-15.792
3.006250,34.273769,-1.757189,59.384438,-26.654732,-79.846970,-27.427500
3.012500,34.273769,-1.757189,59.384438,-26.654732,-79.846970,-27.427500
3.018750,34.273769,-1.757189,59.384438,-26.654732,-79.846970,-27.427500
3.025000,34.273769,-1.757189,59.384438,-26.654732,-79.846970,-27.427500
3.031250,34.273769,-1.757189,59.384438,-26.654732,-79.846970,-27.427500
3.037500,34.273769,-1.757189,59.384438,-26.654732,-79.846970,-27.427500
3.043750,34.273769,-1.757189,59.384438,-26.654732,-79.846970,-27.427500
3.050000,34.273769,-1.757189,59.384438,-26.654732,-79.846970,-27.427500
3.056250,34.273769,-1.757189,59.384438,-26.654732,-79.846970,-27.427500
3.062500,34.273769,-1.757189,59.384438,-26.654732,-79.846970,-27.427500
3.068750,34.273769,-1.757189,59.384438,-26.654732,-79.846970,-27.427500
3.075000,34.273769,-1.757189,59.384438,-26.654732,-79.846970,-27.427500
3.081250,34.273769,-1.757189,59.384438,-26.654732,-79.846970,-27.427500
3.087500,34.273769,-1.757189,59.384438,-26.654732,-79.846970,-27.427500
3.093750,34.273769,-1.758975,59.384438,-26.452332,-79.846970,-27.176092
3.100000,40.180481,-1.760991,56.699352,-26.299366,-81.869019,-26.942593
3.106250,46.086926,-1.762980,53.129425,-26.217543,-82.272354,-26.728632
3.112500,51.993896,-1.764967,49.043247,-26.227329,-80.700974,-26.507458
3.118750,57.900116,-1.767115,43.035431,-26.270391,-78.995224,-26.206982
3.125000,63.805317,-1.769351,38.230663,-26.313574,-74.953117,-25.946129
3.131250,69.710182,-1.771648,33.840038,-26.384445,-68.793190,-25.659258
3.137500,75.613930,-1.774281,30.119019,-26.483166,-60.913418,-25.336105
3.143750,81.516266,-1.777467,27.274685,-26.602257,-51.493755,-24.984589
3.150000,87.419563,-1.780994,25.489929,-26.726547,-40.693645,-24.617243
3.156250,93.326004,-1.784271,24.884661,-26.842030,-28.684748,-24.252344
3.162500,97.340088,-1.787274,25.525585,-26.935555,-15.666800,-23.913538
3.168750,101.081009,-1.790396,27.429953,-26.999182,-3.745658,-23.649426
3.175000,104.015320,-1.793827,30.642099,-27.011749,8.537878,-23.405764
3.181250,105.652618,-1.797428,33.403980,-26.959414,21.055771,-23.184559
3.187500,105.567520,-1.800854,37.184006,-26.860058,32.538124,-23.016668
3.193750,103.418793,-1.804047,41.277565,-26.725615,42.550369,-22.919334
3.200000,98.968979,-1.806976,45.116409,-26.564106,50.766617,-22.895502
3.206250,92.096382,-1.809475,48.212917,-26.386013,56.901901,-22.945343
3.212500,82.799034,-1.811863,50.151104,-26.204859,60.758785,-23.077139
3.218750,71.197601,-1.814469,50.619011,-26.030807,62.234573,-23.272839
3.225000,57.530174,-1.816951,51.617668,-25.857988,61.076347,-23.477682
3.231250,42.139553,-1.818929,51.678890,-25.686449,57.574905,-23.700750
3.237500,25.451622,-1.820578,49.319569,-25.516062,53.837215,-23.933355
3.243750,7.953965,-1.822532,46.648949,-25.325729,48.367302,-24.152824
3.250000,-9.820397,-1.825038,43.527523,-25.152891,41.834129,-24.339731
3.256250,-27.321110,-1.827672,39.615204,-25.012476,34.829235,-24.493513
3.262500,-44.013641,-1.829976,35.134228,-24.887230,28.001205,-24.602917
3.268750,-59.406696,-1.831952,30.032663,-24.773457,22.030828,-24.658983
3.275000,-73.076660,-1.834005,24.184433,-24.669786,17.462053,-24.661617
3.281250,-84.684105,-1.836438,17.484613,-24.567139,14.736096,-24.618240
3.287500,-93.989395,-1.839222,9.839504,-24.453156,14.153033,-24.542614
3.293750,-100.868889,-1.842109,1.214075,-24.289341,15.857067,-24.435833
3.300000,-105.322166,-1.844893,-6.212176,-24.120512,19.904078,-24.298868
3.306250,-107.470383,-1.847426,-14.868697,-23.985075,26.143013,-24.157839
3.312500,-107.551323,-1.849710,-23.527050,-23.862997,34.275909,-24.044348
3.318750,-105.906563,-1.851881,-31.898975,-23.762127,43.921803,-23.979456
3.325000,-102.963173,-1.853894,-39.720592,-23.700037,54.632324,-23.973940
3.331250,-99.213081,-1.855524,-46.733646,-23.702309,65.890137,-24.030706
3.337500,-95.188858,-1.856773,-52.751842,-23.837660,77.116501,-24.148270
3.343750,-89.269623,-1.857749,-57.835663,-23.996458,87.732292,-24.311884
3.350000,-83.350800,-1.858345,-62.280235,-24.218058,97.487755,-24.466478
3.356250,-77.432869,-1.858628,-65.730606,-24.544397,106.099075,-24.664024
3.362500,-71.516762,-1.858776,-66.481880,-24.997284,112.365456,-24.897451
3.368750,-65.602478,-1.858673,-66.169693,-25.556953,116.345825,-25.187992
3.375000,-59.688499,-1.858000,-64.670448,-26.196795,117.763786,-25.562860
3.381250,-53.776680,-1.856943,-61.996094,-26.882338,116.387115,-25.899010
3.387500,-47.871059,-1.856294,-58.235302,-27.574915,112.862343,-26.223156
3.393750,-41.971992,-1.856401,-53.547775,-28.229778,106.621971,-26.527409
3.400000,-36.075420,-1.856893,-48.152008,-28.804173,98.226616,-26.803850
3.406250,-30.177532,-1.857183,-42.380692,-29.276400,88.680092,-27.084063
3.412500,-24.280149,-1.857594,-36.554398,-29.621727,78.648773,-27.333525
3.418750,-18.387571,-1.858889,-28.742176,-29.818071,66.773964,-27.530912
3.425000,-12.498213,-1.861126,-22.485044,-29.861185,55.342735,-27.670477
3.431250,-6.606068,-1.863468,-15.927599,-29.766710,44.788845,-27.757792
3.437500,-0.709882,-1.865687,-9.329798,-29.518042,35.566811,-27.796806
3.443750,5.186001,-1.868502,-2.714162,-29.113935,28.356918,-27.735731
3.450000,11.080132,-1.872279,3.404739,-28.599926,21.443869,-27.603642
3.456250,16.978302,-1.876212,8.858854,-28.015308,16.604328,-27.414158
3.462500,22.885378,-1.879523,13.640713,-27.404093,13.545412,-27.169727
3.468750,28.797375,-1.882209,17.832521,-26.812395,11.952538,-26.867794
3.475000,34.709747,-1.884650,21.541353,-26.306356,11.478828,-26.523443
3.481250,40.621616,-1.886940,25.023912,-25.837025,11.728413,-26.151531
3.487500,46.532692,-1.889273,27.014698,-25.436235,12.330373,-25.746878
3.493750,52.442467,-1.892075,28.895363,-25.139744,12.855668,-25.317358
3.500000,58.351715,-1.895345,30.495108,-24.952974,12.867643,-24.874397
3.506250,64.263573,-1.898403,31.710228,-24.860977,12.035672,-24.428154
3.512500,70.180016,-1.900688,32.445000,-24.829834,10.089142,-23.987984
3.518750,76.096603,-1.902787,32.668282,-24.764214,6.823341,-23.558495
3.525000,82.007027,-1.905759,32.601170,-24.751495,2.083363,-23.146496
3.531250,87.912971,-1.909882,32.731739,-24.741224,-2.102146,-22.766367
3.537500,93.821487,-1.914291,32.738644,-24.697464,-7.193904,-22.433664
3.543750,97.840767,-1.918391,32.880684,-24.610653,-12.765635,-22.144644
3.550000,101.589600,-1.922676,33.489929,-24.454214,-18.532627,-21.862745
3.556250,104.531738,-1.927669,33.011868,-24.229481,-24.023554,-21.536631
3.562500,106.178719,-1.932954,33.148579,-23.965637,-28.935617,-21.294991
3.568750,106.109627,-1.937425,33.557751,-23.689762,-32.073711,-21.123795
3.575000,103.984039,-1.940517,33.964058,-23.428513,-34.430363,-21.024790
3.581250,99.559418,-1.942496,34.083260,-23.216425,-35.735508,-21.011810
3.587500,92.708946,-1.944049,33.655331,-23.090843,-36.005810,-21.044298
3.593750,83.432983,-1.945160,32.572384,-23.040073,-35.126850,-21.144848
3.600000,71.856758,-1.945225,30.777328,-23.075960,-32.936188,-21.328007
3.606250,58.218487,-1.943845,30.111759,-23.212961,-29.589884,-21.588085
3.612500,42.852898,-1.941625,29.126348,-23.435999,-25.365610,-21.898239
3.618750,26.184113,-1.938967,28.230888,-23.763563,-20.661673,-22.233461
3.625000,8.706137,-1.935663,27.539202,-24.206528,-16.259857,-22.636187
3.631250,-9.047140,-1.931471,27.652796,-24.727171,-10.361753,-23.068951
3.637500,-26.532139,-1.926917,28.879965,-25.290138,-4.690867,-23.503159
3.643750,-43.221058,-1.922720,31.356817,-25.857800,0.732804,-23.919043
3.650000,-58.620277,-1.919149,33.221134,-26.384708,5.817749,-24.299313
3.656250,-72.299408,-1.916145,36.034904,-26.795603,10.473649,-24.627699
3.662500,-83.916801,-1.913859,38.972137,-27.137041,14.607244,-24.899099
3.668750,-93.235138,-1.912520,42.953766,-27.386057,18.075523,-25.120157
3.675000,-100.130669,-1.911778,46.304249,-27.514584,20.797504,-25.289450
3.681250,-104.601089,-1.911135,48.750969,-27.519880,22.716002,-25.405603
3.687500,-106.769592,-1.910965,50.050209,-27.414499,23.754242,-25.471836
3.693750,-106.876244,-1.912032,50.054428,-27.224390,23.859358,-25.497133
3.700000,-105.260468,-1.914270,48.768948,-26.955608,23.038284,-25.492645
3.706250,-102.342445,-1.916684,46.343102,-26.625769,21.423084,-25.450872
3.712500,-98.613052,-1.918850,42.767879,-26.273813,19.234241,-25.365227
3.718750,-94.609917,-1.921356,36.336674,-25.927286,16.622793,-25.241156
3.725000,-88.713478,-1.924510,28.972185,-25.602077,13.915221,-25.094242
3.731250,-82.815262,-1.927756,20.403038,-25.343304,11.718365,-24.962656
3.737500,-76.912125,-1.930548,12.567672,-25.174055,10.451168,-24.859161
3.743750,-71.006676,-1.933075,4.217721,-25.080568,10.520652,-24.805830
3.750000,-65.102821,-1.935699,-4.093559,-25.050938,10.526402,-24.717678
3.756250,-59.199749,-1.938305,-11.971229,-25.081099,10.448045,-24.614513
3.762500,-53.296124,-1.940728,-18.992573,-25.150223,11.610304,-24.496925
3.768750,-47.392258,-1.943177,-24.717216,-25.220840,13.748669,-24.413849
3.775000,-41.490208,-1.945940,-28.913076,-25.305393,16.418829,-24.353973
3.781250,-35.588417,-1.948759,-31.475929,-25.391329,19.012260,-24.301859
3.787500,-29.685411,-1.951336,-32.043369,-25.458088,21.164629,-24.249977
3.793750,-23.782146,-1.953991,-30.536514,-25.520830,22.567568,-24.202192
3.800000,-17.880980,-1.957060,-28.876268,-25.522045,23.026083,-24.150818
3.806250,-11.980311,-1.960464,-24.708660,-25.436850,22.554529,-24.059750
3.812500,-6.078212,-1.964018,-19.556057,-25.305048,21.017117,-23.936954
3.818750,-0.175837,-1.967970,-13.959816,-25.143696,18.303858,-23.793266
3.825000,5.727607,-1.972224,-8.455151,-24.966631,14.539496,-23.635195
3.831250,11.635089,-1.976175,-1.390754,-24.788872,9.992654,-23.474113
3.837500,17.546497,-1.979559,5.415535,-24.623899,4.990162,-23.346121
3.843750,23.457424,-1.983066,12.119531,-24.467413,-0.131288,-23.206997
3.850000,29.365547,-1.987051,17.032839,-24.313204,-6.060490,-23.038282
3.856250,35.274639,-1.990849,21.832008,-24.170761,-11.601716,-22.879541
3.862500,41.188107,-1.993921,26.095976,-24.038038,-16.737066,-22.739676
3.868750,47.100994,-1.996834,29.494339,-23.902311,-21.445061,-22.615589
3.875000,53.007069,-2.000798,31.708422,-23.741903,-25.749016,-22.496552
3.881250,58.909058,-2.005935,32.382015,-23.561600,-29.719147,-22.366705
3.887500,64.814316,-2.011234,31.125235,-23.363977,-33.537666,-22.230701
3.893750,70.726257,-2.016043,27.861156,-23.131485,-37.464558,-22.093878
3.900000,76.639549,-2.021077,24.667620,-22.853546,-41.627953,-21.948479
3.906250,82.549629,-2.027184,20.094578,-22.530403,-44.327831,-21.792667
3.912500,88.459747,-2.034282,14.613026,-22.163366,-47.436390,-21.621931
3.918750,94.376091,-2.041749,8.687220,-21.759644,-50.663383,-21.423306
3.925000,98.406334,-2.049054,2.684620,-21.346775,-53.766720,-21.169458
3.931250,102.171364,-2.055940,-3.048884,-20.950518,-56.808971,-20.950068
3.937500,105.137222,-2.062420,-8.087738,-20.591019,-57.594402,-20.761303
3.943750,106.811295,-2.068260,-12.104612,-20.291204,-57.198307,-20.611464
3.950000,106.767715,-2.072986,-14.878568,-20.072962,-55.155109,-20.514135
3.956250,104.665421,-2.076037,-16.287489,-19.954521,-51.111164,-20.484890
3.962500,100.264778,-2.077350,-16.270393,-19.945517,-44.817268,-20.535744
3.968750,93.439957,-2.077257,-14.825341,-20.043339,-36.135986,-20.675152
3.975000,84.188705,-2.075818,-13.897372,-20.213404,-25.071678,-20.914413
3.981250,72.631447,-2.073116,-9.800666,-20.507317,-11.790794,-21.281330
3.987500,59.003868,-2.069285,-5.451947,-20.907320,2.101619,-21.689552
3.993750,43.644447,-2.064620,-0.165338,-21.370457,17.257936,-22.200720
4.000000,26.979895,-2.059272,5.415008,-21.891918,32.879784,-22.821951
4.006250,9.502129,-2.053278,10.937265,-22.455551,48.095695,-23.585077
4.012500,-8.258162,-2.047125,16.134132,-23.033556,61.854061,-24.346058
4.018750,-25.757174,-2.041672,20.752838,-23.593243,74.802162,-25.082438
4.025000,-42.461136,-2.037097,24.506607,-24.119394,85.016830,-25.828537
4.031250,-57.872868,-2.033023,29.260828,-24.602438,93.402412,-26.589178
4.037500,-71.563492,-2.029504,31.647051,-25.021646,99.081177,-27.310196
4.043750,-83.195595,-2.027236,33.707077,-25.364759,102.341408,-27.961609
4.050000,-92.530540,-2.026377,35.294079,-25.631777,103.577789,-28.526318
4.056250,-99.440384,-2.025944,36.338528,-25.813370,103.320000,-28.994806
4.062500,-103.922440,-2.025279,36.918304,-25.891558,100.364311,-29.334305
4.068750,-106.104599,-2.025367,36.977337,-25.883726,97.113892,-29.530519
4.075000,-106.228958,-2.027448,36.532799,-25.807060,93.626236,-29.591047
4.081250,-104.629875,-2.030885,35.766159,-25.674732,90.127251,-29.520376
4.087500,-101.724236,-2.034139,34.932465,-25.495525,84.776573,-29.319672
4.093750,-98.004227,-2.036731,34.335873,-25.278187,79.301453,-28.994942
4.100000,-94.011627,-2.039625,32.396046,-25.037243,73.558235,-28.566936
4.106250,-88.128571,-2.043371,31.110020,-24.777430,67.447945,-28.075535
4.112500,-82.245277,-2.047683,30.375032,-24.490149,61.052731,-27.477703
4.118750,-76.359047,-2.052276,29.935474,-24.191446,54.546394,-26.809826
4.125000,-70.471016,-2.057453,29.501507,-23.896345,47.661808,-26.112419
4.131250,-64.581970,-2.063199,28.902035,-23.613976,40.550159,-25.416126
4.137500,-58.688030,-2.068990,28.025549,-23.347479,33.409637,-24.743967
4.143750,-52.787983,-2.074445,26.784424,-23.096073,26.454805,-24.113729
4.150000,-46.884724,-2.079839,25.094257,-22.858614,19.876879,-23.538383
4.156250,-40.981388,-2.085592,25.048882,-22.631727,13.849518,-23.017817
4.162500,-35.076611,-2.091617,25.242149,-22.404247,8.522406,-22.565357
4.168750,-29.168291,-2.097694,24.256437,-22.166203,5.590737,-22.183956
4.175000,-23.256029,-2.103858,23.951452,-21.935755,2.506920,-21.871241
4.181250,-17.340210,-2.109911,24.134457,-21.717884,0.973271,-21.620165
4.187500,-11.419808,-2.115616,24.606455,-21.517752,0.879959,-21.370100
4.193750,-5.494810,-2.120904,25.143272,-21.341410,2.257451,-21.231445
4.200000,0.433736,-2.125608,25.517174,-21.196478,3.228326,-21.176094
4.206250,6.365516,-2.129394,25.511921,-21.090597,4.447808,-21.183332
4.212500,12.299893,-2.132081,24.961655,-21.020844,6.950479,-21.208590
4.218750,18.232988,-2.134058,25.931849,-20.976486,8.501057,-21.256865
4.225000,24.162178,-2.135818,25.011114,-20.953146,9.096276,-21.328928
4.231250,30.087614,-2.137455,24.180283,-20.939493,8.592221,-21.410749
4.237500,36.010494,-2.138848,23.230207,-20.935009,6.816772,-21.479658
4.243750,41.931164,-2.140030,21.825052,-20.956604,5.692558,-21.544649
4.250000,47.850258,-2.140922,19.805521,-20.988901,3.596167,-21.605434
4.256250,53.767529,-2.141426,17.027676,-21.014187,1.051879,-21.645691
4.262500,59.680962,-2.141981,13.259199,-21.018156,-1.526208,-21.654219
4.268750,65.587234,-2.143366,8.303370,-20.990013,-3.783966,-21.620703
4.275000,71.487000,-2.145928,1.979524,-20.922489,-5.407029,-21.538448
4.281250,77.386284,-2.149127,-3.706869,-20.803318,-6.126770,-21.394714
4.287500,83.288086,-2.152729,-10.286569,-20.629765,-5.742196,-21.160290
4.293750,89.189117,-2.157504,-17.500614,-20.424356,-4.351748,-20.906227
4.300000,95.089752,-2.163664,-24.975771,-20.188906,-2.229797,-20.634647
4.306250,99.102402,-2.170003,-32.271126,-19.926550,0.819959,-20.342861
4.312500,102.853661,-2.175499,-39.069344,-19.648365,4.590065,-20.040453
4.318750,105.806068,-2.180522,-45.099228,-19.368586,8.814789,-19.741013
4.325000,107.459625,-2.186032,-50.160069,-19.108433,13.189215,-19.462236
4.331250,107.389175,-2.191936,-54.105267,-18.890724,17.403496,-19.218748
4.337500,105.261063,-2.197150,-56.839684,-18.761410,21.185163,-19.013222
4.343750,100.839226,-2.201215,-58.382587,-18.636517,24.310770,-18.789272
4.350000,93.997543,-2.204323,-57.735729,-18.581158,26.318087,-18.669191
4.356250,84.733635,-2.206387,-55.789406,-18.632065,28.860693,-18.634153
4.362500,73.170166,-2.206853,-52.350174,-18.788992,30.704983,-18.695004
4.368750,59.541275,-2.206113,-47.502037,-19.043762,32.200901,-18.876989
4.375000,44.181385,-2.204981,-41.449196,-19.383326,33.597710,-19.121876
4.381250,27.517614,-2.203365,-34.466351,-19.786852,34.949299,-19.411446
4.387500,10.047481,-2.200631,-26.875393,-20.227865,37.055988,-19.751619
4.393750,-7.698939,-2.197048,-19.088247,-20.689754,38.242100,-20.171331
4.400000,-25.181744,-2.193735,-11.563557,-21.160055,40.071835,-20.646055
4.406250,-41.868088,-2.190891,-2.503064,-21.620966,42.124557,-21.149336
4.412500,-57.260021,-2.187698,4.507979,-22.058968,44.109131,-21.662806
4.418750,-70.929169,-2.184228,11.316707,-22.468557,45.810654,-22.172884
4.425000,-82.540230,-2.181418,17.749897,-22.788050,47.144138,-22.632065
4.431250,-91.857056,-2.179657,23.638870,-23.017138,48.124149,-23.012585
4.437500,-98.752655,-2.178287,28.592117,-23.167625,48.516705,-23.310734
4.443750,-103.224472,-2.177057,32.561905,-23.246685,48.318810,-23.519833
4.450000,-105.398193,-2.176879,35.612972,-23.256180,47.660267,-23.632364
4.456250,-105.511909,-2.178219,37.875599,-23.200735,46.708504,-23.646807
4.462500,-103.900002,-2.180300,39.550320,-23.090225,45.645931,-23.569326
4.468750,-100.985626,-2.182661,40.926678,-22.944160,44.693481,-23.421570
4.475000,-97.263680,-2.185800,40.486183,-22.761044,44.143795,-23.190336
4.481250,-93.268898,-2.189750,40.396591,-22.534075,42.724033,-22.861162
4.487500,-87.374046,-2.193693,40.317883,-22.295271,41.966545,-22.480181
4.493750,-81.473595,-2.197328,40.059532,-22.065786,41.567928,-22.077263
4.500000,-75.574181,-2.201799,39.554756,-21.856846,41.310329,-21.673811
4.506250,-69.677856,-2.207864,38.777847,-21.668966,40.985348,-21.284388
4.512500,-63.776627,-2.214312,37.721519,-21.489841,40.374226,-20.918436
4.518750,-57.862827,-2.219704,36.387047,-21.266993,39.232101,-20.585695
4.525000,-51.940056,-2.224117,34.799431,-21.080019,37.244534,-20.321234
4.531250,-46.018291,-2.228788,34.049114,-20.941587,33.969292,-20.115257
4.537500,-40.098286,-2.234020,33.622356,-20.807892,30.757458,-19.943338
4.543750,-34.173138,-2.239054,32.120937,-20.667341,26.112516,-19.816557
4.550000,-28.239548,-2.243066,31.260153,-20.546507,20.364258,-19.712990
4.556250,-22.300550,-2.246170,30.751217,-20.467869,13.918858,-19.691408
4.562500,-16.359943,-2.248767,30.378202,-20.451092,7.483443,-19.768368
4.568750,-10.418428,-2.250872,29.914791,-20.522131,1.034634,-19.941383
4.575000,-4.474233,-2.252177,29.134184,-20.737331,-5.246973,-20.157778
4.581250,1.472957,-2.252336,27.832071,-21.019100,-11.040102,-20.429554
4.587500,7.421214,-2.251268,24.784756,-21.385723,-15.843432,-20.768093
4.593750,13.367969,-2.249278,22.833677,-21.857302,-19.476650,-21.166376
4.600000,19.311012,-2.246562,20.115414,-22.436865,-21.889963,-21.603983
4.606250,25.250280,-2.242862,16.497797,-23.193972,-23.224249,-22.092495
4.612500,31.184986,-2.238239,12.942133,-23.987125,-23.755516,-22.622269
4.618750,37.110386,-2.233659,8.756389,-24.853291,-23.552998,-23.170837
4.625000,43.023842,-2.229908,4.308789,-25.773169,-22.897066,-23.722841
4.631250,48.931274,-2.226378,-0.108310,-26.712765,-22.112705,-24.264515
4.637500,54.837654,-2.221978,-4.231611,-27.628817,-21.563465,-24.778830
4.643750,60.739502,-2.217267,-7.813420,-28.468229,-21.611015,-25.231003
4.650000,66.627922,-2.213823,-12.549505,-29.169792,-22.605696,-25.573875
4.656250,72.501999,-2.212382,-14.575370,-29.705109,-24.924314,-25.813536
4.662500,78.370377,-2.212513,-15.941531,-30.065763,-27.141029,-25.972519
4.668750,84.237587,-2.213869,-16.517365,-30.220886,-30.637049,-26.024176
4.675000,90.104485,-2.216652,-16.327066,-30.157825,-35.172215,-25.960213
4.681250,94.077026,-2.220774,-15.505331,-29.879194,-40.536575,-25.781450
4.687500,97.780411,-2.225559,-14.255944,-29.408369,-46.506939,-25.499086
4.693750,100.681648,-2.231274,-12.826468,-28.783272,-52.813496,-25.125143
4.700000,102.285011,-2.238898,-11.513811,-28.031696,-59.112034,-24.661987
4.706250,102.165886,-2.248238,-10.800856,-27.159246,-65.033951,-24.102270
4.712500,99.995041,-2.257493,-10.935707,-26.207735,-70.151138,-23.496611
4.718750,95.538872,-2.265488,-12.261101,-25.252239,-75.862160,-22.903811
