Anritsu VNA Frequency[GHz],S21[deg],S21[dB],S11[deg],S11[dB],S22[deg],S22[dB]
1338063521.23,2012_05_26_21:18:41,+49.363,+108.09,+88.159,+108.40,+113.71,+115.75,+111.73,+113.18,112.779442,-10.055
3.006250,39.980381,-2.210898,64.873146,-27.097620,-81.706299,-28.042505
3.012500,39.980381,-2.210898,64.873146,-27.097620,-81.706299,-28.042505
3.018750,39.980381,-2.210898,64.873146,-27.097620,-81.706299,-28.042505
3.025000,39.980381,-2.210898,64.873146,-27.097620,-81.706299,-28.042505
3.031250,39.980381,-2.210898,64.873146,-27.097620,-81.706299,-28.042505
3.037500,39.980381,-2.210898,64.873146,-27.097620,-81.706299,-28.042505
3.043750,39.980381,-2.210898,64.873146,-27.097620,-81.706299,-28.042505
3.050000,39.980381,-2.210898,64.873146,-27.097620,-81.706299,-28.042505
3.056250,39.980381,-2.210898,64.873146,-27.097620,-81.706299,-28.042505
3.062500,39.980381,-2.210898,64.873146,-27.097620,-81.706299,-28.042505
3.068750,39.980381,-2.210898,64.873146,-27.097620,-81.706299,-28.042505
3.075000,39.980381,-2.210898,64.873146,-27.097620,-81.706299,-28.042505
3.081250,39.980381,-2.210898,64.873146,-27.097620,-81.706299,-28.042505
3.087500,39.980381,-2.210898,64.873146,-27.097620,-81.706299,-28.042505
3.093750,39.980381,-2.213129,64.873146,-26.899059,-81.706299,-27.815237
3.100000,45.901905,-2.215715,61.607361,-26.732241,-81.770927,-27.588526
3.106250,51.823051,-2.218408,57.470539,-26.626789,-80.965744,-27.363541
3.112500,57.745155,-2.221172,52.927883,-26.597445,-79.016769,-27.121281
3.118750,63.666836,-2.224057,46.583710,-26.633863,-75.699928,-26.800425
3.125000,69.587265,-2.227077,41.288403,-26.653719,-71.037148,-26.492947
3.131250,75.507126,-2.230197,36.595852,-26.698088,-65.174721,-26.159969
3.137500,81.425919,-2.233602,32.640686,-26.772930,-57.669556,-25.788935
3.143750,87.343201,-2.237573,29.622965,-26.873299,-48.627529,-25.387726
3.150000,93.260628,-2.241843,27.719246,-26.986534,-38.186264,-24.970570
3.156250,97.286339,-2.245909,27.041746,-27.098734,-28.395552,-24.557165
3.162500,101.041046,-2.249665,27.651524,-27.194801,-17.822796,-24.171581
3.168750,103.989944,-2.253481,29.559725,-27.262686,-7.196043,-23.851631
3.175000,105.640533,-2.257549,32.780861,-27.283293,2.814411,-23.590462
3.181250,105.566086,-2.261660,35.519650,-27.242813,12.123197,-23.345592
3.187500,103.428764,-2.265633,39.343372,-27.153202,19.748585,-23.154800
3.193750,98.990593,-2.269405,43.507793,-27.023481,25.383984,-23.036734
3.200000,92.129753,-2.272906,47.405663,-26.859226,28.925055,-22.999243
3.206250,82.846054,-2.276019,50.539951,-26.669376,30.318239,-23.039795
3.212500,71.259773,-2.278936,52.487270,-26.466621,29.602785,-23.163759
3.218750,57.606842,-2.282046,52.926125,-26.263319,26.945650,-23.382113
3.225000,42.228252,-2.285094,53.837284,-26.058645,22.320427,-23.602934
3.231250,25.553749,-2.287686,53.776184,-25.852116,16.050476,-23.845263
3.237500,8.074487,-2.289949,51.272942,-25.646847,10.537061,-24.106792
3.243750,-9.680948,-2.292378,48.427162,-25.429951,4.377411,-24.367859
3.250000,-27.166458,-2.295372,45.161072,-25.216326,-1.717395,-24.607244
3.256250,-43.846241,-2.298568,41.143360,-25.040913,-7.139179,-24.816555
3.262500,-59.224957,-2.301447,36.515129,-24.888317,-11.333347,-24.985155
3.268750,-72.877029,-2.303928,31.287390,-24.753937,-13.764910,-25.101826
3.275000,-84.464859,-2.306406,25.363178,-24.636726,-14.047873,-25.162617
3.281250,-93.752800,-2.309254,18.644360,-24.529428,-11.944995,-25.169106
3.287500,-100.617508,-2.312472,11.043308,-24.420256,-7.390583,-25.130003
3.293750,-105.056679,-2.315761,2.509561,-24.283897,-0.490175,-25.046488
3.300000,-107.191086,-2.318926,-4.820971,-24.110754,8.525601,-24.919556
3.306250,-107.257591,-2.321836,-13.081542,-23.983330,19.295731,-24.768362
3.312500,-105.597725,-2.324482,-21.382416,-23.869291,31.303450,-24.620729
3.318750,-102.639656,-2.327057,-29.330547,-23.770296,43.959236,-24.499189
3.325000,-98.875671,-2.329427,-36.668049,-23.698812,56.647442,-24.418058
3.331250,-94.837433,-2.331472,-43.148369,-23.673441,68.746315,-24.384304
3.337500,-88.903671,-2.333161,-48.596943,-23.732656,81.804047,-24.400412
3.343750,-82.969559,-2.334485,-52.905945,-23.883562,93.889175,-24.459045
3.350000,-77.036018,-2.335432,-56.778553,-24.052654,103.140846,-24.526457
3.356250,-71.103287,-2.336025,-59.650105,-24.305283,111.213066,-24.610201
3.362500,-65.172028,-2.336471,-59.773788,-24.672632,117.015732,-24.760918
3.368750,-59.242695,-2.336719,-58.886913,-25.147869,120.563545,-24.960251
3.375000,-53.313881,-2.336399,-56.882839,-25.709959,121.545807,-25.224831
3.381250,-47.386509,-2.335639,-53.785957,-26.329828,119.816399,-25.519869
3.387500,-41.464428,-2.335102,-49.704216,-26.973444,115.846619,-25.804089
3.393750,-35.548412,-2.335270,-44.809361,-27.600349,109.320374,-26.084675
3.400000,-29.635099,-2.335852,-39.324337,-28.168549,100.674622,-26.325506
3.406250,-23.721210,-2.336298,-33.557503,-28.653364,90.878662,-26.595009
3.412500,-17.807329,-2.336820,-27.845957,-29.032194,80.752243,-26.852224
3.418750,-11.897681,-2.338074,-22.156267,-29.281818,68.806656,-27.071177
3.425000,-5.991488,-2.340297,-16.483496,-29.392649,57.332508,-27.242123
3.431250,-0.083213,-2.342747,-11.108107,-29.369978,46.764484,-27.365911
3.437500,5.829169,-2.345083,-6.244503,-29.212227,37.554478,-27.448795
3.443750,11.741301,-2.347931,-1.904316,-28.902142,30.284433,-27.444042
3.450000,17.651360,-2.351706,1.655530,-28.475533,23.391628,-27.366947
3.456250,23.564302,-2.355870,4.321936,-27.968231,18.590937,-27.230633
3.462500,29.485197,-2.359478,6.193705,-27.418821,15.561777,-27.038397
3.468750,35.411640,-2.362487,7.485245,-26.868616,13.977345,-26.788181
3.475000,41.338367,-2.365201,8.448338,-26.366003,13.488003,-26.490704
3.481250,47.264149,-2.367882,9.409442,-25.919043,13.706252,-26.160484
3.487500,53.188873,-2.370665,9.186049,-25.511026,14.240872,-25.795021
3.493750,59.112488,-2.373800,9.419150,-25.186419,14.685829,-25.397934
3.500000,65.035744,-2.377329,9.913365,-24.958912,14.608716,-24.980612
3.506250,70.961533,-2.380755,10.600780,-24.822411,13.673648,-24.553640
3.512500,76.891159,-2.383469,11.400909,-24.755079,11.613240,-24.126602
3.518750,82.821457,-2.385861,12.261396,-24.702236,8.231049,-23.705626
3.525000,88.746696,-2.388987,13.143606,-24.631527,3.389174,-23.297487
3.531250,94.667419,-2.393202,14.858056,-24.601870,-0.863941,-22.914743
3.537500,98.694893,-2.397826,16.824848,-24.552423,-5.966005,-22.573759
3.543750,102.454857,-2.402130,19.182478,-24.466738,-11.453334,-22.286945
3.550000,105.412788,-2.406454,22.108942,-24.329628,-17.035318,-22.013474
3.556250,107.072144,-2.411413,23.951357,-24.128275,-22.350517,-21.733438
3.562500,107.008377,-2.416709,26.365467,-23.886124,-27.014921,-21.489582
3.568750,104.886986,-2.421376,28.847162,-23.629305,-31.498400,-21.333447
3.575000,100.472145,-2.424806,30.996944,-23.384104,-35.416187,-21.256758
3.581250,93.637299,-2.427090,32.437542,-23.182758,-38.954590,-21.285414
3.587500,84.377884,-2.428854,32.831234,-23.061237,-40.659267,-21.368034
3.593750,72.813980,-2.430195,31.974453,-23.025347,-42.726795,-21.515724
3.600000,59.186970,-2.430643,32.004421,-23.071703,-44.657650,-21.749025
3.606250,43.838135,-2.429766,31.276093,-23.218832,-46.392902,-22.063776
3.612500,27.190319,-2.427931,30.189226,-23.463406,-47.952591,-22.436384
3.618750,9.731618,-2.425666,29.169304,-23.805862,-49.433800,-22.834822
3.625000,-8.004119,-2.422826,28.423496,-24.267090,-51.190094,-23.289785
3.631250,-25.468784,-2.419219,28.407900,-24.815022,-51.264599,-23.772919
3.637500,-42.132378,-2.415156,29.486210,-25.413515,-51.030750,-24.253548
3.643750,-57.507061,-2.411412,31.823999,-26.025335,-50.209885,-24.708931
3.650000,-71.165436,-2.408295,33.566669,-26.607632,-48.635399,-25.120180
3.656250,-82.763718,-2.405821,36.279316,-27.101812,-46.207191,-25.469526
3.662500,-92.063400,-2.404009,39.209694,-27.491188,-42.893764,-25.747406
3.668750,-98.943024,-2.403116,43.331070,-27.793404,-38.767822,-25.957680
3.675000,-103.400253,-2.402955,46.806244,-27.971075,-33.961887,-26.102308
3.681250,-105.554787,-2.403121,49.437351,-28.013529,-28.629185,-26.180403
3.687500,-105.644455,-2.403711,50.979347,-27.927586,-23.000303,-26.195288
3.693750,-104.012444,-2.405480,51.255974,-27.735802,-17.348267,-26.155745
3.700000,-101.085144,-2.408447,50.194489,-27.464382,-11.954388,-26.075787
3.706250,-97.348587,-2.411767,47.966125,-27.108879,-7.034038,-25.958874
3.712500,-93.332764,-2.415447,44.631680,-26.710493,-2.702775,-25.798553
3.718750,-87.409363,-2.418782,38.363968,-26.306631,0.886699,-25.599436
3.725000,-81.498146,-2.422710,31.058094,-25.922165,3.675697,-25.366240
3.731250,-75.585472,-2.426780,22.496819,-25.588985,5.934357,-25.148514
3.737500,-69.667686,-2.430393,14.609051,-25.344309,7.946749,-24.962183
3.743750,-63.746433,-2.433634,6.061093,-25.187721,9.859223,-24.824402
3.750000,-57.825527,-2.436777,-2.545199,-25.107992,12.144423,-24.695601
3.756250,-51.905888,-2.439786,-10.749604,-25.099159,13.619070,-24.556173
3.762500,-45.985435,-2.442515,-18.122328,-25.144924,16.072660,-24.396858
3.768750,-40.064747,-2.445101,-24.215902,-25.211727,17.472225,-24.277006
3.775000,-34.145325,-2.447952,-28.720512,-25.293013,19.524487,-24.197365
3.781250,-28.226831,-2.450782,-31.551668,-25.390528,21.483177,-24.137321
3.787500,-22.306942,-2.453356,-32.367683,-25.479670,23.004667,-24.087427
3.793750,-16.387253,-2.455848,-31.022575,-25.559240,23.808971,-24.048151
3.800000,-10.469245,-2.458716,-29.393936,-25.617025,23.711649,-24.016430
3.806250,-4.552636,-2.461883,-25.371002,-25.576176,22.705175,-23.959293
3.812500,1.364867,-2.465245,-20.121037,-25.483837,20.766939,-23.873644
3.818750,7.282273,-2.468904,-14.329576,-25.357573,17.784618,-23.767822
3.825000,13.199650,-2.472961,-8.563338,-25.210518,13.874971,-23.646803
3.831250,19.119961,-2.476973,-1.193214,-25.055325,9.297315,-23.517996
3.837500,25.043764,-2.480494,5.933003,-24.904966,4.382897,-23.400826
3.843750,30.967985,-2.484041,12.928890,-24.762362,-0.495956,-23.313124
3.850000,36.889919,-2.488020,18.082809,-24.618626,-4.498629,-23.173756
3.856250,42.812160,-2.491986,23.107746,-24.480827,-9.444758,-23.033968
3.862500,48.737667,-2.495358,27.545135,-24.351553,-13.409399,-22.908758
3.868750,54.663368,-2.498533,31.044767,-24.222549,-16.458582,-22.799175
3.875000,60.583683,-2.502563,33.301228,-24.074982,-18.707693,-22.698318
3.881250,66.499870,-2.507812,34.036465,-23.890747,-20.320713,-22.591707
3.887500,72.418709,-2.513325,32.838234,-23.692768,-21.556730,-22.475309
3.893750,78.344292,-2.518360,29.535551,-23.465616,-22.790543,-22.357113
3.900000,84.272484,-2.523449,26.301060,-23.195541,-24.324806,-22.232082
3.906250,90.198036,-2.529486,21.717115,-22.879459,-26.455563,-22.097179
3.912500,96.122604,-2.536554,16.265894,-22.519373,-27.631756,-21.948868
3.918750,100.157974,-2.544133,10.434373,-22.121540,-29.809732,-21.778629
3.925000,103.928177,-2.551608,4.629073,-21.706503,-32.779385,-21.565836
3.931250,106.900780,-2.558751,-0.802779,-21.300098,-36.410282,-21.351559
3.937500,108.581703,-2.565519,-5.481148,-20.924274,-38.671524,-21.167870
3.943750,108.543587,-2.571763,-9.079811,-20.601387,-40.510853,-21.017914
3.950000,106.446266,-2.577126,-11.374717,-20.352636,-41.284134,-20.911976
3.956250,102.052963,-2.580986,-12.254766,-20.196562,-40.473209,-20.863817
3.962500,95.240181,-2.583193,-11.690394,-20.144491,-37.659119,-20.885811
3.968750,86.004318,-2.583994,-9.711411,-20.197073,-32.522987,-20.986568
3.975000,74.463799,-2.583519,-8.308420,-20.333330,-24.882032,-21.175879
3.981250,60.854321,-2.581808,-3.855104,-20.547211,-16.595791,-21.495424
3.987500,45.516006,-2.578957,0.938719,-20.892262,-5.945412,-21.849495
3.993750,28.873669,-2.575233,6.366483,-21.304644,6.327399,-22.296949
4.000000,11.418910,-2.570807,12.020588,-21.774794,19.192019,-22.847685
4.006250,-6.315793,-2.565649,17.482927,-22.290462,31.936314,-23.513628
4.012500,-23.785666,-2.560123,22.464853,-22.828999,43.783367,-24.257786
4.018750,-40.460197,-2.554965,26.725403,-23.361940,53.288502,-24.978460
4.025000,-55.847267,-2.550550,30.017420,-23.868452,62.222370,-25.669174
4.031250,-69.516251,-2.546654,32.344257,-24.342314,67.667717,-26.398212
4.037500,-81.123840,-2.543228,33.829510,-24.766434,71.837387,-27.105675
4.043750,-90.435127,-2.540849,34.404278,-25.126572,73.393112,-27.758587
4.050000,-97.327515,-2.539745,34.006527,-25.418926,72.842751,-28.336451
4.056250,-101.796074,-2.539114,32.642227,-25.640501,70.806259,-28.826056
4.062500,-103.959312,-2.538353,30.481190,-25.769243,66.135132,-29.205584
4.068750,-104.059090,-2.538189,27.668194,-25.812889,61.311237,-29.451111
4.075000,-102.441673,-2.539829,24.327393,-25.787804,56.530224,-29.563694
4.081250,-99.529213,-2.542949,20.756262,-25.706034,52.038868,-29.546583
4.087500,-95.804337,-2.546189,17.337000,-25.575443,48.182838,-29.400364
4.093750,-91.797455,-2.548824,12.597026,-25.402182,43.168625,-29.127762
4.100000,-85.895561,-2.551572,8.578412,-25.196960,38.707878,-28.743198
4.106250,-79.997551,-2.555189,5.180619,-24.965839,34.620903,-28.277571
4.112500,-74.101097,-2.559498,2.360293,-24.706020,30.777292,-27.728111
4.118750,-68.201660,-2.564218,0.033743,-24.422804,27.319874,-27.089224
4.125000,-62.300266,-2.569453,-1.995523,-24.130211,23.846754,-26.406437
4.131250,-56.397129,-2.575250,-3.854420,-23.838936,20.250139,-25.713200
4.137500,-50.489796,-2.581271,-5.613978,-23.554470,16.529253,-25.035456
4.143750,-44.576668,-2.587093,-7.321900,-23.278061,12.719449,-24.392654
4.150000,-38.659985,-2.592815,-9.040679,-23.010294,8.850655,-23.800020
4.156250,-32.742310,-2.598880,-8.673992,-22.750309,4.958990,-23.261545
4.162500,-26.823067,-2.605320,-7.657752,-22.494761,3.241182,-22.751392
4.168750,-20.900537,-2.611913,-7.472934,-22.235060,2.069317,-22.352831
4.175000,-14.974346,-2.618623,-6.186828,-21.977655,0.274317,-22.012136
4.181250,-9.044242,-2.625303,-4.147207,-21.733448,-0.234557,-21.734972
4.187500,-3.109361,-2.631719,-1.648260,-21.509438,0.313607,-21.494520
4.193750,2.830369,-2.637727,0.992149,-21.312500,1.730506,-21.296040
4.200000,8.773751,-2.643240,3.443855,-21.150120,4.591105,-21.205770
4.206250,14.720478,-2.647915,5.389029,-21.029856,5.963381,-21.201384
4.212500,20.670023,-2.651509,8.722089,-20.953199,8.791993,-21.226681
4.218750,26.619150,-2.654329,11.881205,-20.910776,10.612041,-21.274630
4.225000,32.565079,-2.656799,15.171621,-20.895565,11.576654,-21.355268
4.231250,38.507126,-2.659071,16.936964,-20.898369,11.544212,-21.461103
4.237500,44.446606,-2.661140,19.021238,-20.910112,10.330022,-21.573690
4.243750,50.384056,-2.662878,20.966471,-20.947508,9.873893,-21.687737
4.250000,56.319977,-2.664237,22.379871,-21.002483,8.541719,-21.807026
4.256250,62.254066,-2.665131,22.971008,-21.056383,6.759022,-21.917006
4.262500,68.184006,-2.665964,22.361523,-21.093960,4.934693,-22.003742
4.268750,74.107315,-2.667367,20.197969,-21.103622,3.402132,-22.053671
4.275000,80.023491,-2.669840,18.338997,-21.078672,2.449489,-22.057024
4.281250,85.937927,-2.672967,15.151701,-21.009008,2.318941,-22.002071
4.287500,91.853363,-2.676473,10.904348,-20.887171,3.194330,-21.865557
4.293750,95.873611,-2.680963,5.807641,-20.724979,5.084826,-21.669323
4.300000,99.619392,-2.686807,0.080204,-20.531147,7.601750,-21.449677
4.306250,102.563843,-2.693115,-5.927704,-20.307316,10.880055,-21.196873
4.312500,104.220642,-2.698842,-11.932900,-20.061459,14.769732,-20.915863
4.318750,104.160110,-2.703964,-17.689861,-19.804632,19.008486,-20.617405
4.325000,102.033730,-2.709510,-22.997868,-19.554508,23.295927,-20.317671
4.331250,97.604996,-2.715624,-27.693996,-19.330820,27.321215,-20.032600
4.337500,90.758423,-2.721376,-31.639341,-19.158993,30.807442,-19.771395
4.343750,81.497284,-2.726109,-34.751274,-19.069149,33.512814,-19.517048
4.350000,69.939209,-2.729924,-36.077927,-18.976366,35.194817,-19.311359
4.356250,56.318604,-2.732824,-36.160690,-18.978775,37.355194,-19.190346
4.362500,40.976151,-2.734331,-34.889553,-19.085588,38.793385,-19.160915
4.368750,24.337870,-2.734594,-32.207645,-19.293327,39.910805,-19.247742
4.375000,6.890537,-2.734235,-28.200081,-19.592493,41.084743,-19.450983
4.381250,-10.834822,-2.733423,-23.035242,-19.965929,42.139416,-19.689852
4.387500,-28.288387,-2.731558,-16.939106,-20.389894,43.944153,-19.976336
4.393750,-44.937439,-2.728628,-10.228119,-20.843861,44.816250,-20.352764
4.400000,-60.296459,-2.725711,-3.289530,-21.314245,46.548767,-20.809488
4.406250,-73.939407,-2.723141,1.617072,-21.784296,48.583244,-21.313576
4.412500,-85.521217,-2.720285,7.961915,-22.237190,50.607754,-21.841255
4.418750,-94.802505,-2.716989,13.568156,-22.661274,52.394810,-22.373951
4.425000,-101.666634,-2.714021,18.247032,-23.018347,53.809776,-22.878994
4.431250,-106.115685,-2.711946,21.975033,-23.281273,54.853489,-23.313200
4.437500,-108.266609,-2.710371,24.510214,-23.457743,55.372810,-23.665588
4.443750,-108.353645,-2.708964,25.860321,-23.554718,55.299026,-23.927443
4.450000,-106.720459,-2.708476,26.201752,-23.573629,54.728584,-24.088993
4.456250,-103.796173,-2.709546,25.789360,-23.517040,53.820412,-24.144938
4.462500,-100.067650,-2.711685,24.948219,-23.392527,52.751282,-24.096676
4.468750,-96.061554,-2.714184,24.080170,-23.214279,51.732643,-23.955503
4.475000,-90.158028,-2.717305,21.738874,-22.998425,51.022518,-23.741501
4.481250,-84.254745,-2.721253,20.097700,-22.735916,49.199272,-23.415089
4.487500,-78.347946,-2.725612,19.062918,-22.448351,48.132263,-23.015911
4.493750,-72.435722,-2.729787,18.406351,-22.162313,47.350368,-22.580416
4.500000,-66.522797,-2.734695,18.035471,-21.895908,46.621822,-22.135460
4.506250,-60.611847,-2.741088,17.897711,-21.656895,45.751354,-21.701324
4.512500,-54.696594,-2.748069,17.942266,-21.441809,44.552589,-21.292418
4.518750,-48.768925,-2.754272,18.105358,-21.229029,42.827393,-20.921198
4.525000,-42.831173,-2.759309,18.299023,-20.978796,40.345798,-20.611736
4.531250,-36.891933,-2.764286,19.769125,-20.816610,36.783672,-20.399479
4.537500,-30.954807,-2.769758,21.546618,-20.688219,33.431828,-20.221069
4.543750,-25.013771,-2.775191,22.206110,-20.560900,28.694294,-20.103964
4.550000,-19.064825,-2.779711,23.514124,-20.451061,23.065992,-20.036123
4.556250,-13.110078,-2.783296,24.992924,-20.381920,16.831736,-20.016445
4.562500,-7.153467,-2.786242,26.297937,-20.372341,10.927015,-20.122553
4.568750,-1.196104,-2.788687,27.114792,-20.445118,5.266957,-20.343945
4.575000,4.763382,-2.790447,27.154110,-20.637840,0.073511,-20.630379
4.581250,10.725990,-2.791094,26.168539,-20.950632,-4.732463,-20.958862
4.587500,16.689680,-2.790508,25.090858,-21.322544,-8.427569,-21.353952
4.593750,22.652021,-2.788917,23.275471,-21.797947,-10.876678,-21.812975
4.600000,28.610371,-2.786574,20.750471,-22.381941,-12.094284,-22.319220
4.606250,34.564247,-2.783369,17.536049,-23.110304,-12.235062,-22.865719
4.612500,40.513603,-2.779305,13.746582,-23.915295,-11.619177,-23.451418
4.618750,46.454372,-2.775122,9.780527,-24.784691,-10.436866,-24.052879
4.625000,52.383949,-2.771587,5.513481,-25.703560,-8.975272,-24.652864
4.631250,58.307064,-2.768300,1.159532,-26.641529,-7.582783,-25.237953
4.637500,64.228355,-2.764259,-3.044730,-27.559313,-6.635589,-25.794989
4.643750,70.146042,-2.759703,-8.757138,-28.408834,-6.511510,-26.294205
4.650000,76.051743,-2.756046,-14.146785,-29.136461,-7.584459,-26.693895
4.656250,81.942711,-2.754358,-17.441456,-29.696011,-10.163790,-26.963783
4.662500,87.826126,-2.754363,-20.525251,-30.078510,-12.596096,-27.148170
4.668750,93.708389,-2.755543,-23.345367,-30.262510,-16.552864,-27.227194
4.675000,97.695625,-2.758051,-25.748123,-30.232428,-21.613939,-27.188278
4.681250,101.410072,-2.761929,-27.702839,-29.986706,-27.522141,-27.028849
4.687500,104.321938,-2.766638,-29.249075,-29.544003,-34.019047,-26.757210
4.693750,105.939117,-2.772339,-30.475714,-28.939890,-40.822147,-26.386015
4.700000,105.832115,-2.779690,-31.500998,-28.219587,-47.586742,-25.921953
4.706250,103.661385,-2.788893,-32.632755,-27.380262,-53.944729,-25.362495
4.712500,99.198822,-2.798539,-34.184216,-26.459728,-59.510445,-24.710260
4.718750,92.328690,-2.807189,-36.221619,-25.515007,-65.673897,-24.067787
