Anritsu VNA Frequency[GHz],S21[deg],S21[dB],S11[deg],S11[dB],S22[deg],S22[dB]
1338053681.73,2012_05_26_18:34:41,+62.478,+180.95,+165.77,+181.31,+186.95,+189.13,+183.32,+184.96,168.149277,-5.625
3.006250,46.793064,-2.492661,71.094177,-27.654827,-75.636757,-28.568058
3.012500,46.793064,-2.492661,71.094177,-27.654827,-75.636757,-28.568058
3.018750,46.793064,-2.492661,71.094177,-27.654827,-75.636757,-28.568058
3.025000,46.793064,-2.492661,71.094177,-27.654827,-75.636757,-28.568058
3.031250,46.793064,-2.492661,71.094177,-27.654827,-75.636757,-28.568058
3.037500,46.793064,-2.492661,71.094177,-27.654827,-75.636757,-28.568058
3.043750,46.793064,-2.492661,71.094177,-27.654827,-75.636757,-28.568058
3.050000,46.793064,-2.492661,71.094177,-27.654827,-75.636757,-28.568058
3.056250,46.793064,-2.492661,71.094177,-27.654827,-75.636757,-28.568058
3.062500,46.793064,-2.492661,71.094177,-27.654827,-75.636757,-28.568058
3.068750,46.793064,-2.492661,71.094177,-27.654827,-75.636757,-28.568058
3.075000,46.793064,-2.492661,71.094177,-27.654827,-75.636757,-28.568058
3.081250,46.793064,-2.492661,71.094177,-27.654827,-75.636757,-28.568058
3.087500,46.793064,-2.492661,71.094177,-27.654827,-75.636757,-28.568058
3.093750,46.793064,-2.495104,71.094177,-27.457579,-75.636757,-28.406887
3.100000,52.728321,-2.497951,67.217926,-27.278595,-76.026581,-28.220915
3.106250,58.663273,-2.500976,62.433285,-27.141504,-75.604134,-28.011326
3.112500,64.599251,-2.504061,55.390335,-27.063177,-74.097549,-27.766340
3.118750,70.535240,-2.507258,48.229599,-27.068342,-71.284676,-27.457474
3.125000,76.470581,-2.510606,41.352718,-27.051916,-67.100677,-27.114353
3.131250,82.405449,-2.514087,34.855625,-27.055197,-61.640537,-26.741423
3.137500,88.339294,-2.517816,28.691198,-27.090555,-54.595539,-26.326090
3.143750,94.271568,-2.522074,23.141508,-27.157135,-45.992302,-25.876993
3.150000,98.309662,-2.526664,18.491753,-27.244247,-37.838905,-25.409563
3.156250,102.077278,-2.531111,14.984859,-27.339176,-28.652979,-24.945007
3.162500,105.041214,-2.535264,12.809599,-27.427233,-19.147636,-24.507095
3.168750,106.708115,-2.539411,12.105763,-27.492941,-10.003522,-24.126551
3.175000,106.649269,-2.543726,12.982351,-27.517931,-1.844520,-23.841892
3.181250,104.524887,-2.548146,13.719232,-27.485699,5.124835,-23.569054
3.187500,100.100121,-2.552420,16.082972,-27.405977,10.405704,-23.346785
3.193750,93.252769,-2.556500,19.373350,-27.283352,13.585170,-23.200396
3.200000,83.982880,-2.560319,22.973122,-27.122269,14.703297,-23.142651
3.206250,72.411591,-2.563799,26.390997,-26.929899,13.802423,-23.168917
3.212500,58.775127,-2.566981,29.185610,-26.717466,11.031625,-23.281336
3.218750,43.412800,-2.570266,30.985113,-26.498127,6.682951,-23.501793
3.225000,26.751684,-2.573514,33.689911,-26.276089,0.989301,-23.739077
3.231250,9.286580,-2.576365,35.767246,-26.050383,-6.018059,-23.995203
3.237500,-8.450499,-2.578813,35.657028,-25.825396,-13.538726,-24.275522
3.243750,-25.916729,-2.581331,35.331596,-25.596003,-19.441109,-24.563627
3.250000,-42.580860,-2.584394,34.617477,-25.358059,-25.170891,-24.836473
3.256250,-57.947746,-2.587715,33.137981,-25.155493,-30.111105,-25.080004
3.262500,-71.586906,-2.590810,30.737226,-24.981358,-33.728703,-25.283617
3.268750,-83.158401,-2.593466,27.402943,-24.828747,-35.530685,-25.435102
3.275000,-92.428101,-2.596058,22.971668,-24.696508,-35.146503,-25.527035
3.281250,-99.276489,-2.599072,17.278334,-24.578096,-32.354851,-25.556973
3.287500,-103.702492,-2.602529,10.193978,-24.463461,-27.112986,-25.529552
3.293750,-105.824554,-2.606168,3.805297,-24.334850,-19.556681,-25.446161
3.300000,-105.878769,-2.609710,-3.272865,-24.148186,-9.942412,-25.307730
3.306250,-104.205574,-2.613029,-10.948363,-24.006186,1.344649,-25.128891
3.312500,-101.232910,-2.616138,-18.825930,-23.877840,13.778916,-24.934546
3.318750,-97.453926,-2.619230,-26.305967,-23.758057,26.741699,-24.749342
3.325000,-93.401337,-2.622187,-33.125504,-23.655899,39.591743,-24.590780
3.331250,-87.452614,-2.624904,-39.064369,-23.585415,53.864677,-24.469471
3.337500,-81.502228,-2.627181,-43.957664,-23.571718,67.576775,-24.392239
3.343750,-75.550972,-2.629078,-47.704834,-23.668274,80.654015,-24.360037
3.350000,-69.599953,-2.630610,-50.270294,-23.791702,91.168282,-24.355301
3.356250,-63.649387,-2.631774,-52.559189,-23.970007,100.728699,-24.341978
3.362500,-57.699802,-2.632771,-51.892799,-24.251347,108.415207,-24.410263
3.368750,-51.751942,-2.633482,-50.106773,-24.644243,113.760765,-24.536957
3.375000,-45.804466,-2.633685,-47.129108,-25.134630,116.545845,-24.729010
3.381250,-39.858418,-2.633411,-43.013611,-25.698265,116.501328,-24.994534
3.387500,-33.916550,-2.633189,-37.915501,-26.304499,113.838707,-25.261612
3.393750,-27.980766,-2.633536,-32.054790,-26.917183,108.492584,-25.542059
3.400000,-22.048761,-2.634284,-25.695972,-27.495079,100.622467,-25.792553
3.406250,-16.116768,-2.634960,-19.174955,-28.009058,90.932838,-26.078833
3.412500,-10.185149,-2.635620,-12.869604,-28.437021,80.583748,-26.376450
3.418750,-4.257366,-2.636882,-6.791132,-28.754065,70.047028,-26.651024
3.425000,1.666627,-2.639063,-0.945581,-28.946089,58.114075,-26.887585
3.431250,7.591292,-2.641551,4.379516,-29.010147,47.129829,-27.080315
3.437500,13.519282,-2.643903,8.958237,-28.950262,37.557026,-27.233620
3.443750,19.447536,-2.646578,12.726583,-28.743376,29.902918,-27.311602
3.450000,25.373602,-2.650219,15.578506,-28.410973,22.749308,-27.308680
3.456250,31.300917,-2.654338,17.369326,-27.985470,17.789883,-27.237705
3.462500,37.235130,-2.658009,18.208782,-27.501747,14.669595,-27.102720
3.468750,43.175228,-2.661021,18.337431,-26.996778,13.050217,-26.902502
3.475000,49.116440,-2.663746,18.064087,-26.511385,12.579138,-26.644407
3.481250,55.056076,-2.666523,17.735176,-26.083601,12.858593,-26.342680
3.487500,60.994350,-2.669496,16.090322,-25.676443,13.485466,-25.998951
3.493750,66.931999,-2.672765,15.114209,-25.331646,14.056747,-25.614246
3.500000,72.869354,-2.676384,14.504356,-25.072536,14.146937,-25.199690
3.506250,78.808823,-2.680034,14.216370,-24.900854,13.393290,-24.767677
3.512500,84.751915,-2.683029,14.217109,-24.804989,11.516800,-24.330074
3.518750,90.696327,-2.685679,14.478705,-24.751673,8.313940,-23.895407
3.525000,94.741501,-2.688908,14.972183,-24.664257,3.649453,-23.470554
3.531250,98.508850,-2.693225,15.650983,-24.607811,-0.413256,-23.067165
3.537500,101.471222,-2.698121,17.421480,-24.553734,-5.299627,-22.700697
3.543750,103.140984,-2.702738,19.620636,-24.470654,-10.536532,-22.391922
3.550000,103.090103,-2.707290,22.414381,-24.347519,-15.750944,-22.118967
3.556250,100.973633,-2.712335,24.133146,-24.165432,-20.736012,-21.851542
3.562500,96.555992,-2.717823,26.519798,-23.937061,-25.008802,-21.593275
3.568750,89.720543,-2.722828,29.036366,-23.688059,-28.779175,-21.427525
3.575000,80.470337,-2.726738,31.250063,-23.444084,-32.005333,-21.346621
3.581250,68.923134,-2.729494,32.772568,-23.236473,-34.719234,-21.370808
3.587500,55.310940,-2.731649,33.250469,-23.098862,-35.381565,-21.476929
3.593750,39.972412,-2.733392,32.440029,-23.053045,-36.407150,-21.637897
3.600000,23.337852,-2.734371,32.429256,-23.091810,-37.247852,-21.884367
3.606250,5.900900,-2.734056,31.697128,-23.228638,-37.849602,-22.216457
3.612500,-11.808805,-2.732722,30.574652,-23.468805,-38.281101,-22.614901
3.618750,-29.249638,-2.730821,29.480072,-23.805370,-38.678406,-23.046278
3.625000,-45.888786,-2.728429,28.696173,-24.261438,-39.335934,-23.523172
3.631250,-61.232544,-2.725223,28.555075,-24.815855,-38.466831,-24.032782
3.637500,-74.855354,-2.721498,29.465902,-25.432758,-37.465168,-24.541695
3.643750,-86.420647,-2.717944,29.730967,-26.074688,-36.042702,-25.025501
3.650000,-95.692139,-2.715011,31.030287,-26.700455,-34.038853,-25.463511
3.656250,-102.545990,-2.712672,32.783695,-27.258509,-31.357849,-25.836655
3.662500,-106.980087,-2.711003,34.330521,-27.697119,-27.965666,-26.131151
3.668750,-109.115517,-2.710113,36.873394,-28.048010,-23.908953,-26.345985
3.675000,-109.188698,-2.710048,38.377151,-28.274794,-19.313234,-26.485294
3.681250,-107.537582,-2.710495,38.878651,-28.358786,-14.326931,-26.549494
3.687500,-104.589127,-2.711356,38.253750,-28.299692,-9.140959,-26.541014
3.693750,-100.838181,-2.713284,36.426460,-28.114990,-3.999092,-26.468136
3.700000,-96.817215,-2.716502,33.392891,-27.841902,0.841560,-26.344645
3.706250,-90.898926,-2.720299,29.314333,-27.482731,5.165849,-26.182550
3.712500,-84.974846,-2.723933,24.568914,-27.054567,8.857344,-25.979431
3.718750,-79.047729,-2.727641,17.280539,-26.607828,11.829662,-25.737972
3.725000,-73.121483,-2.731966,9.338136,-26.176617,14.001815,-25.459019
3.731250,-67.194016,-2.736593,0.582972,-25.786894,15.532585,-25.179165
3.737500,-61.261433,-2.740841,-7.013522,-25.481035,16.867363,-24.935907
3.743750,-55.324348,-2.744573,-14.888656,-25.272240,18.123743,-24.740189
3.750000,-49.385933,-2.748124,-22.456696,-25.153116,19.683018,-24.587265
3.756250,-43.448341,-2.751478,-29.255474,-25.116106,20.354361,-24.429842
3.762500,-37.509819,-2.754520,-34.924023,-25.147631,22.086481,-24.264021
3.768750,-31.570990,-2.757326,-39.105007,-25.219097,22.644814,-24.120056
3.775000,-25.633018,-2.760266,-41.546303,-25.307619,23.929941,-24.034920
3.781250,-19.695990,-2.763212,-42.209354,-25.416920,25.147713,-23.981255
3.787500,-13.758039,-2.765788,-40.985676,-25.526327,25.941858,-23.945824
3.793750,-7.820144,-2.768176,-39.663460,-25.622095,26.061985,-23.925623
3.800000,-1.884147,-2.770846,-36.678356,-25.715454,25.334061,-23.919149
3.806250,4.049538,-2.773824,-32.493114,-25.714453,23.732758,-23.901287
3.812500,9.983231,-2.776975,-27.692137,-25.647736,21.318279,-23.854485
3.818750,15.916949,-2.780393,-23.261082,-25.537439,18.005405,-23.785517
3.825000,21.849600,-2.784229,-17.565809,-25.397293,13.875346,-23.697607
3.831250,27.783974,-2.788164,-12.406668,-25.239975,9.174880,-23.595205
3.837500,33.721436,-2.791784,-7.633503,-25.078381,4.232183,-23.489363
3.843750,39.659958,-2.795264,-3.041265,-24.922421,-0.583478,-23.406368
3.850000,45.596661,-2.799168,1.650949,-24.766851,-4.756016,-23.289400
3.856250,51.533062,-2.803243,4.806962,-24.614290,-9.584528,-23.151581
3.862500,57.472198,-2.806808,8.215789,-24.471554,-13.413191,-23.016809
3.868750,63.412174,-2.810171,11.558399,-24.336767,-16.370272,-22.891619
3.875000,69.348099,-2.814279,14.544263,-24.196850,-18.581915,-22.774193
3.881250,75.279800,-2.819615,16.900358,-24.021488,-20.209980,-22.654572
3.887500,81.213287,-2.825362,18.269329,-23.823244,-21.480495,-22.524141
3.893750,87.153351,-2.830695,18.126701,-23.611160,-22.727757,-22.389616
3.900000,93.096931,-2.835938,18.586588,-23.363405,-24.292107,-22.251879
3.906250,97.143860,-2.842000,18.110907,-23.071898,-26.450298,-22.108669
3.912500,100.915413,-2.849160,16.988483,-22.736523,-29.510939,-21.956251
3.918750,103.885223,-2.856993,15.507264,-22.360399,-33.785332,-21.788626
3.925000,105.564720,-2.864815,13.887674,-21.958115,-37.681255,-21.592422
3.931250,105.527000,-2.872309,12.292520,-21.552429,-43.121140,-21.370068
3.937500,103.430359,-2.879485,10.886267,-21.165545,-47.916069,-21.177418
3.943750,99.036118,-2.886254,9.842144,-20.819201,-53.028744,-21.016058
3.950000,92.223518,-2.892297,9.271781,-20.534336,-57.545311,-20.892902
3.956250,82.993683,-2.896987,9.217401,-20.329493,-60.733128,-20.819937
3.962500,71.466812,-2.900029,9.668368,-20.218548,-61.961121,-20.809166
3.968750,57.876537,-2.901667,10.596502,-20.205816,-62.594128,-20.870167
3.975000,42.559994,-2.902040,12.225551,-20.281883,-60.626518,-21.012194
3.981250,25.942915,-2.901244,14.746374,-20.411469,-56.361458,-21.262600
3.987500,8.517158,-2.899300,17.797800,-20.670732,-50.198212,-21.564592
3.993750,-9.186343,-2.896379,21.112482,-21.012211,-42.357334,-21.943592
4.000000,-26.622824,-2.892723,24.779737,-21.414328,-33.831539,-22.415327
4.006250,-43.259392,-2.888336,28.450012,-21.869114,-25.116455,-22.984594
4.012500,-58.605236,-2.883351,31.887777,-22.359278,-16.762676,-23.681997
4.018750,-72.235374,-2.878481,34.913826,-22.861380,-9.473901,-24.370182
4.025000,-83.810234,-2.874213,37.357265,-23.351984,-4.288872,-25.032089
4.031250,-93.090263,-2.870449,37.116856,-23.822268,0.502242,-25.721621
4.037500,-99.951065,-2.867089,37.815971,-24.261177,4.497706,-26.420080
4.043750,-104.393631,-2.864589,37.524727,-24.652456,6.589801,-27.090437
4.050000,-106.539207,-2.863210,36.236389,-24.988800,7.306224,-27.708561
4.056250,-106.620941,-2.862374,33.990204,-25.267426,7.207013,-28.256840
4.062500,-104.976151,-2.861477,30.954720,-25.469353,5.025213,-28.717373
4.068750,-102.035500,-2.860938,27.377689,-25.588221,3.088200,-29.062080
4.075000,-98.296585,-2.862057,23.405504,-25.637863,1.507602,-29.281084
4.081250,-94.289131,-2.864785,19.321718,-25.629080,0.339848,-29.373491
4.087500,-88.382607,-2.867938,15.517870,-25.568008,-0.276133,-29.336891
4.093750,-82.467041,-2.870518,10.527526,-25.458811,-0.151935,-29.170435
4.100000,-76.549492,-2.873033,6.391481,-25.308249,0.895655,-28.881849
4.106250,-70.636185,-2.876440,2.991447,-25.122890,0.861728,-28.491547
4.112500,-64.725502,-2.880805,0.248398,-24.904154,1.268552,-28.024668
4.118750,-58.812649,-2.885673,-1.915777,-24.651339,1.940309,-27.449600
4.125000,-52.896610,-2.891052,-3.671639,-24.374781,2.495520,-26.805962
4.131250,-46.978432,-2.896968,-5.194372,-24.086016,2.462915,-26.131365
4.137500,-41.056820,-2.903240,-6.601759,-23.793617,1.632842,-25.454735
4.143750,-35.129524,-2.909448,-7.969699,-23.501080,-0.116737,-24.798195
4.150000,-29.198088,-2.915591,-9.376536,-23.211124,-0.692932,-24.179016
4.156250,-23.264759,-2.922003,-8.742105,-22.925501,-1.479224,-23.605581
4.162500,-17.330061,-2.928743,-7.515331,-22.644411,-1.963955,-23.060457
4.168750,-11.392085,-2.935664,-7.187847,-22.367188,-1.753500,-22.630894
4.175000,-5.450632,-2.942742,-5.780035,-22.087736,-2.495779,-22.257561
4.181250,0.494878,-2.949772,-3.614647,-21.819784,-1.952313,-21.955008
4.187500,6.445123,-2.956503,-1.039554,-21.573332,-0.544422,-21.716772
4.193750,12.400113,-2.962839,1.629259,-21.356581,1.463471,-21.484396
4.200000,18.358961,-2.968646,4.071840,-21.177364,3.971753,-21.363939
4.206250,24.321028,-2.973704,5.974955,-21.043198,7.293473,-21.341467
4.212500,30.285902,-2.977714,9.231777,-20.958975,8.515480,-21.392939
4.218750,36.250973,-2.980801,12.273510,-20.918335,10.369903,-21.453445
4.225000,42.213459,-2.983440,15.440225,-20.911945,10.880774,-21.547861
4.231250,48.171825,-2.985868,17.095737,-20.930637,10.032776,-21.675707
4.237500,54.127396,-2.988085,19.092615,-20.962296,7.696423,-21.822721
4.243750,60.080730,-2.989846,21.023115,-21.015785,5.902712,-21.975695
4.250000,66.032776,-2.991261,22.436758,-21.092949,3.126340,-22.136044
4.256250,71.982887,-2.992185,23.052622,-21.175049,-0.190516,-22.293356
4.262500,77.929062,-2.992909,22.527224,-21.245506,-3.541740,-22.432371
4.268750,83.869148,-2.994013,20.508900,-21.291162,-6.488110,-22.537849
4.275000,89.801590,-2.996095,18.865070,-21.304081,-8.659550,-22.597597
4.281250,95.730766,-2.998956,15.968162,-21.276054,-9.745372,-22.600153
4.287500,99.766022,-3.002241,12.098893,-21.197069,-9.499438,-22.527260
4.293750,103.527901,-3.006323,7.496663,-21.068954,-7.818933,-22.364508
4.300000,106.481621,-3.011814,2.363022,-20.902939,-4.961875,-22.166538
4.306250,108.139900,-3.018118,-3.016448,-20.701818,-1.045347,-21.927036
4.312500,108.082451,-3.024160,-8.357912,-20.471308,3.880344,-21.646135
4.318750,105.967697,-3.029655,-13.430331,-20.219877,9.522062,-21.332314
4.325000,101.551247,-3.035456,-18.052197,-19.962074,15.514997,-21.000629
4.331250,94.709824,-3.042105,-22.090649,-19.715687,21.460825,-20.668015
4.337500,85.449348,-3.048754,-25.435221,-19.500481,26.977095,-20.348576
4.343750,73.895874,-3.054565,-28.028282,-19.362221,31.703945,-20.044859
4.350000,60.284027,-3.059463,-27.656679,-19.230110,35.322979,-19.751160
4.356250,44.951183,-3.063623,-27.124302,-19.157946,39.392056,-19.540215
4.362500,28.324032,-3.066586,-25.054907,-19.180601,42.374687,-19.414787
4.368750,10.894671,-3.068211,-21.385403,-19.300959,44.694412,-19.394379
4.375000,-6.808860,-3.069041,-16.228409,-19.515463,46.691284,-19.547043
4.381250,-24.242743,-3.069244,-9.801762,-19.812695,48.546253,-19.730949
4.387500,-40.872169,-3.068461,-2.391955,-20.173395,50.219524,-19.979174
4.393750,-56.203598,-3.066423,5.639596,-20.577387,52.632797,-20.299395
4.400000,-69.815788,-3.064021,13.855944,-21.010126,54.257725,-20.737810
4.406250,-81.370506,-3.061755,19.915939,-21.458014,56.418110,-21.249756
4.412500,-90.627899,-3.059196,27.222775,-21.904209,58.705059,-21.805220
4.418750,-97.463127,-3.056007,33.549778,-22.333277,60.864464,-22.380018
4.425000,-101.879700,-3.052836,38.639626,-22.723330,62.712669,-22.947479
4.431250,-104.002914,-3.050328,42.418816,-23.032141,64.184784,-23.461023
4.437500,-104.067322,-3.048328,44.745770,-23.257936,65.200111,-23.895126
4.443750,-102.409630,-3.046506,45.559223,-23.406172,65.616692,-24.237707
4.450000,-99.459068,-3.045416,45.030853,-23.477327,65.465759,-24.475563
4.456250,-95.710648,-3.045928,43.446697,-23.470934,64.875229,-24.599031
4.462500,-91.692924,-3.047757,41.175690,-23.390511,63.999336,-24.604605
4.468750,-85.777321,-3.050039,38.675388,-23.244570,63.030807,-24.496220
4.475000,-79.858467,-3.052812,34.556992,-23.050697,62.200336,-24.293480
4.481250,-73.939781,-3.056421,30.999914,-22.812836,61.827110,-23.986685
4.487500,-68.019768,-3.060731,28.087563,-22.533720,60.512566,-23.575626
4.493750,-62.095871,-3.065103,25.697229,-22.240261,59.901981,-23.104086
4.500000,-56.169552,-3.070030,23.753658,-21.955166,59.672161,-22.606529
4.506250,-50.244503,-3.076426,22.253801,-21.692289,59.586430,-22.109747
4.512500,-44.315926,-3.083582,21.205948,-21.455444,59.418869,-21.634739
4.518750,-38.376225,-3.090226,20.597561,-21.235723,58.932724,-21.198475
4.525000,-32.424774,-3.095642,20.386475,-20.984539,57.872555,-20.819433
4.531250,-26.469343,-3.100688,20.430597,-20.783512,55.926884,-20.542660
4.537500,-20.515909,-3.106107,22.036407,-20.641296,52.622219,-20.332933
4.543750,-14.560343,-3.111657,22.445223,-20.521225,49.298813,-20.191076
4.550000,-8.597541,-3.116459,23.610935,-20.415092,44.523472,-20.125090
4.556250,-2.627925,-3.120198,25.025736,-20.345934,38.573151,-20.067348
4.562500,3.344477,-3.123288,26.289108,-20.334234,31.906136,-20.159094
4.568750,9.317811,-3.125791,27.083052,-20.401436,25.349628,-20.371178
4.575000,15.292622,-3.127665,27.113325,-20.577820,18.763618,-20.709690
4.581250,21.270796,-3.128454,26.144068,-20.945240,11.985671,-21.063038
4.587500,27.250237,-3.128001,26.819349,-21.329803,5.896771,-21.486284
4.593750,33.229134,-3.126417,25.320387,-21.827654,0.830185,-21.983316
4.600000,39.204296,-3.124043,23.659758,-22.447170,-3.093964,-22.540871
4.606250,45.174393,-3.120904,21.860952,-23.190720,-5.872168,-23.142435
4.612500,51.139633,-3.117691,19.882011,-24.050865,-7.646786,-23.785480
4.618750,57.123302,-3.113579,17.970009,-24.978069,-8.562773,-24.448858
4.625000,63.070648,-3.110005,16.080223,-25.952015,-8.757664,-25.111677
4.631250,69.010796,-3.106773,14.224059,-26.942177,-8.479228,-25.757298
4.637500,74.948517,-3.102982,12.480470,-27.910019,-8.029175,-26.374619
4.643750,80.883705,-3.098504,9.055359,-28.809399,-7.735217,-26.940489
4.650000,86.808693,-3.094591,5.663607,-29.589626,-7.985257,-27.412029
4.656250,92.718407,-3.092647,3.999393,-30.199875,-9.120461,-27.753887
4.662500,98.618233,-3.092600,2.185071,-30.612644,-11.493402,-27.976217
4.668750,102.621185,-3.093780,0.139359,-30.819439,-13.550393,-28.094721
4.675000,106.351639,-3.096202,-2.048579,-30.804144,-16.813536,-28.091583
4.681250,109.275833,-3.100038,-4.307504,-30.561787,-21.046667,-27.959452
4.687500,110.903824,-3.104870,-6.633945,-30.107124,-26.058563,-27.703022
4.693750,110.809906,-3.110656,-9.063427,-29.473131,-31.645031,-27.334108
4.700000,108.651634,-3.117924,-11.630638,-28.709459,-37.541676,-26.863483
4.706250,104.191498,-3.127131,-14.450972,-27.841484,-43.437958,-26.297016
4.712500,97.315567,-3.137168,-17.898129,-26.880383,-49.005531,-25.621984
4.718750,88.031052,-3.146479,-21.861420,-25.883375,-53.763214,-24.920061
