Anritsu VNA Frequency[GHz],S21[deg],S21[dB],S11[deg],S11[dB],S22[deg],S22[dB]
1338068102.96,2012_05_26_22:35:02,+42.985,+69.628,+65.511,+69.898,+75.174,+76.593,+74.451,+75.193,74.016586,-12.485
3.006250,37.566551,-2.042270,62.686611,-26.909969,-84.215736,-27.905378
3.012500,37.566551,-2.042270,62.686611,-26.909969,-84.215736,-27.905378
3.018750,37.566551,-2.042270,62.686611,-26.909969,-84.215736,-27.905378
3.025000,37.566551,-2.042270,62.686611,-26.909969,-84.215736,-27.905378
3.031250,37.566551,-2.042270,62.686611,-26.909969,-84.215736,-27.905378
3.037500,37.566551,-2.042270,62.686611,-26.909969,-84.215736,-27.905378
3.043750,37.566551,-2.042270,62.686611,-26.909969,-84.215736,-27.905378
3.050000,37.566551,-2.042270,62.686611,-26.909969,-84.215736,-27.905378
3.056250,37.566551,-2.042270,62.686611,-26.909969,-84.215736,-27.905378
3.062500,37.566551,-2.042270,62.686611,-26.909969,-84.215736,-27.905378
3.068750,37.566551,-2.042270,62.686611,-26.909969,-84.215736,-27.905378
3.075000,37.566551,-2.042270,62.686611,-26.909969,-84.215736,-27.905378
3.081250,37.566551,-2.042270,62.686611,-26.909969,-84.215736,-27.905378
3.087500,37.566551,-2.042270,62.686611,-26.909969,-84.215736,-27.905378
3.093750,37.566551,-2.044317,62.686611,-26.710390,-84.215736,-27.627834
3.100000,43.482769,-2.046706,59.647343,-26.550095,-84.110207,-27.367407
3.106250,49.399178,-2.049189,55.741402,-26.457264,-83.136887,-27.127510
3.112500,55.316128,-2.051745,51.388702,-26.448685,-81.024422,-26.885897
3.118750,61.232265,-2.054473,45.231873,-26.491528,-77.523712,-26.534737
3.125000,67.147415,-2.057391,40.153915,-26.524837,-72.653137,-26.244345
3.131250,73.061897,-2.060397,35.603210,-26.583332,-66.670792,-25.931036
3.137500,78.975082,-2.063758,31.770708,-26.670769,-59.018639,-25.581102
3.143750,84.886597,-2.067648,28.853094,-26.780544,-49.835491,-25.202166
3.150000,90.798569,-2.071798,27.030762,-26.899221,-39.263512,-24.807772
3.156250,96.713333,-2.075752,26.420279,-27.012386,-27.464758,-24.416553
3.162500,100.735344,-2.079398,27.076576,-27.105753,-16.524504,-24.052176
3.168750,104.484245,-2.083075,29.019123,-27.168430,-5.026240,-23.755388
3.175000,107.426750,-2.086963,32.265938,-27.182516,6.331536,-23.503086
3.181250,109.071922,-2.090880,35.032387,-27.132917,17.439331,-23.268629
3.187500,108.994385,-2.094621,38.851917,-27.034140,27.147501,-23.087999
3.193750,106.853622,-2.098113,42.993130,-26.896618,35.082932,-22.977840
3.200000,102.411583,-2.101262,46.861828,-26.727407,41.027695,-22.944437
3.206250,95.546906,-2.104045,49.964977,-26.536133,44.808418,-22.987038
3.212500,86.258377,-2.106657,51.882416,-26.336451,46.347137,-23.112295
3.218750,74.665840,-2.109419,52.295151,-26.140110,45.687141,-23.320028
3.225000,61.007195,-2.112135,53.193356,-25.944437,42.674461,-23.532944
3.231250,45.625782,-2.114340,53.130432,-25.749249,37.629402,-23.766045
3.237500,28.947271,-2.116268,50.626133,-25.556532,32.819492,-24.014975
3.243750,11.459540,-2.118468,47.788639,-25.349432,26.803207,-24.259233
3.250000,-6.304749,-2.121257,44.523220,-25.152351,20.283318,-24.478683
3.256250,-23.795725,-2.124273,40.475681,-24.992313,13.876372,-24.666714
3.262500,-40.478050,-2.126970,35.847900,-24.852865,8.192365,-24.813177
3.268750,-55.861355,-2.129303,30.618176,-24.729311,3.841240,-24.907789
3.275000,-69.521225,-2.131695,24.679794,-24.620611,1.300334,-24.948023
3.281250,-81.118156,-2.134499,17.933453,-24.518705,0.917689,-24.937489
3.287500,-90.413605,-2.137664,10.289193,-24.411360,2.877617,-24.885946
3.293750,-97.283371,-2.140948,1.703359,-24.267841,7.203322,-24.795164
3.300000,-101.726921,-2.144068,-5.683190,-24.099741,13.800149,-24.665453
3.306250,-103.865448,-2.146924,-14.103541,-23.971962,22.415640,-24.519154
3.312500,-103.936890,-2.149557,-22.536188,-23.857206,32.638988,-24.384951
3.318750,-102.282486,-2.152065,-30.634239,-23.759367,43.970375,-24.284910
3.325000,-99.329826,-2.154365,-38.140060,-23.692877,55.870777,-24.232084
3.331250,-95.570297,-2.156363,-44.800491,-23.679314,67.758728,-24.231915
3.337500,-91.536758,-2.157929,-50.439617,-23.765921,79.022690,-24.285589
3.343750,-85.608063,-2.159119,-54.940975,-23.915230,91.245331,-24.383478
3.350000,-79.679848,-2.159939,-59.019180,-24.102646,100.674950,-24.484850
3.356250,-73.752312,-2.160436,-62.061745,-24.379042,108.946602,-24.611698
3.362500,-67.826523,-2.160786,-62.357006,-24.772446,114.910728,-24.800863
3.368750,-61.902977,-2.160853,-61.615597,-25.271606,118.650993,-25.035706
3.375000,-55.979855,-2.160346,-59.729836,-25.853519,119.816338,-25.338665
3.381250,-50.058510,-2.159437,-56.722694,-26.487137,118.250748,-25.651560
3.387500,-44.143082,-2.158809,-52.700089,-27.137405,114.478653,-25.951204
3.393750,-38.234108,-2.158874,-47.833279,-27.762659,108.095985,-26.239338
3.400000,-32.327671,-2.159377,-42.343288,-28.321463,99.583862,-26.491495
3.406250,-26.420544,-2.159685,-36.550014,-28.790649,89.944252,-26.761475
3.412500,-20.513903,-2.160093,-30.790699,-29.147388,79.908264,-27.011364
3.418750,-14.611608,-2.161301,-25.025055,-29.369225,68.046959,-27.216888
3.425000,-8.712556,-2.163464,-19.258577,-29.448986,56.647282,-27.370367
3.431250,-2.811333,-2.165840,-13.777896,-29.395609,46.138340,-27.474606
3.437500,3.094080,-2.168072,-8.797686,-29.203384,36.972622,-27.536226
3.443750,8.999336,-2.170840,-4.308416,-28.859837,29.763411,-27.505543
3.450000,14.902990,-2.174590,-0.625823,-28.404596,22.893339,-27.404001
3.456250,20.809990,-2.178632,2.158302,-27.874300,18.096159,-27.245255
3.462500,26.725096,-2.182118,4.148489,-27.309155,15.059516,-27.032318
3.468750,32.645878,-2.184930,5.558492,-26.751745,13.463330,-26.763365
3.475000,38.566936,-2.187491,6.634559,-26.254992,12.958820,-26.450195
3.481250,44.487148,-2.189990,7.712493,-25.809752,13.155819,-26.108839
3.487500,50.406811,-2.192564,7.642157,-25.413002,13.676428,-25.734167
3.493750,56.325214,-2.195504,7.979270,-25.106262,14.103879,-25.331007
3.500000,62.242912,-2.198799,8.570462,-24.899654,14.009783,-24.911171
3.506250,68.163383,-2.201942,9.348555,-24.783993,13.059559,-24.484430
3.512500,74.087639,-2.204295,10.229542,-24.731939,10.987285,-24.059891
3.518750,80.012329,-2.206385,11.166425,-24.676596,7.598011,-23.642952
3.525000,85.931564,-2.209247,12.118712,-24.632484,2.748206,-23.239584
3.531250,91.846359,-2.213171,13.917020,-24.611160,-1.520350,-22.863016
3.537500,95.868065,-2.217434,15.933536,-24.565203,-6.651204,-22.530006
3.543750,99.622200,-2.221347,18.327688,-24.481197,-12.194746,-22.245829
3.550000,102.574005,-2.225365,21.293232,-24.340046,-17.874563,-21.970833
3.556250,104.226532,-2.230021,23.177906,-24.133286,-23.273994,-21.679848
3.562500,104.156517,-2.235061,25.604012,-23.887308,-28.051863,-21.437532
3.568750,102.029343,-2.239384,28.087996,-23.628330,-32.752945,-21.277086
3.575000,97.608864,-2.242464,30.237331,-23.382267,-36.908775,-21.193327
3.581250,90.768021,-2.244453,31.675182,-23.182070,-38.838608,-21.208536
3.587500,81.501984,-2.246023,32.068283,-23.065096,-40.641045,-21.273317
3.593750,69.931984,-2.247267,31.225937,-23.029327,-42.244850,-21.404694
3.600000,56.298904,-2.247601,31.293077,-23.077061,-43.251953,-21.620661
3.606250,40.944153,-2.246629,30.597984,-23.225515,-43.652435,-21.916159
3.612500,24.290171,-2.244757,29.547682,-23.467831,-43.532452,-22.266657
3.618750,6.825448,-2.242542,28.566605,-23.809454,-43.078426,-22.641863
3.625000,-10.916251,-2.239785,27.830093,-24.268192,-42.784477,-23.078367
3.631250,-28.386913,-2.236252,27.847536,-24.809980,-40.742580,-23.543728
3.637500,-45.056561,-2.232322,28.962040,-25.398882,-38.447220,-24.007870
3.643750,-60.437393,-2.228701,31.331337,-25.997650,-35.736153,-24.449396
3.650000,-74.101898,-2.225803,33.100193,-26.562414,-32.547352,-24.850382
3.656250,-85.706139,-2.223482,35.828014,-27.030493,-28.863638,-25.193380
3.662500,-95.011696,-2.221868,38.748356,-27.403610,-24.720068,-25.469795
3.668750,-101.897354,-2.221110,42.792179,-27.687937,-20.242596,-25.685028
3.675000,-106.360588,-2.221012,46.203037,-27.848639,-15.577158,-25.839745
3.681250,-108.520821,-2.221173,48.748428,-27.877815,-10.871163,-25.932724
3.687500,-108.616638,-2.221762,50.186584,-27.784189,-6.328909,-25.966833
3.693750,-106.990685,-2.223507,50.348953,-27.592596,-2.172650,-25.950918
3.700000,-104.069473,-2.226403,49.188065,-27.322197,1.394822,-25.897734
3.706250,-100.338837,-2.229529,46.891685,-26.973837,4.260277,-25.807535
3.712500,-96.329361,-2.232459,43.467030,-26.590195,6.420635,-25.672529
3.718750,-90.423820,-2.235557,37.137573,-26.205391,7.819697,-25.497528
3.725000,-84.519806,-2.239269,29.813747,-25.840487,8.534586,-25.291843
3.731250,-78.613899,-2.243090,21.258808,-25.532192,8.976552,-25.101982
3.737500,-72.702454,-2.246439,13.398115,-25.313330,9.470628,-24.941551
3.743750,-66.788017,-2.249387,4.932727,-25.178726,10.283473,-24.830114
3.750000,-60.874207,-2.252338,-3.553568,-25.115990,11.998916,-24.711903
3.756250,-54.961323,-2.255192,-11.622297,-25.120621,13.426173,-24.581211
3.762500,-49.047565,-2.257783,-18.850645,-25.174734,14.192718,-24.432005
3.768750,-43.133289,-2.260304,-24.789444,-25.242119,15.856332,-24.322163
3.775000,-37.220245,-2.263059,-29.149443,-25.324251,18.118378,-24.246153
3.781250,-31.307806,-2.265851,-31.865370,-25.417559,20.294121,-24.185890
3.787500,-25.394066,-2.268374,-32.577354,-25.498512,22.030441,-24.132641
3.793750,-19.480085,-2.270916,-31.157198,-25.570629,23.039562,-24.088007
3.800000,-13.568214,-2.273832,-29.493109,-25.608891,23.132427,-24.047411
3.806250,-7.657191,-2.277096,-25.390663,-25.550789,22.313583,-23.976610
3.812500,-1.745199,-2.280525,-20.154459,-25.443073,20.513123,-23.876507
3.818750,4.167177,-2.284329,-14.411659,-25.303019,17.622066,-23.756428
3.825000,10.079366,-2.288529,-8.716324,-25.143950,13.763796,-23.621977
3.831250,15.995115,-2.292535,-1.434722,-24.979298,9.199812,-23.481989
3.837500,21.914202,-2.296042,5.601159,-24.822428,4.257837,-23.360796
3.843750,27.832947,-2.299623,12.516436,-24.673620,-0.696214,-23.257494
3.850000,33.749386,-2.303667,17.610216,-24.524759,-6.558542,-23.108431
3.856250,39.665962,-2.307650,22.580044,-24.384209,-11.873738,-22.963655
3.862500,45.585968,-2.310937,26.980360,-24.252930,-16.744884,-22.835672
3.868750,51.506130,-2.314072,30.467133,-24.121151,-21.179329,-22.723961
3.875000,57.419834,-2.318128,32.732502,-23.967831,-25.219589,-22.619904
3.881250,63.329411,-2.323373,33.472210,-23.782751,-28.941572,-22.508751
3.887500,69.241966,-2.328838,32.256454,-23.584213,-32.510639,-22.388197
3.893750,75.160919,-2.333757,28.971762,-23.354031,-36.197323,-22.266375
3.900000,81.082230,-2.338813,25.751402,-23.079674,-40.163548,-22.136919
3.906250,87.000786,-2.344848,21.163776,-22.759632,-44.594288,-21.997318
3.912500,92.918869,-2.351860,15.686634,-22.395746,-47.833523,-21.843660
3.918750,96.947823,-2.359342,9.799700,-21.994825,-51.741844,-21.665785
3.925000,100.712112,-2.366650,3.895508,-21.579336,-56.030796,-21.440681
3.931250,103.678833,-2.373591,-1.682813,-21.175890,-60.559097,-21.226732
3.937500,105.354118,-2.380097,-6.537348,-20.805857,-63.214420,-21.044035
3.943750,105.310593,-2.386008,-10.333884,-20.491598,-64.916626,-20.896944
3.950000,103.208054,-2.390923,-12.851775,-20.254848,-65.059593,-20.797144
3.956250,98.809647,-2.394253,-13.973557,-20.114136,-63.166363,-20.759464
3.962500,91.991516,-2.395883,-13.658123,-20.079798,-58.873543,-20.795708
3.968750,82.749916,-2.396096,-11.920535,-20.151464,-51.936562,-20.914459
3.975000,71.203354,-2.395028,-10.734913,-20.304373,-42.267780,-21.125486
3.981250,57.588383,-2.392711,-6.456521,-20.549103,-29.942282,-21.474234
3.987500,42.243629,-2.389238,-1.868520,-20.919636,-16.732313,-21.851736
3.993750,25.595036,-2.384938,3.476037,-21.355131,-1.575532,-22.328321
4.000000,8.133332,-2.379983,9.079413,-21.848438,14.501530,-22.912058
4.006250,-9.608047,-2.374376,14.544056,-22.386019,30.619272,-23.619226
4.012500,-27.085276,-2.368465,19.593328,-22.943632,45.808060,-24.374260
4.018750,-43.767502,-2.363119,23.980560,-23.490671,58.495182,-25.107914
4.025000,-59.162079,-2.358605,27.446926,-24.008427,70.299438,-25.821287
4.031250,-72.838280,-2.354625,29.978781,-24.489182,80.125748,-26.564110
4.037500,-84.452812,-2.351168,31.709660,-24.914392,86.774841,-27.275837
4.043750,-93.770905,-2.348894,32.555340,-25.270592,90.577423,-27.924719
4.050000,-100.670227,-2.347902,32.434597,-25.555159,91.916389,-28.491829
4.056250,-105.145111,-2.347430,31.349590,-25.762398,91.315254,-28.965126
4.062500,-107.314079,-2.346753,29.467936,-25.872004,87.565689,-29.319653
4.068750,-107.420128,-2.346719,26.896507,-25.895460,83.107346,-29.535172
4.075000,-105.808777,-2.348589,23.761135,-25.849409,78.095070,-29.616171
4.081250,-102.901802,-2.351832,20.359825,-25.746403,72.803871,-29.566669
4.087500,-99.181808,-2.355072,17.072647,-25.594540,67.631317,-29.387468
4.093750,-95.180046,-2.357698,12.426648,-25.400799,60.858746,-29.083292
4.100000,-89.283424,-2.360445,8.459953,-25.177145,54.292145,-28.671505
4.106250,-83.391129,-2.364073,5.083531,-24.930162,47.861832,-28.186481
4.112500,-77.499725,-2.368322,2.271847,-24.654850,41.592167,-27.610920
4.118750,-71.605507,-2.372914,-0.078025,-24.360039,35.732014,-26.954782
4.125000,-65.709526,-2.378068,-2.166308,-24.060757,29.967695,-26.262455
4.131250,-59.812088,-2.383804,-4.101044,-23.766895,24.346960,-25.566128
4.137500,-53.910595,-2.389727,-5.941831,-23.483370,18.981207,-24.890383
4.143750,-48.002876,-2.395389,-7.728935,-23.210985,13.989081,-24.254114
4.150000,-42.091911,-2.401004,-9.520389,-22.949852,9.460822,-23.671268
4.156250,-36.180191,-2.407008,-9.214108,-22.697643,5.464942,-23.144686
4.162500,-30.267168,-2.413367,-8.243530,-22.448875,2.039018,-22.650574
4.168750,-24.350578,-2.419884,-8.084763,-22.193874,0.920725,-22.262379
4.175000,-18.430422,-2.426544,-6.834422,-21.943705,-0.721885,-21.933229
4.181250,-12.506035,-2.433144,-4.825511,-21.707335,-1.144308,-21.665041
4.187500,-6.577066,-2.439439,-2.346584,-21.491148,-0.551097,-21.420973
4.193750,-0.643430,-2.445389,0.281569,-21.301142,0.901972,-21.244305
4.200000,5.293890,-2.450785,2.729867,-21.145378,3.752340,-21.164379
4.206250,11.234423,-2.455282,4.677477,-21.030893,5.046227,-21.162346
4.212500,17.177900,-2.458716,8.023441,-20.958202,7.715286,-21.183861
4.218750,23.120808,-2.461349,11.209705,-20.916517,9.408254,-21.229853
4.225000,29.060043,-2.463663,12.631248,-20.899994,10.207916,-21.306004
4.231250,34.995300,-2.465831,14.149511,-20.898289,9.970807,-21.402361
4.237500,40.928349,-2.467721,15.446413,-20.905912,8.519233,-21.499439
4.243750,46.858810,-2.469301,16.089468,-20.939442,7.789088,-21.596447
4.250000,52.788185,-2.470520,15.776110,-20.987822,6.148862,-21.696268
4.256250,58.715572,-2.471281,14.294304,-21.032724,4.063919,-21.783070
4.262500,64.638634,-2.472052,11.359400,-21.059233,1.944755,-21.834846
4.268750,70.555084,-2.473454,6.732376,-21.055994,0.110806,-21.858639
4.275000,76.464493,-2.475934,2.390181,-21.016216,-1.096569,-21.835644
4.281250,82.372650,-2.479096,-3.178726,-20.929293,-1.444780,-21.753439
4.287500,88.282547,-2.482655,-9.596768,-20.788904,-0.745319,-21.586088
4.293750,94.191711,-2.487239,-16.566944,-20.611025,0.983859,-21.374170
4.300000,98.205170,-2.493186,-23.767057,-20.402050,3.363374,-21.140965
4.306250,101.950775,-2.499537,-30.767975,-20.164242,6.577729,-20.878548
4.312500,104.901543,-2.505144,-37.247780,-19.906586,10.446537,-20.593790
4.318750,106.561729,-2.510212,-42.943325,-19.641357,14.703713,-20.298119
4.325000,106.496353,-2.515740,-47.661129,-19.387678,19.046862,-20.008217
4.331250,104.365807,-2.521745,-51.271660,-19.166256,23.162388,-19.739590
4.337500,99.939789,-2.527241,-53.687073,-19.008715,26.775278,-19.499840
4.343750,93.098991,-2.531604,-54.910469,-18.898745,29.649015,-19.259760
4.350000,83.839256,-2.535064,-54.005142,-18.816767,31.493124,-19.086088
4.356250,72.279678,-2.537539,-51.794491,-18.832508,33.804794,-18.997227
4.362500,58.657295,-2.538547,-48.158993,-18.950956,35.406231,-19.001991
4.368750,43.311638,-2.538305,-43.170677,-19.166801,36.679649,-19.126657
4.375000,26.663614,-2.537521,-37.034012,-19.469757,37.961533,-19.344095
4.381250,9.204795,-2.536246,-30.026854,-19.841631,39.130852,-19.602247
4.387500,-8.528458,-2.533904,-22.467325,-20.258600,41.061611,-19.907719
4.393750,-25.990152,-2.530579,-14.753067,-20.701744,42.080650,-20.301600
4.400000,-42.654839,-2.527409,-7.327862,-21.159058,43.866714,-20.764523
4.406250,-58.030510,-2.524665,-0.298309,-21.613514,45.923733,-21.266716
4.412500,-71.685074,-2.521597,6.277269,-22.050196,47.948555,-21.786514
4.418750,-83.276497,-2.518156,12.101367,-22.459814,49.716423,-22.307461
4.425000,-92.572090,-2.515222,16.998796,-22.797338,51.107201,-22.792324
4.431250,-99.452805,-2.513282,20.926271,-23.043993,52.134796,-23.202036
4.437500,-103.912971,-2.511804,23.607447,-23.209665,52.611492,-23.529493
4.443750,-106.071754,-2.510511,25.069767,-23.301622,52.489506,-23.766741
4.450000,-106.169739,-2.510223,25.491652,-23.321396,51.880505,-23.905283
4.456250,-104.548836,-2.511516,25.128445,-23.271982,50.947227,-23.941278
4.462500,-101.630844,-2.513751,24.306536,-23.161509,49.868851,-23.878206
4.468750,-97.902649,-2.516301,23.431969,-23.005070,48.862991,-23.730989
4.475000,-93.898903,-2.519569,21.071621,-22.814304,48.194546,-23.511595
4.481250,-88.000816,-2.523702,19.435009,-22.577320,46.521442,-23.182827
4.487500,-82.098686,-2.528058,18.371408,-22.319908,45.563385,-22.790926
4.493750,-76.191132,-2.532197,17.677845,-22.066582,44.919460,-22.369854
4.500000,-70.283356,-2.537064,17.281662,-21.832117,44.367825,-21.944426
4.506250,-64.378281,-2.543460,17.140049,-21.621073,43.708767,-21.532467
4.512500,-58.468285,-2.550424,17.207695,-21.426355,42.744408,-21.146318
4.518750,-52.545822,-2.556426,17.418079,-21.216576,41.258011,-20.796627
4.525000,-46.613991,-2.561368,17.686495,-21.001049,38.989174,-20.511915
4.531250,-40.681454,-2.566339,19.133173,-20.852291,35.569855,-20.309076
4.537500,-34.750801,-2.571822,20.974646,-20.727962,32.274654,-20.139812
4.543750,-28.815598,-2.577182,21.726480,-20.599701,27.601555,-20.025423
4.550000,-22.872517,-2.581561,23.079861,-20.489868,21.950790,-19.947689
4.556250,-16.923481,-2.584965,24.582970,-20.421595,15.639105,-19.933487
4.562500,-10.972811,-2.587779,25.902216,-20.414013,9.548378,-20.032272
4.568750,-5.021215,-2.590055,26.724558,-20.490738,3.586172,-20.241369
4.575000,0.932759,-2.591553,26.762096,-20.693855,-2.045050,-20.501451
4.581250,6.889932,-2.591878,25.771265,-20.995655,-7.245869,-20.810036
4.587500,12.847820,-2.590902,24.673838,-21.367308,-11.394135,-21.185402
4.593750,18.804029,-2.588933,22.822493,-21.842281,-14.333175,-21.623346
4.600000,24.756474,-2.586186,20.251429,-22.424355,-16.047915,-22.105980
4.606250,30.704414,-2.582499,16.938534,-23.169382,-16.681883,-22.632080
4.612500,36.647709,-2.577939,13.123001,-23.966961,-16.545086,-23.198414
4.618750,42.581951,-2.573313,9.099662,-24.833366,-15.772667,-23.781694
4.625000,48.504738,-2.569375,4.756163,-25.752790,-14.646412,-24.365395
4.631250,54.420776,-2.565685,0.338291,-26.693552,-13.505692,-24.936106
4.637500,60.335102,-2.561285,-3.904685,-27.614689,-12.716846,-25.479679
4.643750,66.245453,-2.556438,-7.728374,-28.466068,-12.657109,-25.963646
4.650000,72.143265,-2.552713,-12.817939,-29.191492,-13.686322,-26.344769
4.656250,78.026268,-2.551016,-15.260917,-29.748394,-16.136562,-26.601612
4.662500,83.902184,-2.551005,-17.024054,-30.130651,-18.463007,-26.777452
4.668750,89.777267,-2.552169,-18.065653,-30.311977,-22.209272,-26.846268
4.675000,95.652145,-2.554816,-18.339710,-30.277248,-27.031199,-26.797071
4.681250,99.632614,-2.558835,-17.934433,-30.025940,-32.694733,-26.628489
4.687500,103.343811,-2.563672,-17.016968,-29.578396,-38.957794,-26.350092
4.693750,106.252548,-2.569411,-15.806708,-28.970961,-45.546925,-25.974382
4.700000,107.864006,-2.576942,-14.557687,-28.243946,-52.120178,-25.506775
4.706250,107.752945,-2.586313,-13.730145,-27.393053,-58.310036,-24.942158
4.712500,105.588417,-2.595854,-13.656899,-26.460421,-63.719048,-24.302935
4.718750,101.138298,-2.604321,-14.560232,-25.507591,-69.701698,-23.675131
