Anritsu VNA Frequency[GHz],S21[deg],S21[dB],S11[deg],S11[dB],S22[deg],S22[dB]
1338081180.63,2012_05_27_02:13:00,+40.762,+10.334,+55.278,+10.346,+13.956,+13.768,+14.061,+13.814,10.438056,-17.428
3.006250,33.783897,-1.746914,59.065750,-26.656015,-80.465874,-27.443476
3.012500,33.783897,-1.746914,59.065750,-26.656015,-80.465874,-27.443476
3.018750,33.783897,-1.746914,59.065750,-26.656015,-80.465874,-27.443476
3.025000,33.783897,-1.746914,59.065750,-26.656015,-80.465874,-27.443476
3.031250,33.783897,-1.746914,59.065750,-26.656015,-80.465874,-27.443476
3.037500,33.783897,-1.746914,59.065750,-26.656015,-80.465874,-27.443476
3.043750,33.783897,-1.746914,59.065750,-26.656015,-80.465874,-27.443476
3.050000,33.783897,-1.746914,59.065750,-26.656015,-80.465874,-27.443476
3.056250,33.783897,-1.746914,59.065750,-26.656015,-80.465874,-27.443476
3.062500,33.783897,-1.746914,59.065750,-26.656015,-80.465874,-27.443476
3.068750,33.783897,-1.746914,59.065750,-26.656015,-80.465874,-27.443476
3.075000,33.783897,-1.746914,59.065750,-26.656015,-80.465874,-27.443476
3.081250,33.783897,-1.746914,59.065750,-26.656015,-80.465874,-27.443476
3.087500,33.783897,-1.746914,59.065750,-26.656015,-80.465874,-27.443476
3.093750,33.783897,-1.748791,59.065750,-26.452936,-80.465874,-27.194897
3.100000,39.690277,-1.750969,56.382343,-26.299902,-82.471603,-26.963272
3.106250,45.596924,-1.753206,52.820171,-26.218420,-82.859650,-26.750370
3.112500,51.504330,-1.755527,48.736694,-26.228764,-81.275452,-26.528696
3.118750,57.410851,-1.758052,42.733383,-26.271656,-79.558517,-26.229612
3.125000,63.316582,-1.760760,37.933750,-26.314926,-75.496269,-25.967560
3.131250,69.222099,-1.763552,33.544727,-26.385443,-69.331467,-25.678736
3.137500,75.126457,-1.766685,29.827854,-26.484110,-61.441959,-25.353472
3.143750,81.029259,-1.770387,26.989105,-26.602625,-52.015022,-24.999819
3.150000,86.932854,-1.774377,25.210669,-26.726397,-41.207272,-24.630365
3.156250,92.839638,-1.778149,24.610155,-26.841202,-29.195349,-24.263596
3.162500,96.853897,-1.781618,25.255133,-26.933510,-16.175146,-23.923176
3.168750,100.594650,-1.785227,27.163298,-26.996162,-4.252690,-23.658272
3.175000,103.528831,-1.789076,30.381760,-27.007040,8.030332,-23.412792
3.181250,105.165894,-1.793000,33.146587,-26.953644,20.554253,-23.190825
3.187500,105.080673,-1.796715,36.929115,-26.852964,32.037376,-23.023071
3.193750,102.931862,-1.800190,41.023132,-26.717402,42.053444,-22.925789
3.200000,98.481804,-1.803316,44.857784,-26.554667,50.272789,-22.901850
3.206250,91.608871,-1.806062,47.951317,-26.375336,56.411217,-22.951649
3.212500,82.311493,-1.808571,49.886539,-26.193153,60.271423,-23.083233
3.218750,70.709877,-1.811311,50.348671,-26.018454,61.754642,-23.279013
3.225000,57.042439,-1.813841,51.342731,-25.845163,60.606430,-23.484064
3.231250,41.651962,-1.815824,51.400490,-25.673557,57.112122,-23.706783
3.237500,24.964024,-1.817465,49.033176,-25.503132,53.381374,-23.938686
3.243750,7.466862,-1.819354,46.355339,-25.311621,47.917778,-24.157679
3.250000,-10.307215,-1.821783,43.227325,-25.139238,41.390137,-24.343811
3.256250,-27.807869,-1.824364,39.301346,-24.998642,34.390209,-24.496515
3.262500,-44.499897,-1.826536,34.813457,-24.872978,27.564131,-24.604935
3.268750,-59.892723,-1.828352,29.703138,-24.758480,21.594320,-24.659857
3.275000,-73.562683,-1.830271,23.849047,-24.654507,17.025368,-24.661791
3.281250,-85.169891,-1.832573,17.141386,-24.551714,14.297707,-24.617950
3.287500,-94.475105,-1.835218,9.487892,-24.437618,13.707391,-24.542385
3.293750,-101.354706,-1.837964,0.855251,-24.273867,15.410649,-24.435123
3.300000,-105.808281,-1.840611,-6.579017,-24.105404,19.445974,-24.297983
3.306250,-107.957024,-1.843013,-15.244087,-23.970407,25.677662,-24.157356
3.312500,-108.038719,-1.845164,-23.908037,-23.849127,33.801971,-24.044655
3.318750,-106.394730,-1.847245,-32.286461,-23.749496,43.439232,-23.980684
3.325000,-103.452637,-1.849134,-40.115425,-23.689487,54.141205,-23.976265
3.331250,-99.703705,-1.850711,-47.134430,-23.693790,65.389702,-24.034281
3.337500,-95.681267,-1.851916,-53.167236,-23.824759,76.607460,-24.153091
3.343750,-89.763939,-1.852797,-58.191700,-23.987457,87.213280,-24.317751
3.350000,-83.846870,-1.853323,-62.635315,-24.209297,96.958969,-24.472176
3.356250,-77.930656,-1.853540,-66.074150,-24.534985,105.561790,-24.671295
3.362500,-72.016350,-1.853646,-66.794312,-24.985531,111.821274,-24.921406
3.368750,-66.104111,-1.853518,-66.439476,-25.542196,115.860443,-25.211548
3.375000,-60.192348,-1.852807,-64.888527,-26.178171,117.280365,-25.586821
3.381250,-54.282421,-1.851742,-62.153008,-26.859188,115.916687,-25.921474
3.387500,-48.378788,-1.851054,-58.329578,-27.546808,112.390694,-26.244003
3.393750,-42.481262,-1.851177,-53.579296,-28.196449,106.153633,-26.545946
3.400000,-36.586033,-1.851659,-48.121582,-28.765463,97.762695,-26.820347
3.406250,-30.689259,-1.851954,-42.296249,-29.233088,88.224060,-27.097887
3.412500,-24.792868,-1.852386,-36.427414,-29.574131,78.203468,-27.344734
3.418750,-18.901180,-1.853710,-28.580557,-29.767426,66.339600,-27.539839
3.425000,-13.012382,-1.855989,-22.300003,-29.808289,54.920799,-27.677090
3.431250,-7.120466,-1.858435,-15.734859,-29.712015,44.379978,-27.762537
3.437500,-1.224226,-1.860710,-9.141895,-29.463749,35.171131,-27.799973
3.443750,4.671704,-1.863621,-2.543553,-29.060946,27.975479,-27.737646
3.450000,10.566082,-1.867468,3.543219,-28.549374,21.073015,-27.605135
3.456250,16.464672,-1.871489,8.953179,-27.967756,16.243036,-27.415281
3.462500,22.371834,-1.874871,13.684022,-27.359818,13.189620,-27.170649
3.468750,28.283913,-1.877633,17.819727,-26.771475,11.601691,-26.868065
3.475000,34.196270,-1.880126,21.468092,-26.268709,11.124847,-26.523798
3.481250,40.107819,-1.882457,24.892445,-25.802855,11.369373,-26.152460
3.487500,46.018600,-1.884789,26.823639,-25.404791,11.964722,-25.748316
3.493750,51.927574,-1.887566,28.651846,-25.110315,12.480417,-25.319019
3.500000,57.835548,-1.890706,30.207281,-24.924194,12.479615,-24.876526
3.506250,63.746246,-1.893607,31.388260,-24.831486,11.631217,-24.430851
3.512500,69.661041,-1.895665,32.099365,-24.798428,9.665507,-23.991098
3.518750,75.576019,-1.897459,32.322346,-24.737560,6.381176,-23.562250
3.525000,81.484634,-1.900157,32.187378,-24.721062,1.623878,-23.150665
3.531250,87.388618,-1.903906,32.311386,-24.709171,-2.577688,-22.770971
3.537500,93.295197,-1.907900,32.315891,-24.663992,-7.682307,-22.438890
3.543750,97.312721,-1.911542,32.453163,-24.576702,-13.266725,-22.150492
3.550000,101.060120,-1.915331,33.058743,-24.419834,-19.047693,-21.869329
3.556250,104.000854,-1.919859,32.576847,-24.194971,-24.545946,-21.542780
3.562500,105.646393,-1.924670,32.710743,-23.931604,-29.479368,-21.301569
3.568750,105.576485,-1.928643,33.119949,-23.656506,-32.623211,-21.130629
3.575000,103.450241,-1.931284,33.528637,-23.396240,-34.989075,-21.032009
3.581250,99.024918,-1.932878,33.649708,-23.185749,-36.306477,-21.018129
3.587500,92.173660,-1.934080,33.226501,-23.060892,-36.593689,-21.050253
3.593750,82.897102,-1.934910,32.152672,-23.010998,-35.726723,-21.150400
3.600000,71.320877,-1.934707,30.360615,-23.047949,-33.548649,-21.333324
3.606250,57.682167,-1.933171,29.703207,-23.185741,-30.216879,-21.592762
3.612500,42.316010,-1.930819,28.725466,-23.410469,-26.008263,-21.902597
3.618750,25.646717,-1.928107,27.832201,-23.738604,-21.316956,-22.238062
3.625000,8.168001,-1.924801,27.137690,-24.181305,-16.929096,-22.641140
3.631250,-9.586045,-1.920693,27.245888,-24.701357,-11.041519,-23.074242
3.637500,-27.072424,-1.916268,28.464663,-25.263216,-5.379504,-23.509047
3.643750,-43.762352,-1.912245,30.932116,-25.829792,0.036250,-23.925831
3.650000,-59.162834,-1.908906,32.786621,-26.356148,5.112951,-24.307337
3.656250,-72.843483,-1.906191,35.587353,-26.766762,9.767323,-24.636866
3.662500,-84.462463,-1.904207,38.508518,-27.107588,13.901745,-24.909525
3.668750,-93.782570,-1.903178,42.476959,-27.356394,17.376026,-25.132029
3.675000,-100.679771,-1.902728,45.812672,-27.485020,20.104345,-25.302610
3.681250,-105.151657,-1.902471,48.244297,-27.490625,22.030863,-25.419941
3.687500,-107.321602,-1.902665,49.532043,-27.386105,23.079029,-25.486700
3.693750,-107.430107,-1.904102,49.527042,-27.197327,23.196569,-25.512249
3.700000,-105.815689,-1.906702,48.237473,-26.929523,22.388338,-25.507505
3.706250,-102.899086,-1.909441,45.816521,-26.601137,20.788778,-25.464832
3.712500,-99.170486,-1.911922,42.247471,-26.251293,18.613314,-25.378162
3.718750,-95.168098,-1.914723,35.825012,-25.906624,16.012041,-25.252258
3.725000,-89.272354,-1.918161,28.472748,-25.583155,13.315564,-25.103384
3.731250,-83.374504,-1.921641,19.919418,-25.325817,11.131188,-24.969843
3.737500,-77.471626,-1.924624,12.103607,-25.157894,9.869221,-24.863514
3.743750,-71.566048,-1.927326,3.774994,-25.065361,9.942890,-24.808428
3.750000,-65.661949,-1.930123,-4.517000,-25.036232,9.946844,-24.717037
3.756250,-59.758949,-1.932856,-12.376112,-25.066601,9.865910,-24.610783
3.762500,-53.854839,-1.935389,-19.378906,-25.135355,11.021723,-24.491320
3.768750,-47.950901,-1.937895,-25.087587,-25.206297,13.156251,-24.406347
3.775000,-42.048630,-1.940672,-29.274343,-25.291145,15.813825,-24.345102
3.781250,-36.146782,-1.943526,-31.826675,-25.376978,18.394421,-24.291887
3.787500,-30.244020,-1.946099,-32.394951,-25.443399,20.533461,-24.239799
3.793750,-24.341171,-1.948731,-30.892132,-25.505112,21.923891,-24.192327
3.800000,-18.440742,-1.951782,-29.241264,-25.506540,22.368818,-24.141621
3.806250,-12.541211,-1.955136,-25.086233,-25.421659,21.885427,-24.051575
3.812500,-6.640404,-1.958653,-19.945446,-25.289921,20.338333,-23.930384
3.818750,-0.739291,-1.962520,-14.364945,-25.128767,17.615557,-23.788427
3.825000,5.162002,-1.966730,-8.878282,-24.952196,13.844923,-23.632500
3.831250,11.067450,-1.970603,-1.835113,-24.774612,9.297339,-23.473787
3.837500,16.976524,-1.973905,4.950176,-24.609922,4.292529,-23.349598
3.843750,22.884884,-1.977357,11.633467,-24.453541,-0.826800,-23.212893
3.850000,28.790451,-1.981270,16.528559,-24.299343,-6.749671,-23.046818
3.856250,34.697319,-1.985021,21.313660,-24.156883,-12.284547,-22.890965
3.862500,40.608288,-1.988013,25.568195,-24.024525,-17.411469,-22.753735
3.868750,46.518749,-1.990906,28.961220,-23.889036,-22.107948,-22.632473
3.875000,52.422489,-1.994892,31.174540,-23.728765,-26.399559,-22.515995
3.881250,58.322468,-2.000057,31.850309,-23.549446,-30.355783,-22.388460
3.887500,64.226395,-2.005393,30.593428,-23.352837,-34.162731,-22.254929
3.893750,70.136894,-2.010269,27.333590,-23.120766,-38.076439,-22.120264
3.900000,76.049248,-2.015384,24.146507,-22.843700,-42.227371,-21.976530
3.906250,81.958710,-2.021581,19.581512,-22.521351,-44.920403,-21.822191
3.912500,87.868362,-2.028784,14.108084,-22.155495,-48.023293,-21.652477
3.918750,93.784836,-2.036411,8.191792,-21.753029,-51.246838,-21.455063
3.925000,97.815010,-2.043817,2.196440,-21.341413,-54.347931,-21.200790
3.931250,101.580490,-2.050850,-3.531011,-20.946348,-57.392006,-20.981779
3.937500,104.546669,-2.057451,-8.566235,-20.587748,-58.181198,-20.792809
3.943750,106.221230,-2.063338,-12.581532,-20.288425,-57.790592,-20.642010
3.950000,106.178200,-2.068110,-15.355855,-20.070576,-55.754040,-20.543648
3.956250,104.076439,-2.071203,-16.764297,-19.952089,-51.718334,-20.513037
3.962500,99.675758,-2.072548,-16.749245,-19.943085,-45.433292,-20.562126
3.968750,92.851097,-2.072438,-15.307305,-20.041273,-36.758987,-20.699825
3.975000,83.599586,-2.070952,-14.386580,-20.212641,-25.701101,-20.936493
3.981250,72.042236,-2.068197,-10.293361,-20.505945,-12.427102,-21.299307
3.987500,58.414375,-2.064269,-5.947296,-20.906527,1.473676,-21.704908
3.993750,43.054474,-2.059515,-0.664843,-21.370651,16.633848,-22.213263
4.000000,26.389036,-2.054100,4.915489,-21.893398,32.259323,-22.831244
4.006250,8.910622,-2.048029,10.434396,-22.458635,47.487782,-23.590933
4.012500,-8.850710,-2.041782,15.626881,-23.038715,61.253429,-24.348244
4.018750,-26.350597,-2.036252,20.243629,-23.600750,74.225563,-25.079523
4.025000,-43.055267,-2.031587,23.996517,-24.129622,84.460266,-25.821972
4.031250,-58.467682,-2.027463,28.750128,-24.615507,92.863693,-26.578726
4.037500,-72.159256,-2.023887,31.134417,-25.037361,98.562614,-27.295881
4.043750,-83.792221,-2.021587,33.191574,-25.382824,101.839989,-27.943708
4.050000,-93.127983,-2.020660,34.775200,-25.651609,103.092361,-28.505085
4.056250,-100.038284,-2.020119,35.814232,-25.834433,102.845024,-28.970583
4.062500,-104.520897,-2.019370,36.389263,-25.913445,99.897247,-29.307314
4.068750,-106.703712,-2.019361,36.442314,-25.905827,96.651642,-29.501425
4.075000,-106.828621,-2.021329,35.994095,-25.828531,93.162216,-29.560419
4.081250,-105.229774,-2.024561,35.224274,-25.695112,89.657372,-29.488842
4.087500,-102.324203,-2.027640,34.388050,-25.514439,84.299629,-29.287630
4.093750,-98.604286,-2.030095,33.789608,-25.295124,78.814796,-28.963196
4.100000,-94.612015,-2.032743,31.847761,-25.052071,73.060486,-28.535774
4.106250,-88.728554,-2.036326,30.559889,-24.789948,66.938164,-28.044764
4.112500,-82.845421,-2.040414,29.824394,-24.500219,60.534035,-27.448023
4.118750,-76.959000,-2.044847,29.388903,-24.199148,54.014336,-26.781483
4.125000,-71.070923,-2.049888,28.958862,-23.902267,47.119686,-26.085810
4.131250,-65.181602,-2.055568,28.364855,-23.618395,39.997673,-25.390987
4.137500,-59.287685,-2.061331,27.492792,-23.351107,32.849606,-24.720188
4.143750,-53.387516,-2.066806,26.257339,-23.099424,25.887997,-24.091213
4.150000,-47.484394,-2.072330,24.572966,-22.862101,19.304390,-23.516678
4.156250,-41.581135,-2.078267,24.534847,-22.635460,13.273948,-22.997078
4.162500,-35.676620,-2.084521,24.734705,-22.409533,7.946491,-22.547508
4.168750,-29.768694,-2.090913,23.756699,-22.172449,5.011530,-22.166571
4.175000,-23.856941,-2.097425,23.458317,-21.943272,1.921183,-21.854795
4.181250,-17.941376,-2.103858,23.645683,-21.727266,0.385913,-21.605406
4.187500,-12.021592,-2.109946,24.124718,-21.529291,0.287751,-21.357168
4.193750,-6.097102,-2.115644,24.671032,-21.355139,1.672273,-21.220797
4.200000,-0.168780,-2.120721,25.053417,-21.212585,2.639126,-21.168259
4.206250,5.762776,-2.124860,25.055761,-21.108934,3.857316,-21.177357
4.212500,11.696836,-2.127842,24.515478,-21.041122,6.357026,-21.204945
4.218750,17.629789,-2.130103,25.494295,-20.998457,7.908474,-21.255844
4.225000,23.558920,-2.132091,24.582125,-20.976439,8.504199,-21.330229
4.231250,29.483812,-2.133901,23.758358,-20.963772,7.997914,-21.414261
4.237500,35.406654,-2.135442,22.817133,-20.959932,6.221438,-21.485136
4.243750,41.326962,-2.136729,21.419147,-20.981325,5.092867,-21.552176
4.250000,47.245762,-2.137661,19.408693,-21.012863,2.988565,-21.614542
4.256250,53.162544,-2.138188,16.637909,-21.037134,0.437323,-21.656160
4.262500,59.074787,-2.138807,12.876243,-21.039707,-2.150169,-21.665783
4.268750,64.979576,-2.140188,7.924552,-21.009821,-4.418937,-21.633053
4.275000,70.877747,-2.142743,1.603483,-20.940369,-6.054488,-21.551018
4.281250,76.775368,-2.145951,-4.082869,-20.818846,-6.786999,-21.407497
4.287500,82.674591,-2.149539,-10.663558,-20.642653,-6.415979,-21.173866
4.293750,88.573380,-2.154319,-17.879267,-20.434782,-5.040040,-20.920137
4.300000,94.471596,-2.160443,-25.360176,-20.197077,-2.930544,-20.648973
4.306250,98.481529,-2.166769,-32.662781,-19.932737,0.107404,-20.357567
4.312500,102.230286,-2.172204,-39.468704,-19.652718,3.866369,-20.055527
4.318750,105.180115,-2.177164,-45.508595,-19.371550,8.081723,-19.756491
4.325000,106.831268,-2.182616,-50.579945,-19.110407,12.450251,-19.478146
4.331250,106.758476,-2.188401,-54.535488,-18.892275,16.661667,-19.234980
4.337500,104.628555,-2.193476,-57.277615,-18.764627,20.445236,-19.030020
4.343750,100.205124,-2.197381,-58.825375,-18.638582,23.579725,-18.805563
4.350000,93.362274,-2.200341,-58.189068,-18.583715,25.587788,-18.686079
4.356250,84.097466,-2.202208,-56.247849,-18.635931,28.139437,-18.651354
4.362500,72.532928,-2.202477,-52.807274,-18.794353,29.994833,-18.712330
4.368750,58.903824,-2.201524,-47.956501,-19.050886,31.505096,-18.895132
4.375000,43.543774,-2.200195,-41.899548,-19.392365,32.915760,-19.140501
4.381250,26.879984,-2.198366,-34.909531,-19.797682,34.281540,-19.429979
4.387500,9.409669,-2.195420,-27.307829,-20.240234,36.404278,-19.771173
4.393750,-8.336577,-2.191616,-19.512177,-20.703533,37.606533,-20.191784
4.400000,-25.819412,-2.188149,-11.977977,-21.174984,39.447124,-20.667442
4.406250,-42.505699,-2.185130,-2.908419,-21.636623,41.508644,-21.171864
4.412500,-57.897102,-2.181763,4.112411,-22.074993,43.499447,-21.686460
4.418750,-71.566185,-2.178159,10.928917,-22.484398,45.203545,-22.197878
4.425000,-83.177322,-2.175218,17.371872,-22.803263,46.538555,-22.657721
4.431250,-92.494621,-2.173342,23.264132,-23.031197,47.515633,-23.038616
4.437500,-99.390495,-2.171849,28.219385,-23.180012,47.901413,-23.336821
4.443750,-103.862526,-2.170553,32.190205,-23.257093,47.696766,-23.545301
4.450000,-106.036766,-2.170333,35.242069,-23.264374,47.030777,-23.656889
4.456250,-106.150963,-2.171637,37.504665,-23.206394,46.072281,-23.670237
4.462500,-104.539772,-2.173664,39.178650,-23.093477,45.003956,-23.591286
4.468750,-101.625740,-2.175999,40.552616,-22.944979,44.045742,-23.442488
4.475000,-97.904732,-2.179135,40.111538,-22.759506,43.494034,-23.208895
4.481250,-93.910721,-2.183100,40.019405,-22.530642,42.077335,-22.877670
4.487500,-88.016304,-2.187046,39.939602,-22.290245,41.323101,-22.495050
4.493750,-82.116692,-2.190678,39.679085,-22.059818,40.930874,-22.090868
4.500000,-76.218307,-2.195213,39.172421,-21.850517,40.684254,-21.686480
4.506250,-70.322937,-2.201308,38.394386,-21.662842,40.373482,-21.296560
4.512500,-64.422241,-2.207823,37.337585,-21.483431,39.779266,-20.930662
4.518750,-58.508865,-2.213269,36.003788,-21.259645,38.654514,-20.598652
4.525000,-52.586601,-2.217757,34.412533,-21.074749,36.681530,-20.336218
4.531250,-46.665428,-2.222530,33.662930,-20.938370,33.412109,-20.130663
4.537500,-40.746296,-2.227898,33.239262,-20.806082,30.208437,-19.960447
4.543750,-34.821270,-2.233047,31.731497,-20.667236,25.570696,-19.836332
4.550000,-28.888035,-2.237182,30.867495,-20.548300,19.823910,-19.734987
4.556250,-22.949389,-2.240407,30.355307,-20.472252,13.373209,-19.715488
4.562500,-17.009222,-2.243123,29.979679,-20.457800,6.925150,-19.795153
4.568750,-11.067764,-2.245332,29.512188,-20.530867,0.460757,-19.971678
4.575000,-5.123822,-2.246725,28.728624,-20.748230,-5.840399,-20.190454
4.581250,0.823543,-2.246918,27.437012,-21.031557,-11.659021,-20.464096
4.587500,6.771723,-2.245857,24.384911,-21.399288,-16.487404,-20.805233
4.593750,12.718103,-2.243903,22.436411,-21.871492,-20.145164,-21.206017
4.600000,18.660484,-2.241141,19.720783,-22.451183,-22.582863,-21.646252
4.606250,24.599211,-2.237329,16.107616,-23.205467,-23.942539,-22.137367
4.612500,30.533287,-2.232566,12.544399,-23.996210,-24.496868,-22.669424
4.618750,36.457630,-2.227864,8.362796,-24.858852,-24.310640,-23.219933
4.625000,42.369804,-2.223962,3.917729,-25.773617,-23.667410,-23.773516
4.631250,48.275970,-2.220215,-0.500091,-26.707043,-22.888248,-24.316811
4.637500,54.180912,-2.215617,-4.628360,-27.616358,-22.335892,-24.832689
4.643750,60.080940,-2.210758,-8.220760,-28.448435,-22.373587,-25.285746
4.650000,65.967331,-2.207169,-12.970531,-29.142616,-23.352583,-25.628145
4.656250,71.839478,-2.205651,-15.015642,-29.671017,-25.652878,-25.867844
4.662500,77.705994,-2.205686,-16.402901,-30.025185,-27.849144,-26.026001
4.668750,83.571503,-2.206986,-17.002565,-30.174896,-31.320728,-26.076244
4.675000,89.436615,-2.209823,-16.837835,-30.107662,-35.829235,-26.010496
4.681250,93.408089,-2.213981,-16.041235,-29.826071,-41.170261,-25.829571
4.687500,97.110840,-2.218874,-14.815806,-29.353828,-47.121143,-25.544739
4.693750,100.011528,-2.224739,-13.407037,-28.729002,-53.414574,-25.167843
4.700000,101.614334,-2.232576,-12.108156,-27.979679,-59.706131,-24.700871
4.706250,101.495209,-2.242133,-11.410225,-27.110119,-65.628197,-24.136372
4.712500,99.324730,-2.251622,-11.555230,-26.162052,-70.742561,-23.528028
4.718750,94.869331,-2.259835,-12.887958,-25.211433,-76.458038,-22.932165
