Anritsu VNA Frequency[GHz],S21[deg],S21[dB],S11[deg],S11[dB],S22[deg],S22[dB]
1338100136.31,2012_05_27_07:28:56,+40.488,+10.279,+54.703,+10.290,+13.913,+13.724,+14.018,+13.770,10.378328,-16.004
3.006250,33.564861,-1.744908,58.881615,-26.689404,-80.661980,-27.431759
3.012500,33.564861,-1.744908,58.881615,-26.689404,-80.661980,-27.431759
3.018750,33.564861,-1.744908,58.881615,-26.689404,-80.661980,-27.431759
3.025000,33.564861,-1.744908,58.881615,-26.689404,-80.661980,-27.431759
3.031250,33.564861,-1.744908,58.881615,-26.689404,-80.661980,-27.431759
3.037500,33.564861,-1.744908,58.881615,-26.689404,-80.661980,-27.431759
3.043750,33.564861,-1.744908,58.881615,-26.689404,-80.661980,-27.431759
3.050000,33.564861,-1.744908,58.881615,-26.689404,-80.661980,-27.431759
3.056250,33.564861,-1.744908,58.881615,-26.689404,-80.661980,-27.431759
3.062500,33.564861,-1.744908,58.881615,-26.689404,-80.661980,-27.431759
3.068750,33.564861,-1.744908,58.881615,-26.689404,-80.661980,-27.431759
3.075000,33.564861,-1.744908,58.881615,-26.689404,-80.661980,-27.431759
3.081250,33.564861,-1.744908,58.881615,-26.689404,-80.661980,-27.431759
3.087500,33.564861,-1.744908,58.881615,-26.689404,-80.661980,-27.431759
3.093750,33.564861,-1.746731,58.881615,-26.489603,-80.661980,-27.179674
3.100000,39.470383,-1.748886,56.215801,-26.341881,-82.649437,-26.945978
3.106250,45.376213,-1.751042,52.671204,-26.266895,-83.024101,-26.731918
3.112500,51.282444,-1.753226,48.602268,-26.284269,-81.429695,-26.510056
3.118750,57.187630,-1.755605,42.614597,-26.331774,-79.707230,-26.206104
3.125000,63.091656,-1.758165,37.820255,-26.380363,-75.654205,-25.945404
3.131250,68.995316,-1.760767,33.442722,-26.456034,-69.488846,-25.656969
3.137500,74.897934,-1.763748,29.741875,-26.558825,-61.606594,-25.331760
3.143750,80.799065,-1.767247,26.918293,-26.680191,-52.190933,-24.978676
3.150000,86.700691,-1.771031,25.149191,-26.805029,-41.397194,-24.610048
3.156250,92.605537,-1.774572,24.558897,-26.919275,-29.395588,-24.244009
3.162500,96.618057,-1.777809,25.211082,-27.009237,-16.385242,-23.904779
3.168750,100.357269,-1.781192,27.128286,-27.068104,-2.575397,-23.640848
3.175000,103.289978,-1.784814,30.350534,-27.074659,9.970945,-23.396204
3.181250,104.925789,-1.788492,33.127708,-27.016018,23.298746,-23.174932
3.187500,104.839165,-1.792002,36.913338,-26.909494,36.075855,-23.007988
3.193750,102.689072,-1.795260,41.006950,-26.767519,47.809093,-22.911797
3.200000,98.238091,-1.798222,44.839664,-26.598352,58.090298,-22.889145
3.206250,91.364182,-1.800771,47.932034,-26.413263,66.531761,-22.940168
3.212500,82.065773,-1.803141,49.864601,-26.226107,72.817741,-23.072750
3.218750,70.463295,-1.805729,50.323307,-26.047144,76.723671,-23.269865
3.225000,56.794788,-1.808184,51.310776,-25.870916,77.876198,-23.475740
3.231250,41.403355,-1.810073,51.362347,-25.697454,76.447845,-23.699375
3.237500,24.714512,-1.811661,48.985630,-25.526985,74.442253,-23.932281
3.243750,7.216082,-1.813533,46.296421,-25.334114,70.276390,-24.151859
3.250000,-10.558884,-1.815932,43.160141,-25.161654,64.550919,-24.338655
3.256250,-28.060560,-1.818481,39.215939,-25.021544,57.820446,-24.492033
3.262500,-44.753670,-1.820637,34.711010,-24.896753,50.720184,-24.601101
3.268750,-60.147850,-1.822426,29.586691,-24.783024,43.942234,-24.656578
3.275000,-73.818855,-1.824330,23.718729,-24.679623,38.072815,-24.658634
3.281250,-85.427048,-1.826580,16.998201,-24.577608,33.616905,-24.614643
3.287500,-94.733543,-1.829193,9.332787,-24.463495,30.954721,-24.539520
3.293750,-101.614113,-1.831863,0.686786,-24.298470,30.347803,-24.432268
3.300000,-106.068687,-1.834476,-6.767233,-24.130489,31.960226,-24.294844
3.306250,-108.218323,-1.836792,-15.439007,-23.994799,35.769108,-24.153126
3.312500,-108.300720,-1.838937,-24.113142,-23.872801,41.588242,-24.039938
3.318750,-106.657631,-1.840977,-32.498611,-23.772598,49.156265,-23.975729
3.325000,-103.716225,-1.842839,-40.332436,-23.711845,58.133064,-23.970591
3.331250,-99.967621,-1.844386,-47.355228,-23.714846,68.088562,-24.027567
3.337500,-95.945480,-1.845616,-53.390499,-23.841339,78.504456,-24.144737
3.343750,-90.028389,-1.846529,-58.422718,-24.000874,88.839424,-24.307926
3.350000,-84.111465,-1.847086,-62.858727,-24.221088,96.696136,-24.461628
3.356250,-78.195404,-1.847377,-66.296295,-24.543150,105.313339,-24.658894
3.362500,-72.281143,-1.847582,-67.020233,-24.988955,111.577248,-24.907230
3.368750,-66.368637,-1.847506,-66.668365,-25.539446,115.623085,-25.196398
3.375000,-60.456367,-1.846879,-65.119614,-26.168344,117.051300,-25.572842
3.381250,-54.546242,-1.845879,-62.387894,-26.842014,115.708687,-25.907068
3.387500,-48.642239,-1.845282,-58.570900,-27.522120,112.193375,-26.229092
3.393750,-42.744633,-1.845471,-53.828098,-28.164368,105.964493,-26.532030
3.400000,-36.849300,-1.846032,-48.378933,-28.726898,97.588379,-26.807344
3.406250,-30.952583,-1.846370,-42.561291,-29.188866,88.065804,-27.087082
3.412500,-25.056559,-1.846856,-36.702267,-29.525274,78.058838,-27.336287
3.418750,-19.165506,-1.848227,-28.864601,-29.714962,66.208603,-27.534027
3.425000,-13.277560,-1.850549,-22.592453,-29.754044,54.802517,-27.674183
3.431250,-7.386814,-1.852999,-16.031528,-29.659008,44.273418,-27.762236
3.437500,-1.492139,-1.855340,-9.439787,-29.412460,35.072514,-27.802973
3.443750,4.401957,-1.858297,-2.836508,-29.013584,27.884354,-27.742811
3.450000,10.294562,-1.862193,3.256303,-28.507868,20.985512,-27.611996
3.456250,16.191111,-1.866236,8.676440,-27.933369,16.152922,-27.423870
3.462500,22.096336,-1.869630,13.418820,-27.333427,13.094024,-27.180487
3.468750,28.006363,-1.872384,17.571072,-26.754206,11.500367,-26.877991
3.475000,33.916702,-1.874908,21.242289,-26.260399,11.017859,-26.533379
3.481250,39.826633,-1.877247,24.688681,-25.804413,11.246492,-26.161472
3.487500,45.736073,-1.879652,26.642918,-25.415209,11.826185,-25.756739
3.493750,51.644100,-1.882430,28.494246,-25.128332,12.326289,-25.325668
3.500000,57.551674,-1.885623,30.067730,-24.948122,12.311296,-24.880541
3.506250,63.462276,-1.888584,31.259962,-24.859579,11.449616,-24.432055
3.512500,69.377258,-1.889952,31.979383,-24.829514,9.468212,-23.989374
3.518750,75.312111,-1.891973,32.205967,-24.773438,6.169996,-23.558043
3.525000,81.221359,-1.894935,32.076260,-24.759220,1.403748,-23.143707
3.531250,87.126152,-1.898928,32.185280,-24.746332,-2.803503,-22.760851
3.537500,93.032944,-1.903187,32.178562,-24.700481,-7.914664,-22.426855
3.543750,97.050926,-1.907130,32.301720,-24.612093,-13.502894,-22.137533
3.550000,100.798317,-1.911193,32.893230,-24.453932,-19.280884,-21.855007
3.556250,103.738571,-1.915989,32.394493,-24.227432,-24.775572,-21.525303
3.562500,105.383919,-1.921057,32.510925,-23.962713,-29.718016,-21.283148
3.568750,105.313293,-1.925298,32.903969,-23.686281,-32.862255,-21.112425
3.575000,103.186241,-1.928138,33.299763,-23.424862,-35.228554,-21.013823
3.581250,98.759705,-1.929914,33.412422,-23.212868,-36.550915,-21.001110
3.587500,91.907593,-1.931306,32.982990,-23.086143,-36.850830,-21.033949
3.593750,82.629929,-1.932303,31.903980,-23.035166,-35.993622,-21.135595
3.600000,71.052902,-1.932226,30.114336,-23.071249,-33.828037,-21.320179
3.606250,57.413277,-1.930806,29.461842,-23.208216,-30.512276,-21.581951
3.612500,42.046757,-1.928533,28.490147,-23.430712,-26.321720,-21.894567
3.618750,25.377092,-1.925866,27.602699,-23.757566,-21.653030,-22.232080
3.625000,7.898376,-1.922595,26.904263,-24.198008,-17.289265,-22.638422
3.631250,-9.855618,-1.918458,27.007019,-24.714725,-11.422933,-23.074244
3.637500,-27.341429,-1.914001,28.219540,-25.273315,-5.773630,-23.511242
3.643750,-44.030754,-1.909923,30.682709,-25.836386,-0.373346,-23.930084
3.650000,-59.430267,-1.906487,32.527180,-26.359039,4.691066,-24.313519
3.656250,-73.110016,-1.903607,35.314812,-26.766539,9.335262,-24.644810
3.662500,-84.728058,-1.901446,38.224186,-27.103657,13.463269,-24.917770
3.668750,-94.047203,-1.900210,42.179703,-27.349539,16.937000,-25.139862
3.675000,-100.943718,-1.899555,45.501637,-27.475689,19.668266,-25.309668
3.681250,-105.415077,-1.899011,47.922871,-27.479515,21.598824,-25.425657
3.687500,-107.584885,-1.898905,49.205681,-27.373930,22.652693,-25.490871
3.693750,-107.693146,-1.900077,49.201214,-27.185307,22.777519,-25.514317
3.700000,-106.079048,-1.902351,47.915867,-26.918709,21.979309,-25.506887
3.706250,-103.163048,-1.904805,45.508862,-26.592533,20.389122,-25.461361
3.712500,-99.435661,-1.906996,41.957672,-26.245422,18.222700,-25.371809
3.718750,-95.434608,-1.909501,35.559525,-25.904547,15.631065,-25.242798
3.725000,-89.540749,-1.912661,28.237484,-25.585226,12.945675,-25.090887
3.731250,-83.644714,-1.915916,19.715805,-25.332420,10.768999,-24.954905
3.737500,-77.743782,-1.918705,11.934590,-25.169466,9.516865,-24.847052
3.743750,-71.840767,-1.921218,3.639760,-25.080927,9.600394,-24.789452
3.750000,-65.939003,-1.923855,-4.616208,-25.055315,9.617727,-24.696888
3.756250,-60.038464,-1.926451,-12.443942,-25.088089,9.545540,-24.589718
3.762500,-54.136467,-1.928867,-19.420580,-25.158810,10.713187,-24.469069
3.768750,-48.234657,-1.931310,-25.107697,-25.231337,12.865444,-24.383562
3.775000,-42.334190,-1.934067,-29.274515,-25.316387,15.537066,-24.321754
3.781250,-36.433968,-1.936895,-31.816677,-25.401255,18.130814,-24.268389
3.787500,-30.532328,-1.939441,-32.380760,-25.465717,20.283409,-24.215872
3.793750,-24.630476,-1.942059,-30.883207,-25.523819,21.688585,-24.168083
3.800000,-18.730553,-1.945146,-29.241289,-25.521654,22.151207,-24.117006
3.806250,-12.831132,-1.948508,-25.102636,-25.432596,21.685938,-24.025814
3.812500,-6.930005,-1.952069,-19.979858,-25.296822,20.150848,-23.904135
3.818750,-1.028478,-1.955982,-14.421185,-25.131174,17.432095,-23.761900
3.825000,4.873700,-1.960213,-8.964938,-24.950062,13.668571,-23.605757
3.831250,10.779827,-1.964090,-1.953867,-24.768013,9.127143,-23.446178
3.837500,16.689741,-1.967441,4.796935,-24.599327,4.126378,-23.320488
3.843750,22.599220,-1.970873,11.445803,-24.439398,-0.990792,-23.182991
3.850000,28.505678,-1.974801,16.310255,-24.282402,-6.914615,-23.016209
3.856250,34.413181,-1.978580,21.065811,-24.138222,-12.455496,-22.859667
3.862500,40.324665,-1.981589,25.294443,-24.005056,-17.587009,-22.721628
3.868750,46.235592,-1.984502,28.664145,-23.870014,-22.290344,-22.599073
3.875000,52.139282,-1.988479,30.857719,-23.711031,-26.589035,-22.481325
3.881250,58.039169,-1.993691,31.520025,-23.533800,-30.555954,-22.352650
3.887500,63.942535,-1.999003,30.250383,-23.339895,-34.374565,-22.217869
3.893750,69.852539,-2.003869,26.982988,-23.111235,-38.299698,-22.081850
3.900000,75.764053,-2.009019,23.791433,-22.837433,-42.463669,-21.937355
3.906250,81.672478,-2.015254,19.224998,-22.518847,-45.167641,-21.782337
3.912500,87.580856,-2.022465,13.756089,-22.156971,-48.280327,-21.612209
3.918750,93.495934,-2.030074,7.846617,-21.758625,-51.514122,-21.413322
3.925000,97.524879,-2.037496,1.860504,-21.351536,-54.625465,-21.159843
3.931250,101.288933,-2.044492,-3.862980,-20.959785,-57.681805,-20.940886
3.937500,104.253952,-2.051066,-8.892206,-20.604010,-58.475124,-20.752451
3.943750,105.927185,-2.056934,-12.897473,-20.306923,-58.090431,-20.602461
3.950000,105.882767,-2.061661,-15.662234,-20.090870,-56.056499,-20.505016
3.956250,103.779808,-2.064646,-17.062212,-19.974024,-52.022888,-20.475611
3.962500,99.378059,-2.065893,-17.038122,-19.966072,-45.736622,-20.526331
3.968750,92.552238,-2.065702,-15.587910,-20.064745,-37.058872,-20.665657
3.975000,83.299751,-2.064173,-14.661027,-20.237020,-25.997326,-20.904537
3.981250,71.741600,-2.061280,-10.572473,-20.530890,-12.711500,-21.268238
3.987500,58.112911,-2.057289,-6.225553,-20.932354,1.183480,-21.675446
3.993750,42.752293,-2.052445,-0.940943,-21.397408,16.352909,-22.185247
4.000000,26.086273,-2.046970,4.630269,-21.921404,31.985428,-22.805347
4.006250,8.607073,-2.040818,10.141119,-22.488583,47.219261,-23.567163
4.012500,-9.154603,-2.034553,15.321879,-23.070976,60.968933,-24.325981
4.018750,-26.654913,-2.028997,19.922966,-23.635942,73.942986,-25.059277
4.025000,-43.359993,-2.024388,23.657682,-24.168060,84.171837,-25.803713
4.031250,-58.772831,-2.020307,28.387438,-24.657120,92.560852,-26.562523
4.037500,-72.464615,-2.016782,30.747681,-25.082031,98.240341,-27.281773
4.043750,-84.097755,-2.014569,32.779793,-25.430124,101.493385,-27.931976
4.050000,-93.433739,-2.013775,34.338951,-25.701385,102.718056,-28.495775
4.056250,-100.344444,-2.013405,35.355900,-25.885799,102.440681,-28.963474
4.062500,-104.827278,-2.012797,35.909893,-25.965475,99.463943,-29.302118
4.068750,-107.010338,-2.012955,35.946178,-25.957722,96.186775,-29.497950
4.075000,-107.135796,-2.015164,35.486610,-25.879717,92.672653,-29.558308
4.081250,-105.537506,-2.018612,34.711422,-25.745260,89.145973,-29.487566
4.087500,-102.632538,-2.021878,33.875134,-25.562893,83.770332,-29.286621
4.093750,-98.913300,-2.024494,33.277561,-25.341255,78.273705,-28.961884
4.100000,-94.921715,-2.027369,31.337885,-25.095005,72.515312,-28.534395
4.106250,-89.039375,-2.031109,30.055698,-24.828850,66.397667,-28.042322
4.112500,-83.157318,-2.035355,29.333582,-24.535679,60.006592,-27.444269
4.118750,-77.272026,-2.039867,28.913567,-24.231514,53.504139,-26.776150
4.125000,-71.385277,-2.044986,28.499285,-23.931864,46.633728,-26.078806
4.131250,-65.497307,-2.050675,27.921547,-23.645901,39.539631,-25.382431
4.137500,-59.604645,-2.056446,27.064175,-23.376703,32.424362,-24.710072
4.143750,-53.705872,-2.061859,25.839937,-23.123808,25.497091,-24.079323
4.150000,-47.803967,-2.067265,24.162539,-22.885975,18.947763,-23.503176
4.156250,-41.901978,-2.073032,24.128220,-22.659643,12.950214,-22.981752
4.162500,-35.998791,-2.079139,24.332153,-22.434183,7.645707,-22.531919
4.168750,-30.091812,-2.085348,23.356161,-22.197996,4.745065,-22.150444
4.175000,-24.181158,-2.091656,23.057159,-21.970076,1.672606,-21.838585
4.181250,-18.266712,-2.097864,23.246628,-21.755911,0.151162,-21.588955
4.187500,-12.347586,-2.103740,23.723492,-21.559774,0.060044,-21.340471
4.193750,-6.423737,-2.109215,24.267254,-21.387968,1.466884,-21.204870
4.200000,-0.496252,-2.114111,24.647564,-21.247726,2.434475,-21.152857
4.206250,5.434614,-2.118100,24.648054,-21.146372,3.653283,-21.162834
4.212500,11.368035,-2.120944,24.106504,-21.080772,6.155135,-21.191645
4.218750,17.300596,-2.123113,25.084814,-21.040016,7.705579,-21.243597
4.225000,23.229204,-2.125045,24.174824,-21.019596,8.299012,-21.318701
4.231250,29.153919,-2.126827,23.355476,-21.007872,7.789485,-21.403408
4.237500,35.076481,-2.128344,22.420151,-21.004688,6.008725,-21.474943
4.243750,40.996613,-2.129621,21.033291,-21.026470,4.872337,-21.542604
4.250000,46.915668,-2.130610,19.036373,-21.058323,2.763664,-21.605473
4.256250,52.832634,-2.131151,16.281939,-21.082825,0.202649,-21.647295
4.262500,58.745396,-2.131784,12.536352,-21.085068,-2.393264,-21.656857
4.268750,64.651031,-2.133216,7.600113,-21.054327,-4.670237,-21.623659
4.275000,70.550179,-2.135813,1.294412,-20.983543,-6.314631,-21.540970
4.281250,76.448837,-2.139010,-4.375395,-20.860533,-7.054142,-21.396544
4.287500,82.349670,-2.142607,-10.939173,-20.682833,-6.691149,-21.162113
4.293750,88.249901,-2.147372,-18.140564,-20.473299,-5.323357,-20.907482
4.300000,94.149445,-2.153528,-25.609381,-20.233946,-3.219531,-20.634924
4.306250,98.161064,-2.159841,-32.904324,-19.967819,-0.186930,-20.342100
4.312500,101.911400,-2.165287,-39.706604,-19.685978,3.568357,-20.038874
4.318750,104.862495,-2.170205,-45.745380,-19.403219,7.782639,-19.738636
4.325000,106.514786,-2.175652,-50.818176,-19.140568,12.150950,-19.459045
4.331250,106.443138,-2.181463,-54.776981,-18.921774,16.363781,-19.214890
4.337500,104.314003,-2.186595,-57.523540,-18.796379,20.148893,-19.008636
4.343750,99.891083,-2.190564,-59.075699,-18.668104,23.284725,-18.783072
4.350000,93.048172,-2.193596,-58.433071,-18.613010,25.296211,-18.662643
4.356250,83.783287,-2.195511,-56.490479,-18.666254,27.851442,-18.627075
4.362500,72.218689,-2.195859,-53.044239,-18.826658,29.707142,-18.687708
4.368750,58.588825,-2.195024,-48.181358,-19.085810,31.217979,-18.871021
4.375000,43.227577,-2.193818,-42.106857,-19.430122,32.627098,-19.114939
4.381250,26.563253,-2.192086,-35.093227,-19.838232,33.991375,-19.403862
4.387500,9.092283,-2.189242,-27.465219,-20.283476,36.112534,-19.744890
4.393750,-8.654855,-2.185536,-19.638433,-20.749498,37.309132,-20.165386
4.400000,-26.138527,-2.182159,-12.071775,-21.223528,39.143791,-20.641073
4.406250,-42.825516,-2.179242,-2.970717,-21.687841,41.196720,-21.145784
4.412500,-58.217659,-2.175954,4.079950,-22.128452,43.176556,-21.660624
4.418750,-71.887039,-2.172367,10.923135,-22.540041,44.868721,-22.172266
4.425000,-83.498428,-2.169472,17.385479,-22.860189,46.194885,-22.632153
4.431250,-92.815941,-2.167606,23.295334,-23.088697,47.159962,-23.013083
4.437500,-99.711578,-2.166126,28.259947,-23.237497,47.535488,-23.311352
4.443750,-104.183723,-2.164830,32.233990,-23.314306,47.321499,-23.519993
4.450000,-106.357857,-2.164589,35.285458,-23.321020,46.647270,-23.631723
4.456250,-106.471962,-2.165870,37.542908,-23.262470,45.682549,-23.645081
4.462500,-104.860687,-2.167880,39.207336,-23.148565,44.607910,-23.566339
4.468750,-101.946922,-2.170203,40.567600,-22.999102,43.647057,-23.417528
4.475000,-98.226173,-2.173326,40.109856,-22.812609,43.096794,-23.183718
4.481250,-94.232384,-2.177265,40.002293,-22.582684,41.679142,-22.852688
4.487500,-88.338570,-2.181197,39.906223,-22.341402,40.926033,-22.470291
4.493750,-82.439621,-2.184797,39.629845,-22.110435,40.539078,-22.066378
4.500000,-76.541840,-2.189315,39.109184,-21.900814,40.297405,-21.662294
4.506250,-70.647232,-2.195463,38.319290,-21.713337,39.992439,-21.272909
4.512500,-64.747467,-2.202003,37.252682,-21.534729,39.404175,-20.907621
4.518750,-58.835037,-2.207434,35.909130,-21.307493,38.285172,-20.576252
4.525000,-52.913670,-2.211931,34.313404,-21.124187,36.318394,-20.314596
4.531250,-46.993141,-2.216694,33.552807,-20.988976,33.052818,-20.109936
4.537500,-41.074745,-2.222077,33.120720,-20.856939,29.848772,-19.940905
4.543750,-35.150520,-2.227230,31.613947,-20.718172,25.212496,-19.817410
4.550000,-29.217806,-2.231366,30.744144,-20.599859,19.465302,-19.715582
4.556250,-23.279175,-2.234542,30.226027,-20.524458,13.017311,-19.697474
4.562500,-17.339520,-2.237258,29.842337,-20.511559,6.570795,-19.777668
4.568750,-11.398876,-2.239435,29.370029,-20.586308,0.102988,-19.953524
4.575000,-5.455214,-2.240825,28.582670,-20.807253,-6.206550,-20.172028
4.581250,0.491680,-2.240997,27.298729,-21.091566,-12.026682,-20.445688
4.587500,6.439412,-2.239888,24.239458,-21.460810,-16.861069,-20.786381
4.593750,12.385307,-2.237839,22.290339,-21.934441,-20.524403,-21.186558
4.600000,18.327124,-2.235019,19.580420,-22.516182,-22.966690,-21.625488
4.606250,24.265179,-2.231175,15.981112,-23.268036,-24.335838,-22.115265
4.612500,30.198511,-2.226417,12.413946,-24.056698,-24.895761,-22.646149
4.618750,36.121979,-2.221679,8.242701,-24.916525,-24.719105,-23.195881
4.625000,42.033543,-2.217750,3.810621,-25.826954,-24.083181,-23.748222
4.631250,47.938667,-2.213981,-0.594236,-26.754574,-23.310947,-24.290564
4.637500,53.842640,-2.209400,-4.709969,-27.656628,-22.765724,-24.805098
4.643750,59.742008,-2.204530,-8.289732,-28.480658,-22.810804,-25.256477
4.650000,65.627541,-2.200974,-13.029238,-29.166018,-23.795477,-25.597387
4.656250,71.498795,-2.199454,-15.066621,-29.685257,-26.101538,-25.835728
4.662500,77.364388,-2.199530,-16.450945,-30.030462,-28.298149,-25.992401
4.668750,83.228867,-2.200829,-17.051472,-30.171909,-31.768444,-26.041044
4.675000,89.093193,-2.203677,-16.890368,-30.097355,-36.277580,-25.973633
4.681250,94.958397,-2.207848,-16.102545,-29.809792,-41.618240,-25.791172
4.687500,98.933197,-2.212701,-14.889935,-29.333090,-47.566986,-25.504881
4.693750,102.638382,-2.218489,-13.496186,-28.705502,-53.856361,-25.126421
4.700000,105.538216,-2.226251,-12.216596,-27.955713,-60.141819,-24.658394
4.706250,107.143120,-2.235690,-11.543077,-27.086746,-66.058380,-24.093340
4.712500,107.037178,-2.245003,-11.713903,-26.139658,-71.166306,-23.484997
4.718750,104.883400,-2.253018,-13.072679,-25.191820,-76.872643,-22.889051
