Anritsu VNA Frequency[GHz],S21[deg],S21[dB],S11[deg],S11[dB],S22[deg],S22[dB]
1338061553.35,2012_05_26_20:45:53,+52.743,+122.74,+101.60,+123.01,+128.67,+130.84,+126.29,+127.98,126.317787,-8.279
3.006250,41.019146,-2.271137,65.445786,-27.158140,-80.271355,-28.108074
3.012500,41.019146,-2.271137,65.445786,-27.158140,-80.271355,-28.108074
3.018750,41.019146,-2.271137,65.445786,-27.158140,-80.271355,-28.108074
3.025000,41.019146,-2.271137,65.445786,-27.158140,-80.271355,-28.108074
3.031250,41.019146,-2.271137,65.445786,-27.158140,-80.271355,-28.108074
3.037500,41.019146,-2.271137,65.445786,-27.158140,-80.271355,-28.108074
3.043750,41.019146,-2.271137,65.445786,-27.158140,-80.271355,-28.108074
3.050000,41.019146,-2.271137,65.445786,-27.158140,-80.271355,-28.108074
3.056250,41.019146,-2.271137,65.445786,-27.158140,-80.271355,-28.108074
3.062500,41.019146,-2.271137,65.445786,-27.158140,-80.271355,-28.108074
3.068750,41.019146,-2.271137,65.445786,-27.158140,-80.271355,-28.108074
3.075000,41.019146,-2.271137,65.445786,-27.158140,-80.271355,-28.108074
3.081250,41.019146,-2.271137,65.445786,-27.158140,-80.271355,-28.108074
3.087500,41.019146,-2.271137,65.445786,-27.158140,-80.271355,-28.108074
3.093750,41.019146,-2.273352,65.445786,-26.964096,-80.271355,-27.893757
3.100000,46.942375,-2.275942,62.087856,-26.799894,-80.431602,-27.674797
3.106250,52.865376,-2.278623,57.858982,-26.694147,-79.721275,-27.451986
3.112500,58.789352,-2.281382,53.238205,-26.661768,-77.870964,-27.208538
3.118750,64.712883,-2.284306,46.843506,-26.699400,-74.661591,-26.892260
3.125000,70.635437,-2.287345,41.468708,-26.718204,-70.127151,-26.578510
3.131250,76.557762,-2.290512,36.734566,-26.761454,-64.349403,-26.238598
3.137500,82.478943,-2.293985,32.752529,-26.834991,-56.944553,-25.860214
3.143750,88.398727,-2.298012,29.716196,-26.934811,-48.001839,-25.451828
3.150000,94.318985,-2.302373,27.798374,-27.048388,-37.652363,-25.027416
3.156250,98.347794,-2.306540,27.115938,-27.161558,-27.945999,-24.607248
3.162500,102.105392,-2.310447,27.724140,-27.256298,-17.444731,-24.215347
3.168750,105.057808,-2.314395,29.652859,-27.326418,-6.875503,-23.888275
3.175000,106.711754,-2.318566,32.874538,-27.349724,3.091023,-23.625475
3.181250,106.640854,-2.322782,35.606972,-27.311897,12.350856,-23.378830
3.187500,104.506943,-2.326888,39.432732,-27.224413,19.954823,-23.185648
3.193750,100.072426,-2.330748,43.607277,-27.095495,25.580080,-23.065344
3.200000,93.215134,-2.334351,47.511234,-26.931061,29.126225,-23.025747
3.206250,83.934868,-2.337540,50.652321,-26.739525,30.531925,-23.065046
3.212500,72.352043,-2.340524,52.604671,-26.533257,29.835997,-23.187080
3.218750,58.702209,-2.343652,53.043983,-26.324553,27.211285,-23.406736
3.225000,43.326523,-2.346669,53.951862,-26.114826,22.652235,-23.628944
3.231250,26.654726,-2.349241,53.883423,-25.902538,16.421083,-23.872026
3.237500,9.178038,-2.351439,51.372509,-25.691446,10.962851,-24.134970
3.243750,-8.574956,-2.353798,48.521328,-25.470919,4.870800,-24.399233
3.250000,-26.058521,-2.356697,45.255924,-25.249067,-1.140871,-24.643490
3.256250,-42.736572,-2.359837,41.252140,-25.066677,-6.464621,-24.858038
3.262500,-58.113907,-2.362622,36.622936,-24.908567,-10.550629,-25.032639
3.268750,-71.764931,-2.365034,31.402548,-24.769587,-12.870934,-25.156242
3.275000,-83.351250,-2.367462,25.491484,-24.648813,-13.044160,-25.224155
3.281250,-92.637810,-2.370209,18.792686,-24.539030,-10.833015,-25.237421
3.287500,-99.501221,-2.373432,11.217029,-24.429424,-6.176430,-25.203882
3.293750,-103.938972,-2.376754,2.710509,-24.295624,0.815615,-25.125250
3.300000,-106.071877,-2.379964,-4.596620,-24.120789,9.914507,-25.001131
3.306250,-106.136696,-2.382952,-12.782043,-23.993876,20.749987,-24.850843
3.312500,-104.474625,-2.385692,-21.023287,-23.880850,32.809921,-24.701111
3.318750,-101.514244,-2.388410,-28.907284,-23.782328,45.498989,-24.574608
3.325000,-97.747391,-2.390993,-36.173458,-23.710569,58.199341,-24.486187
3.331250,-93.705856,-2.393253,-42.581005,-23.683554,70.291176,-24.442789
3.337500,-87.768974,-2.395131,-47.953644,-23.737297,83.321480,-24.447649
3.343750,-81.831429,-2.396667,-52.170128,-23.895790,95.361473,-24.494932
3.350000,-75.894463,-2.397814,-55.954021,-24.062750,104.548080,-24.552402
3.356250,-69.957954,-2.398667,-58.755520,-24.312901,112.540634,-24.622076
3.362500,-64.022728,-2.399341,-58.803020,-24.678282,118.283035,-24.759775
3.368750,-58.089710,-2.399717,-57.850830,-25.153557,121.752014,-24.946478
3.375000,-52.157486,-2.399625,-55.790291,-25.718206,122.660194,-25.196661
3.381250,-46.226978,-2.399049,-52.648460,-26.342779,120.857689,-25.484493
3.387500,-40.301445,-2.398644,-48.535114,-26.993198,116.794418,-25.762707
3.393750,-34.382328,-2.398872,-43.624844,-27.629309,110.206001,-26.039305
3.400000,-28.466183,-2.399517,-38.137428,-28.209085,101.497391,-26.275259
3.406250,-22.549513,-2.400004,-32.380478,-28.705595,91.609032,-26.541864
3.412500,-16.633123,-2.400528,-26.690256,-29.096613,81.422134,-26.799725
3.418750,-10.721127,-2.401716,-21.034443,-29.358608,69.411880,-27.021601
3.425000,-4.812405,-2.403849,-15.405495,-29.481020,57.872498,-27.197233
3.431250,1.098114,-2.406203,-10.078588,-29.467699,47.239201,-27.326664
3.437500,7.012695,-2.408365,-5.266874,-29.318518,37.967716,-27.416384
3.443750,12.927227,-2.411026,-0.989949,-29.015156,30.628874,-27.421003
3.450000,18.840136,-2.414598,2.511515,-28.591852,23.679535,-27.352953
3.456250,24.755325,-2.418525,5.123969,-28.084150,18.834482,-27.225491
3.462500,30.678349,-2.422003,6.944792,-27.530905,15.768312,-27.041880
3.468750,36.606983,-2.424732,8.185805,-26.973097,14.155385,-26.799879
3.475000,42.536186,-2.427281,9.100182,-26.458334,13.645859,-26.509212
3.481250,48.464375,-2.429773,10.009153,-26.001446,13.848784,-26.185261
3.487500,54.391541,-2.432398,9.719624,-25.580662,14.374672,-25.824705
3.493750,60.317341,-2.435445,9.906317,-25.242096,14.818042,-25.431324
3.500000,66.242920,-2.438871,10.355853,-25.001213,14.748627,-25.016182
3.506250,72.170708,-2.442248,10.997726,-24.853176,13.826396,-24.589554
3.512500,78.101891,-2.444939,11.756463,-24.777351,11.779598,-24.161657
3.518750,84.034225,-2.447366,12.577351,-24.722641,8.413107,-23.738728
3.525000,89.961319,-2.450503,13.407203,-24.637939,3.587044,-23.327126
3.531250,95.883965,-2.454811,15.070284,-24.604797,-0.646763,-22.939863
3.537500,99.913223,-2.459513,17.006596,-24.553902,-5.722263,-22.593279
3.543750,103.674858,-2.463983,19.333326,-24.466978,-11.180675,-22.300966
3.550000,106.634537,-2.468540,22.233345,-24.330366,-16.711935,-22.025339
3.556250,108.295868,-2.473645,24.044973,-24.130503,-21.986502,-21.746128
3.562500,108.234222,-2.479136,26.445122,-23.888731,-26.600451,-21.497854
3.568750,106.114693,-2.484053,28.921133,-23.631668,-30.982653,-21.338871
3.575000,101.701851,-2.487770,31.068848,-23.385204,-34.800987,-21.261141
3.581250,94.869339,-2.490331,32.508244,-23.182528,-38.210590,-21.291452
3.587500,85.612289,-2.492367,32.898766,-23.058699,-39.748363,-21.378578
3.593750,74.050980,-2.494003,32.039143,-23.021915,-41.658134,-21.530598
3.600000,60.426544,-2.494736,32.055309,-23.067240,-43.414749,-21.769676
3.606250,45.080349,-2.494133,31.319824,-23.213739,-44.963020,-22.091635
3.612500,28.435274,-2.492549,30.219664,-23.459688,-46.332062,-22.473606
3.618750,10.979534,-2.490488,29.181799,-23.803429,-47.629410,-22.883043
3.625000,-6.753187,-2.487843,28.429155,-24.266176,-49.202515,-23.347225
3.631250,-24.215197,-2.484348,28.403316,-24.817316,-49.117691,-23.840542
3.637500,-40.875919,-2.480406,29.469992,-25.420506,-48.757931,-24.330984
3.643750,-56.247368,-2.476644,31.798260,-26.038446,-47.841759,-24.795416
3.650000,-69.902611,-2.473575,33.537998,-26.628332,-46.206036,-25.214630
3.656250,-81.497856,-2.471046,36.257278,-27.133142,-43.754532,-25.570539
3.662500,-90.794670,-2.469208,39.210350,-27.529016,-40.449890,-25.852760
3.668750,-97.671112,-2.468230,43.387085,-27.838415,-36.364326,-26.064280
3.675000,-102.125626,-2.467949,46.913883,-28.022512,-31.629591,-26.207384
3.681250,-104.277374,-2.468021,49.609539,-28.069792,-26.394459,-26.281677
3.687500,-104.364212,-2.468536,51.227291,-27.985926,-20.878950,-26.290054
3.693750,-102.729279,-2.470234,51.583591,-27.792875,-15.354363,-26.241564
3.700000,-99.799194,-2.473172,50.598206,-27.520195,-10.092908,-26.150301
3.706250,-96.060081,-2.476487,48.426105,-27.161867,-5.310602,-26.021816
3.712500,-92.041832,-2.479639,45.155426,-26.757044,-1.117058,-25.850130
3.718750,-86.126915,-2.482985,38.932915,-26.345697,2.346626,-25.639460
3.725000,-80.213417,-2.486978,31.653334,-25.953806,5.017269,-25.394258
3.731250,-74.298607,-2.491149,23.098063,-25.612038,7.146735,-25.162693
3.737500,-68.378410,-2.494938,15.205614,-25.358215,9.048799,-24.964066
3.743750,-62.454681,-2.498329,6.622455,-25.194515,10.862453,-24.814384
3.750000,-56.531075,-2.501659,-2.041343,-25.109583,13.041495,-24.680487
3.756250,-50.608532,-2.504839,-10.311144,-25.097763,14.414394,-24.536652
3.762500,-44.685223,-2.507755,-17.755606,-25.141842,16.771248,-24.373337
3.768750,-38.761738,-2.510543,-23.922123,-25.209318,18.053970,-24.249754
3.775000,-32.839420,-2.513483,-28.499750,-25.291315,20.016098,-24.169125
3.781250,-26.917730,-2.516507,-31.388643,-25.390968,21.886572,-24.110170
3.787500,-20.994982,-2.519180,-32.262028,-25.482918,23.320150,-24.062977
3.793750,-15.072219,-2.521780,-30.961285,-25.564035,24.042467,-24.027044
3.800000,-9.151176,-2.524688,-29.360336,-25.630829,23.871208,-23.999458
3.806250,-3.231723,-2.527910,-25.399370,-25.595428,22.796574,-23.949110
3.812500,2.688501,-2.531316,-20.158209,-25.507582,20.804781,-23.869913
3.818750,8.609157,-2.535024,-14.367252,-25.386017,17.793245,-23.770319
3.825000,14.529253,-2.539155,-8.597286,-25.243176,13.870778,-23.654867
3.831250,20.452368,-2.543199,-1.223818,-25.091873,9.293142,-23.530815
3.837500,26.378691,-2.546813,5.905044,-24.944590,4.395599,-23.415613
3.843750,32.305641,-2.550433,12.898170,-24.805346,-0.457342,-23.332075
3.850000,38.230141,-2.554495,18.041773,-24.665300,-4.474014,-23.196360
3.856250,44.154778,-2.558614,23.054743,-24.530737,-9.384921,-23.058056
3.862500,50.082592,-2.562142,27.475903,-24.404621,-13.315576,-22.933258
3.868750,56.010597,-2.565466,30.954161,-24.279348,-16.342522,-22.823771
3.875000,61.933056,-2.569612,33.188717,-24.136883,-18.578449,-22.723333
3.881250,67.851280,-2.574980,33.907059,-23.955191,-20.189457,-22.618111
3.887500,73.771927,-2.580663,32.712929,-23.758585,-21.426556,-22.502651
3.893750,79.698830,-2.585851,29.403761,-23.533848,-22.661465,-22.384890
3.900000,85.628365,-2.591056,26.172594,-23.265406,-24.202303,-22.260735
3.906250,91.555298,-2.597167,21.603880,-22.950302,-26.339870,-22.127235
3.912500,95.586693,-2.604294,16.183403,-22.590214,-29.411938,-21.980486
3.918750,99.349815,-2.611948,10.398689,-22.191044,-31.856173,-21.811823
3.925000,102.315048,-2.619462,4.660842,-21.772341,-35.608719,-21.603090
3.931250,103.990616,-2.626605,-0.686087,-21.360300,-40.491692,-21.387024
3.937500,103.947685,-2.633359,-5.269934,-20.976929,-44.407589,-21.201551
3.943750,101.844818,-2.639636,-8.764372,-20.644852,-48.232864,-21.048372
3.950000,97.445877,-2.645005,-10.951024,-20.385471,-51.210114,-20.937904
3.956250,90.629814,-2.648920,-11.720070,-20.217710,-52.708149,-20.883554
3.962500,81.394592,-2.651125,-11.047142,-20.153042,-52.190639,-20.897346
3.968750,69.857971,-2.651950,-8.970665,-20.193159,-49.221134,-20.988657
3.975000,56.254253,-2.651503,-7.485385,-20.319336,-43.505924,-21.166981
3.981250,40.922417,-2.649873,-2.970851,-20.514992,-36.807880,-21.473488
3.987500,24.289295,-2.647114,1.908789,-20.847946,-27.366034,-21.816120
3.993750,6.844752,-2.643484,7.356153,-21.249348,-15.793766,-22.250504
4.000000,-10.879620,-2.639192,13.010595,-21.709333,-3.121881,-22.787058
4.006250,-28.337217,-2.634215,18.453817,-22.216312,9.938433,-23.436480
4.012500,-44.997280,-2.628802,23.391808,-22.748217,22.601482,-24.178675
4.018750,-60.369621,-2.623806,27.581646,-23.277723,33.409466,-24.895103
4.025000,-74.027229,-2.619537,30.783569,-23.783159,44.014214,-25.580774
4.031250,-85.626282,-2.615781,33.006088,-24.257957,51.507801,-26.308279
4.037500,-94.927032,-2.612503,34.370300,-24.685966,57.918243,-27.019831
4.043750,-101.810043,-2.610227,34.815125,-25.052488,61.837818,-27.681482
4.050000,-106.274162,-2.609179,34.283321,-25.353617,63.661221,-28.271811
4.056250,-108.436295,-2.608652,32.788555,-25.585850,63.889587,-28.776804
4.062500,-108.530357,-2.607938,30.497440,-25.727468,61.257832,-29.175018
4.068750,-106.901596,-2.607802,27.575392,-25.784298,58.142124,-29.441299
4.075000,-103.982864,-2.609390,24.143286,-25.772182,54.660400,-29.575041
4.081250,-100.261391,-2.612479,20.499239,-25.703220,50.990795,-29.578419
4.087500,-96.260750,-2.615718,17.027498,-25.584711,47.431206,-29.451094
4.093750,-90.356461,-2.618337,12.257026,-25.422356,44.337921,-29.195026
4.100000,-84.451485,-2.621007,8.228977,-25.225935,39.902721,-28.824165
4.106250,-78.550476,-2.624538,4.838140,-25.002563,35.831013,-28.366512
4.112500,-72.651573,-2.628814,2.035592,-24.749722,31.988533,-27.826794
4.118750,-66.749893,-2.633513,-0.259439,-24.471300,28.508310,-27.191875
4.125000,-60.845539,-2.638673,-2.240421,-24.180950,25.014923,-26.509008
4.131250,-54.939709,-2.644412,-4.041513,-23.889511,21.377773,-25.811985
4.137500,-49.030037,-2.650367,-5.742846,-23.603130,17.596361,-25.127842
4.143750,-43.114735,-2.656133,-7.397679,-23.323706,13.706449,-24.477003
4.150000,-37.195446,-2.661822,-9.069067,-23.052204,9.742378,-23.874950
4.156250,-31.275164,-2.667829,-8.664057,-22.788061,5.742171,-23.327297
4.162500,-25.353174,-2.674178,-7.619582,-22.528687,3.909080,-22.807486
4.168750,-19.428576,-2.680688,-7.417346,-22.265371,2.669699,-22.402243
4.175000,-13.500051,-2.687333,-6.117139,-22.004770,0.783561,-22.055517
4.181250,-7.567797,-2.693932,-4.062682,-21.757019,0.207989,-21.775002
4.187500,-1.630930,-2.700263,-1.557629,-21.529675,0.717446,-21.537142
4.193750,4.310695,-2.706272,1.084005,-21.329983,2.116126,-21.329473
4.200000,10.256050,-2.711744,3.534820,-21.165281,4.948914,-21.235821
4.206250,16.204185,-2.716426,5.475946,-21.042921,6.347505,-21.231190
4.212500,22.155218,-2.720076,8.800112,-20.965170,7.356418,-21.259748
4.218750,28.105968,-2.722895,11.947781,-20.922899,8.966389,-21.308819
4.225000,34.053673,-2.725391,15.227422,-20.908648,9.203721,-21.390551
4.231250,39.996979,-2.727752,16.987703,-20.912773,7.973938,-21.498585
4.237500,45.938114,-2.729898,19.070070,-20.926271,5.151924,-21.615276
4.243750,51.876823,-2.731743,21.025312,-20.964981,2.765614,-21.734035
4.250000,57.814381,-2.733169,22.446081,-21.021938,-0.719893,-21.858799
4.256250,63.750336,-2.734168,23.049892,-21.078747,-4.777049,-21.975344
4.262500,69.682175,-2.735102,22.459820,-21.119965,-8.881655,-22.069876
4.268750,75.608032,-2.736549,20.323021,-21.133930,-12.580477,-22.128531
4.275000,81.526436,-2.739032,18.497887,-21.113884,-15.477526,-22.141636
4.281250,87.442978,-2.742200,15.351851,-21.050604,-17.231127,-22.097214
4.287500,93.360931,-2.745761,11.157199,-20.935564,-17.572947,-21.973131
4.293750,97.384132,-2.750230,6.132643,-20.778988,-16.419258,-21.783289
4.300000,101.132576,-2.756022,0.491066,-20.590408,-14.117421,-21.570044
4.306250,104.079323,-2.762381,-5.427691,-20.371660,-10.547039,-21.322107
4.312500,105.738464,-2.768130,-11.336649,-20.130114,-5.853772,-21.043383
4.318750,105.680458,-2.773310,-16.992823,-19.876266,-0.354149,-20.744526
4.325000,103.556877,-2.778876,-22.196810,-19.627043,5.621935,-20.441500
4.331250,99.130417,-2.785022,-26.790396,-19.401325,11.657754,-20.150290
4.337500,92.286125,-2.790882,-30.636114,-19.223513,17.373541,-19.880938
4.343750,83.026802,-2.795712,-33.656158,-19.141245,22.414835,-19.620584
4.350000,71.470978,-2.799603,-34.997852,-19.044353,26.422775,-19.402395
4.356250,57.852329,-2.802648,-35.018654,-19.041121,30.802187,-19.268541
4.362500,42.511780,-2.804343,-33.732140,-19.143667,34.216366,-19.225410
4.368750,25.875803,-2.804759,-31.077480,-19.349239,36.975506,-19.296654
4.375000,8.430712,-2.804543,-27.137924,-19.648712,39.382496,-19.497421
4.381250,-9.292136,-2.803849,-22.077431,-20.025232,41.189461,-19.729988
4.387500,-26.743120,-2.802109,-16.117374,-20.455326,43.205898,-20.012436
4.393750,-43.389618,-2.799331,-9.560524,-20.917667,45.904987,-20.384708
4.400000,-58.745865,-2.796484,-2.785671,-21.397606,47.616230,-20.843430
4.406250,-72.385880,-2.793973,1.952968,-21.878456,49.650330,-21.353645
4.412500,-83.964554,-2.791143,8.134191,-22.342756,51.687000,-21.890713
4.418750,-93.243004,-2.787843,13.587316,-22.776995,53.498104,-22.434834
4.425000,-100.103531,-2.784792,18.128151,-23.145706,54.938625,-22.954758
4.431250,-104.549278,-2.782640,21.736147,-23.418667,56.006973,-23.405222
4.437500,-106.697121,-2.780963,24.190350,-23.602192,56.563465,-23.773569
4.443750,-106.781235,-2.779437,25.492039,-23.702713,56.526814,-24.050518
4.450000,-105.145027,-2.778782,25.813751,-23.721716,55.985191,-24.225590
4.456250,-102.217651,-2.779750,25.410576,-23.661701,55.099495,-24.292566
4.462500,-98.486443,-2.781777,24.603245,-23.530005,54.041378,-24.252024
4.468750,-94.477921,-2.784183,23.790073,-23.340742,53.022678,-24.114061
4.475000,-88.571892,-2.787240,21.517973,-23.111485,52.295395,-23.899721
4.481250,-82.665863,-2.791181,19.941441,-22.835485,50.409359,-23.572334
4.487500,-76.756828,-2.795565,18.982168,-22.531752,49.290134,-23.166515
4.493750,-70.842697,-2.799846,18.402809,-22.228737,48.443329,-22.720175
4.500000,-64.927307,-2.804840,18.098011,-21.945827,47.630428,-22.261475
4.506250,-59.013832,-2.811325,18.007227,-21.692379,46.661503,-21.811733
4.512500,-53.096336,-2.818462,18.075924,-21.467062,45.353897,-21.386766
4.518750,-47.167023,-2.824841,18.235119,-21.250530,43.519089,-20.999659
4.525000,-41.226841,-2.830053,18.397041,-20.985001,40.937351,-20.673143
4.531250,-35.284950,-2.835153,19.929451,-20.815823,37.306267,-20.449606
4.537500,-29.345215,-2.840660,21.673016,-20.685266,33.937477,-20.261950
4.543750,-23.401821,-2.846119,22.283991,-20.558409,29.169392,-20.138628
4.550000,-17.450710,-2.850685,23.565243,-20.449013,23.548670,-20.071089
4.556250,-11.493532,-2.854247,25.024998,-20.379971,17.355001,-20.042843
4.562500,-5.534492,-2.857118,26.316572,-20.370371,11.530557,-20.149052
4.568750,0.425368,-2.859480,27.125917,-20.443024,6.009837,-20.373461
4.575000,6.387161,-2.861086,27.161802,-20.633442,1.000730,-20.668110
4.581250,12.352245,-2.861603,26.185694,-20.949635,-3.620735,-21.003845
4.587500,18.318218,-2.860870,25.099308,-21.322809,-7.115173,-21.406618
4.593750,24.283127,-2.859126,23.285883,-21.799231,-9.348201,-21.874292
4.600000,30.243769,-2.856600,20.780666,-22.385326,-10.348769,-22.390207
4.606250,36.200062,-2.853294,17.598383,-23.112476,-10.276991,-22.945408
4.612500,42.151775,-2.849140,13.818577,-23.921595,-9.460706,-23.539499
4.618750,48.094891,-2.844885,9.875494,-24.793785,-8.110392,-24.148727
4.625000,54.027306,-2.841294,5.633296,-25.715242,-6.515074,-24.755098
4.631250,59.952656,-2.837991,1.297476,-26.656462,-5.029045,-25.345093
4.637500,65.876198,-2.833967,-2.898703,-27.578159,-4.030704,-25.905928
4.643750,71.796593,-2.829454,-8.614438,-28.432915,-3.900378,-26.408873
4.650000,77.705284,-2.825811,-14.017634,-29.167574,-5.013714,-26.813030
4.656250,83.599007,-2.824147,-17.332298,-29.734673,-7.674006,-27.086357
4.662500,89.484642,-2.824216,-20.425200,-30.122894,-10.182642,-27.270126
4.668750,95.369179,-2.825430,-23.260368,-30.313215,-14.255762,-27.349415
4.675000,99.359222,-2.827988,-25.682106,-30.289038,-19.447086,-27.310844
4.681250,103.075851,-2.831926,-27.649265,-30.048094,-25.483547,-27.151407
4.687500,105.989929,-2.836738,-29.199951,-29.608366,-32.099445,-26.879215
4.693750,107.609444,-2.842487,-30.418457,-29.004520,-39.007618,-26.506840
4.700000,107.504974,-2.849842,-31.418053,-28.283718,-45.861004,-26.041849
4.706250,105.336189,-2.859091,-32.488522,-27.445194,-52.288715,-25.483322
4.712500,100.875519,-2.868821,-33.980713,-26.523342,-57.912380,-24.826077
4.718750,94.007256,-2.877643,-35.934593,-25.573929,-64.153824,-24.177769
