Anritsu VNA Frequency[GHz],S21[deg],S21[dB],S11[deg],S11[dB],S22[deg],S22[dB]
1338051057.84,2012_05_26_17:50:57,+69.221,+201.48,+190.34,+201.76,+207.62,+209.60,+203.50,+205.01,183.384277,-5.458
3.006250,49.847218,-2.578723,74.457214,-27.860468,-73.386642,-28.782825
3.012500,49.847218,-2.578723,74.457214,-27.860468,-73.386642,-28.782825
3.018750,49.847218,-2.578723,74.457214,-27.860468,-73.386642,-28.782825
3.025000,49.847218,-2.578723,74.457214,-27.860468,-73.386642,-28.782825
3.031250,49.847218,-2.578723,74.457214,-27.860468,-73.386642,-28.782825
3.037500,49.847218,-2.578723,74.457214,-27.860468,-73.386642,-28.782825
3.043750,49.847218,-2.578723,74.457214,-27.860468,-73.386642,-28.782825
3.050000,49.847218,-2.578723,74.457214,-27.860468,-73.386642,-28.782825
3.056250,49.847218,-2.578723,74.457214,-27.860468,-73.386642,-28.782825
3.062500,49.847218,-2.578723,74.457214,-27.860468,-73.386642,-28.782825
3.068750,49.847218,-2.578723,74.457214,-27.860468,-73.386642,-28.782825
3.075000,49.847218,-2.578723,74.457214,-27.860468,-73.386642,-28.782825
3.081250,49.847218,-2.578723,74.457214,-27.860468,-73.386642,-28.782825
3.087500,49.847218,-2.578723,74.457214,-27.860468,-73.386642,-28.782825
3.093750,49.847218,-2.581118,74.457214,-27.663670,-73.386642,-28.648315
3.100000,55.789494,-2.583961,70.312561,-27.478769,-73.890907,-28.480225
3.106250,61.731258,-2.586997,65.237221,-27.327330,-73.610077,-28.279655
3.112500,67.674065,-2.590117,57.900650,-27.228474,-72.267723,-28.037207
3.118750,73.617149,-2.593343,50.463295,-27.207830,-69.643730,-27.733070
3.125000,79.559448,-2.596765,43.218952,-27.173935,-65.641991,-27.380857
3.131250,85.500900,-2.600244,36.447399,-27.154730,-60.329006,-26.995062
3.137500,91.441605,-2.604010,30.016670,-27.165894,-53.452286,-26.565477
3.143750,95.486084,-2.608309,24.206800,-27.208845,-45.006008,-26.100100
3.150000,99.257538,-2.612961,19.308159,-27.275295,-36.985188,-25.615051
3.156250,102.225731,-2.617539,15.567680,-27.353088,-27.907219,-25.131638
3.162500,103.898369,-2.621813,13.181769,-27.427963,-18.474457,-24.674067
3.168750,103.846703,-2.626067,12.293071,-27.484352,-9.371402,-24.271040
3.175000,101.728912,-2.630552,13.003304,-27.504475,-1.226864,-23.964977
3.181250,97.308395,-2.635087,13.583353,-27.470018,5.633590,-23.681192
3.187500,90.465714,-2.639521,15.837807,-27.390791,10.916658,-23.442453
3.193750,81.200668,-2.643781,19.067892,-27.270611,14.091028,-23.276642
3.200000,69.634544,-2.647806,22.635267,-27.112669,15.205489,-23.201487
3.206250,56.004074,-2.651536,26.040903,-26.923449,14.298491,-23.211269
3.212500,40.649334,-2.654974,28.845091,-26.713816,11.505853,-23.307058
3.218750,23.995501,-2.658469,30.671774,-26.496279,7.130772,-23.507692
3.225000,6.535479,-2.661972,33.410954,-26.276306,1.464153,-23.740314
3.231250,-11.196429,-2.665123,35.527138,-26.053144,-5.558648,-23.988144
3.237500,-28.653734,-2.667868,35.469269,-25.830904,-13.072584,-24.261576
3.243750,-45.307278,-2.670643,35.199802,-25.607071,-20.823383,-24.546167
3.250000,-60.666775,-2.673931,34.541618,-25.373428,-26.739803,-24.819597
3.256250,-74.302116,-2.677532,33.169739,-25.170099,-32.344738,-25.065660
3.262500,-85.869217,-2.680902,30.853582,-24.996758,-37.069702,-25.274220
3.268750,-95.131493,-2.683815,27.595247,-24.845295,-40.373608,-25.433409
3.275000,-101.970131,-2.686648,23.242844,-24.713797,-41.800652,-25.534443
3.281250,-106.387611,-2.689857,17.636951,-24.596270,-41.033798,-25.573639
3.287500,-108.504463,-2.693490,10.644727,-24.482576,-37.920063,-25.554504
3.293750,-108.554245,-2.697351,4.349146,-24.356344,-32.484638,-25.477888
3.300000,-106.876732,-2.701081,-2.637920,-24.174562,-24.877831,-25.344126
3.306250,-103.899094,-2.704594,-10.099847,-24.025595,-15.378759,-25.166134
3.312500,-100.113922,-2.707908,-17.822384,-23.890997,-4.415968,-24.966948
3.318750,-96.055359,-2.711212,-25.132393,-23.763144,7.464335,-24.771530
3.325000,-90.101517,-2.714388,-31.765911,-23.649355,19.671429,-24.597996
3.331250,-84.145828,-2.717304,-37.505543,-23.561989,33.774460,-24.457489
3.337500,-78.188530,-2.719772,-42.193378,-23.522322,47.799004,-24.358271
3.343750,-72.230347,-2.721822,-45.732536,-23.569559,61.648037,-24.302711
3.350000,-66.272430,-2.723523,-48.067623,-23.682070,73.354576,-24.278370
3.356250,-60.314899,-2.724832,-50.179893,-23.826136,84.470184,-24.247412
3.362500,-54.358124,-2.725913,-49.331081,-24.063353,94.131836,-24.289766
3.368750,-48.402905,-2.726667,-47.384613,-24.410275,101.572189,-24.394194
3.375000,-42.448307,-2.726939,-44.278706,-24.857023,106.560905,-24.564625
3.381250,-36.494957,-2.726646,-40.069702,-25.382200,108.718872,-24.814493
3.387500,-30.545860,-2.726271,-34.911324,-25.957867,108.046783,-25.076456
3.393750,-24.602518,-2.726355,-29.028973,-26.549763,104.531601,-25.355154
3.400000,-18.663286,-2.726900,-22.685879,-27.118668,98.157661,-25.613541
3.406250,-12.724594,-2.727337,-16.208910,-27.634274,89.476845,-25.899664
3.412500,-6.785907,-2.727726,-9.968478,-28.074665,79.688904,-26.207314
3.418750,-0.851095,-2.728625,-3.986274,-28.415285,69.184731,-26.497988
3.425000,5.079493,-2.730430,1.741739,-28.639891,58.910862,-26.754890
3.431250,11.010514,-2.732605,6.941057,-28.743149,47.704369,-26.969952
3.437500,16.944735,-2.734664,11.385845,-28.727705,37.926395,-27.146368
3.443750,22.879406,-2.737045,14.995764,-28.572023,30.070560,-27.254040
3.450000,28.811958,-2.740406,17.706135,-28.290071,22.753252,-27.278460
3.456250,34.745155,-2.744309,19.371469,-27.911150,17.681675,-27.232481
3.462500,40.685184,-2.747906,20.087475,-27.468061,14.483250,-27.120930
3.468750,46.631531,-2.750907,20.095684,-26.995790,12.815501,-26.941704
3.475000,52.578758,-2.753635,19.702755,-26.532196,12.326283,-26.701559
3.481250,58.524727,-2.756492,19.253010,-26.120268,12.617146,-26.413988
3.487500,64.469582,-2.759569,17.417940,-25.725103,13.274016,-26.082262
3.493750,70.413902,-2.762996,16.317884,-25.379511,13.899626,-25.706434
3.500000,76.358467,-2.766739,15.584705,-25.111416,14.069466,-25.296812
3.506250,82.305161,-2.770549,15.163631,-24.925869,13.410819,-24.866072
3.512500,88.255013,-2.773777,15.024221,-24.814554,11.634963,-24.426981
3.518750,94.206367,-2.776623,15.144613,-24.751434,8.533738,-23.988438
3.525000,98.259239,-2.780005,15.498812,-24.679831,3.970694,-23.557985
3.531250,102.034081,-2.784457,16.013622,-24.601032,0.010698,-23.146793
3.537500,105.003227,-2.789492,17.680534,-24.542580,-4.767885,-22.769562
3.543750,106.679649,-2.794285,19.792913,-24.460567,-9.887452,-22.447535
3.550000,106.635849,-2.798983,22.516710,-24.343958,-14.954669,-22.172052
3.556250,104.525894,-2.804074,24.172575,-24.172998,-19.796871,-21.903217
3.562500,100.114594,-2.809621,26.540993,-23.954416,-23.935486,-21.641222
3.568750,93.285027,-2.814844,29.076803,-23.713465,-27.435928,-21.465870
3.575000,84.040329,-2.819022,31.331291,-23.475208,-30.408089,-21.377714
3.581250,72.498917,-2.822014,32.910233,-23.269539,-32.827621,-21.394255
3.587500,58.892712,-2.824355,33.454975,-23.129932,-35.022636,-21.507816
3.593750,43.560246,-2.826305,32.705269,-23.083490,-35.923462,-21.671202
3.600000,26.931604,-2.827528,32.724098,-23.122049,-37.169502,-21.920732
3.606250,9.500653,-2.827491,32.032940,-23.256578,-38.649120,-22.258215
3.612500,-8.202517,-2.826385,30.942707,-23.495195,-40.381340,-22.667038
3.618750,-25.636518,-2.824683,29.860317,-23.832424,-42.426376,-23.112936
3.625000,-42.268875,-2.822507,29.092737,-24.287119,-44.967323,-23.600792
3.631250,-57.605854,-2.819493,28.938370,-24.843977,-46.140274,-24.124273
3.637500,-71.221550,-2.815965,29.811449,-25.468563,-47.245907,-24.649038
3.643750,-82.779625,-2.812483,30.027159,-26.123173,-47.868061,-25.149076
3.650000,-92.043892,-2.809620,31.273052,-26.767441,-47.728512,-25.603249
3.656250,-98.890404,-2.807351,32.977791,-27.351200,-46.639332,-25.991695
3.662500,-103.317436,-2.805714,34.492191,-27.815695,-44.472271,-26.299644
3.668750,-105.445999,-2.804830,37.103645,-28.187819,-41.204037,-26.523239
3.675000,-105.512215,-2.804781,38.642902,-28.438061,-36.915451,-26.666759
3.681250,-103.854660,-2.805264,39.205326,-28.543005,-31.740284,-26.731483
3.687500,-100.900032,-2.806194,38.673267,-28.499882,-25.872810,-26.719467
3.693750,-97.142296,-2.808162,36.963181,-28.323261,-19.585379,-26.637999
3.700000,-93.114250,-2.811378,34.057472,-28.049690,-13.190467,-26.501041
3.706250,-87.189697,-2.815271,30.067980,-27.695070,-6.989857,-26.322456
3.712500,-81.258980,-2.818966,25.428127,-27.258608,-1.208354,-26.103159
3.718750,-75.324837,-2.822705,18.245121,-26.796951,3.971858,-25.844944
3.725000,-69.391037,-2.827040,10.370039,-26.347620,8.351110,-25.549509
3.731250,-63.456623,-2.831733,1.645257,-25.936361,11.926532,-25.242699
3.737500,-57.516716,-2.836080,-5.937968,-25.604919,15.055591,-24.974377
3.743750,-51.571808,-2.839891,-13.850968,-25.373512,17.771898,-24.753910
3.750000,-45.625431,-2.843463,-21.505901,-25.235834,20.336826,-24.585047
3.756250,-39.679909,-2.846848,-28.414478,-25.184715,21.463718,-24.418278
3.762500,-33.733593,-2.849922,-34.206051,-25.207493,23.153133,-24.248686
3.768750,-27.786770,-2.852785,-38.518696,-25.277145,25.256088,-24.090382
3.775000,-21.841122,-2.855747,-41.083416,-25.364920,26.177252,-24.000025
3.781250,-15.896628,-2.858757,-41.829754,-25.474682,27.051121,-23.946112
3.787500,-9.951256,-2.861479,-40.689121,-25.587706,27.505917,-23.914131
3.793750,-4.006090,-2.864032,-39.433498,-25.686737,27.303576,-23.898966
3.800000,1.937347,-2.866850,-36.485870,-25.777266,26.276234,-23.899822
3.806250,7.878311,-2.869999,-32.398262,-25.788475,24.393524,-23.895380
3.812500,13.818820,-2.873387,-27.600006,-25.724432,21.739347,-23.859455
3.818750,19.759434,-2.877015,-23.142305,-25.610226,18.235235,-23.803436
3.825000,25.698980,-2.881127,-17.414740,-25.461073,13.982475,-23.727619
3.831250,31.640020,-2.885375,-12.228238,-25.289804,9.200994,-23.635134
3.837500,37.583981,-2.889329,-7.436306,-25.110588,4.227876,-23.534710
3.843750,43.529377,-2.893085,-2.841694,-24.935678,-0.582050,-23.447937
3.850000,49.473217,-2.897198,1.825349,-24.762621,-4.764225,-23.340193
3.856250,55.416496,-2.901468,4.945013,-24.593096,-9.560070,-23.203053
3.862500,61.362270,-2.905257,8.311808,-24.435614,-13.311484,-23.063375
3.868750,67.309509,-2.908724,11.598594,-24.290674,-16.189079,-22.930325
3.875000,73.252449,-2.912772,14.518818,-24.148323,-18.329889,-22.804340
3.881250,79.191086,-2.917996,16.811859,-23.979273,-19.899630,-22.677269
3.887500,85.131020,-2.923620,18.173195,-23.780363,-21.117769,-22.540230
3.893750,91.077377,-2.928840,18.025146,-23.577639,-22.304150,-22.397545
3.900000,95.132950,-2.933825,18.484016,-23.344707,-23.810141,-22.252604
3.906250,98.913261,-2.939546,18.047138,-23.071337,-25.918699,-22.104137
3.912500,101.885315,-2.946353,17.009745,-22.755430,-28.928326,-21.948400
3.918750,103.562813,-2.953889,15.661218,-22.398891,-33.140717,-21.779503
3.925000,103.522133,-2.961493,14.229328,-22.013384,-38.855042,-21.586117
3.931250,101.423927,-2.968816,12.874962,-21.619345,-44.462879,-21.361422
3.937500,97.029625,-2.975821,11.748478,-21.238062,-49.876923,-21.162663
3.943750,90.216080,-2.982528,11.009941,-20.891716,-56.115520,-20.994368
3.950000,80.983955,-2.988636,10.763522,-20.599918,-62.162395,-20.861732
3.956250,69.456123,-2.993499,11.040598,-20.381561,-67.193382,-20.776258
3.962500,55.868973,-2.996814,11.817842,-20.250477,-72.374771,-20.749649
3.968750,40.559216,-2.998713,13.049066,-20.213184,-75.452553,-20.792294
3.975000,23.950642,-2.999381,14.938564,-20.263535,-76.459755,-20.912668
3.981250,6.534141,-2.998950,17.664703,-20.371132,-75.547768,-21.131802
3.987500,-11.158337,-2.997363,20.959185,-20.592062,-72.955605,-21.414879
3.993750,-28.581608,-2.994807,24.372435,-20.903727,-68.690628,-21.765453
4.000000,-45.204624,-2.991501,28.067387,-21.278645,-63.593002,-22.206062
4.006250,-60.535175,-2.987438,31.703321,-21.708782,-57.985046,-22.740953
4.012500,-74.147751,-2.982728,35.034298,-22.179350,-52.251053,-23.387777
4.018750,-85.703575,-2.977993,37.877209,-22.668903,-46.869728,-24.066929
4.025000,-94.966698,-2.973814,40.075661,-23.153490,-42.943081,-24.717113
4.031250,-101.813728,-2.970143,39.551601,-23.622587,-38.545506,-25.380655
4.037500,-106.241676,-2.966857,39.925797,-24.066748,-34.088860,-26.060925
4.043750,-108.373032,-2.964385,39.278984,-24.469896,-30.714920,-26.720831
4.050000,-108.444572,-2.962958,37.625881,-24.822367,-27.930420,-27.335407
4.056250,-106.793228,-2.962184,35.017700,-25.121773,-25.272245,-27.886793
4.062500,-103.842926,-2.961363,31.625034,-25.350975,-24.152176,-28.357922
4.068750,-100.088753,-2.960858,27.727167,-25.498459,-22.421185,-28.722368
4.075000,-96.068886,-2.961936,23.491720,-25.575890,-20.135405,-28.966007
4.081250,-90.159378,-2.964674,19.193954,-25.593933,-17.431677,-29.087002
4.087500,-84.246620,-2.967941,15.222899,-25.558683,-14.382579,-29.082840
4.093750,-78.324760,-2.970665,10.114013,-25.473339,-10.994948,-28.951637
4.100000,-72.400307,-2.973256,5.908653,-25.343498,-7.257837,-28.699617
4.106250,-66.479919,-2.976674,2.482490,-25.175070,-3.145027,-28.343988
4.112500,-60.562782,-2.981070,-0.257126,-24.971594,-0.779428,-27.912964
4.118750,-54.643600,-2.986029,-2.390639,-24.731686,1.397077,-27.377884
4.125000,-48.721088,-2.991364,-4.075608,-24.462593,3.044750,-26.766983
4.131250,-42.796124,-2.997229,-5.501907,-24.176720,3.569636,-26.119699
4.137500,-36.867855,-3.003463,-6.804520,-23.883200,2.714121,-25.465483
4.143750,-30.934675,-3.009635,-8.071611,-23.586891,2.519643,-24.826609
4.150000,-24.996971,-3.015733,-9.386707,-23.291101,1.583663,-24.220263
4.156250,-19.057196,-3.022069,-8.672135,-22.998268,0.431274,-23.656097
4.162500,-13.116109,-3.028743,-7.379695,-22.709343,-0.405233,-23.122463
4.168750,-7.172136,-3.035645,-7.005046,-22.426371,-0.485869,-22.688669
4.175000,-1.224563,-3.042686,-5.570917,-22.141554,0.316425,-22.316086
4.181250,4.726552,-3.049766,-3.365726,-21.866161,0.924771,-22.009615
4.187500,10.682361,-3.056567,-0.761878,-21.612202,2.993256,-21.768240
4.193750,16.642866,-3.062996,1.921013,-21.388433,6.203598,-21.553085
4.200000,22.607405,-3.068988,4.367791,-21.202641,10.285401,-21.412512
4.206250,28.574896,-3.074232,6.264976,-21.062408,15.641511,-21.377831
4.212500,34.545231,-3.078476,9.501738,-20.973740,19.208712,-21.438574
4.218750,40.516277,-3.081783,12.511417,-20.932005,23.646147,-21.503786
4.225000,46.485203,-3.084599,15.635812,-20.927048,26.681704,-21.602551
4.231250,52.450123,-3.087210,17.254755,-20.950378,28.302738,-21.738430
4.237500,58.412624,-3.089559,19.224514,-20.988670,28.264414,-21.899004
4.243750,64.372650,-3.091477,21.156174,-21.047083,28.495989,-22.069836
4.250000,70.331993,-3.092982,22.585283,-21.130999,27.390173,-22.249125
4.256250,76.289505,-3.093976,23.219753,-21.222918,25.292501,-22.428707
4.262500,82.243126,-3.094746,22.734076,-21.305525,22.647524,-22.593082
4.268750,88.191208,-3.095799,20.782515,-21.364698,19.869776,-22.725634
4.275000,94.131866,-3.097766,19.234818,-21.392368,17.331461,-22.813051
4.281250,98.173851,-3.100551,16.464228,-21.380749,15.365339,-22.843496
4.287500,101.943100,-3.103717,12.754281,-21.319567,14.265978,-22.799833
4.293750,104.906372,-3.107640,8.358559,-21.207129,14.222528,-22.660717
4.300000,106.569336,-3.112936,3.475348,-21.053867,15.141596,-22.474964
4.306250,106.508766,-3.119201,-1.634433,-20.863890,16.881489,-22.244776
4.312500,104.390869,-3.125242,-6.693262,-20.642103,19.558363,-21.967701
4.318750,99.978935,-3.130708,-11.473170,-20.395788,23.004797,-21.650846
4.325000,93.144287,-3.136484,-15.800510,-20.138485,26.971201,-21.308783
4.331250,83.884163,-3.143102,-19.554338,-19.887026,31.158531,-20.958908
4.337500,72.325844,-3.149900,-22.635126,-19.659670,35.269638,-20.616268
4.343750,58.711590,-3.155912,-24.993460,-19.490303,39.011162,-20.289351
4.350000,43.380417,-3.161057,-24.448048,-19.352568,42.113289,-19.964716
4.356250,26.755449,-3.165504,-23.755075,-19.250877,44.110069,-19.715523
4.362500,9.328463,-3.168822,-21.570055,-19.237896,46.829678,-19.550159
4.368750,-8.367514,-3.170885,-17.858179,-19.320068,48.879192,-19.486734
4.375000,-25.790323,-3.172085,-12.722497,-19.496008,50.621414,-19.575565
4.381250,-42.410484,-3.172648,-6.379227,-19.757116,52.394562,-19.734138
4.387500,-57.734215,-3.172296,0.893461,-20.086699,53.867954,-19.953762
4.393750,-71.331993,-3.170675,8.747039,-20.465067,56.136765,-20.224556
4.400000,-82.869324,-3.168546,16.757641,-20.877502,57.599812,-20.620230
4.406250,-92.112038,-3.166508,22.595877,-21.311604,59.759514,-21.094877
4.412500,-98.935913,-3.164201,29.664246,-21.751070,62.096989,-21.617113
4.418750,-103.338173,-3.161190,35.751148,-22.179321,64.344955,-22.162462
4.425000,-105.442566,-3.158041,40.600857,-22.578224,66.306198,-22.707478
4.431250,-105.491150,-3.155466,44.123596,-22.905233,67.883766,-23.209242
4.437500,-103.822113,-3.153357,46.240448,-23.151428,69.025658,-23.637655
4.443750,-100.858757,-3.151426,46.875210,-23.321419,69.577217,-23.980747
4.450000,-97.094574,-3.150110,46.188427,-23.415560,69.539970,-24.226084
4.456250,-93.065590,-3.150404,44.465267,-23.432287,69.029243,-24.363552
4.462500,-87.146851,-3.152084,42.076218,-23.373642,68.194046,-24.388710
4.468750,-81.225525,-3.154310,39.476017,-23.246231,67.221825,-24.302826
4.475000,-75.300499,-3.156934,35.271767,-23.066200,66.338326,-24.121908
4.481250,-69.375610,-3.160369,31.626976,-22.843023,65.832474,-23.849522
4.487500,-63.450207,-3.164633,28.624935,-22.574011,64.301888,-23.470581
4.493750,-57.521252,-3.169075,26.183798,-22.283813,63.476925,-23.026865
4.500000,-51.589882,-3.174124,24.196074,-21.997025,62.987572,-22.553345
4.506250,-45.659260,-3.180537,22.649645,-21.729269,62.595985,-22.077269
4.512500,-39.725414,-3.187879,21.549599,-21.486626,62.089699,-21.619665
4.518750,-33.780659,-3.194806,20.883343,-21.263878,61.252098,-21.197479
4.525000,-27.823717,-3.200519,20.612349,-21.029053,59.854851,-20.825716
4.531250,-21.861860,-3.205699,20.633982,-20.810760,57.626083,-20.540548
4.537500,-15.901874,-3.211255,22.240456,-20.661610,54.165962,-20.337112
4.543750,-9.940156,-3.216989,22.601023,-20.545168,50.743828,-20.190346
4.550000,-3.971704,-3.222064,23.731789,-20.442020,45.931793,-20.115852
4.556250,2.003976,-3.226074,25.162392,-20.372519,40.063896,-20.071960
4.562500,7.983061,-3.229415,26.457241,-20.357548,33.437984,-20.142067
4.568750,13.963643,-3.232189,27.283951,-20.419502,27.174444,-20.337364
4.575000,19.945395,-3.234300,27.350172,-20.586025,20.973318,-20.704861
4.581250,25.930580,-3.235442,26.419615,-20.942839,14.688867,-21.062025
4.587500,31.917540,-3.235299,26.768185,-21.324181,9.068370,-21.497440
4.593750,37.903908,-3.233981,25.243160,-21.814600,4.521131,-22.017992
4.600000,43.886990,-3.231871,23.468586,-22.426495,1.140599,-22.610641
4.606250,49.865128,-3.229000,21.482506,-23.156536,-1.092965,-23.255655
4.612500,55.838333,-3.225366,19.264688,-24.006727,-2.320629,-23.945847
4.618750,61.804768,-3.221411,16.987343,-24.926903,-2.750612,-24.661688
4.625000,67.761086,-3.217907,14.722621,-25.893358,-2.532840,-25.378187
4.631250,73.709862,-3.214791,12.464282,-26.876953,-1.920662,-26.075939
4.637500,79.655724,-3.211082,10.301205,-27.840626,-1.229867,-26.741211
4.643750,85.599388,-3.206592,6.455305,-28.739880,-0.795037,-27.353092
4.650000,91.533150,-3.202546,2.661745,-29.525633,-1.000094,-27.867926
4.656250,97.451630,-3.200361,0.640086,-30.147791,-2.205296,-28.249466
4.662500,101.464104,-3.200157,-1.447602,-30.571507,-4.706497,-28.491699
4.668750,105.200729,-3.201231,-3.660469,-30.791225,-6.904115,-28.621742
4.675000,108.131813,-3.203473,-5.940168,-30.791851,-10.386114,-28.622515
4.681250,109.764664,-3.207116,-8.185400,-30.566650,-14.856403,-28.485737
4.687500,109.673737,-3.211859,-10.382606,-30.127548,-20.098843,-28.215117
4.693750,107.519829,-3.217569,-12.568558,-29.505507,-25.897053,-27.823273
4.700000,103.064774,-3.224710,-14.783296,-28.747274,-31.978298,-27.323166
4.706250,96.186134,-3.233797,-17.132284,-27.894449,-38.032917,-26.725418
4.712500,86.890343,-3.243892,-19.992599,-26.943377,-43.728714,-26.025105
4.718750,75.307404,-3.253448,-23.353939,-25.952641,-48.645561,-25.274248
