Anritsu VNA Frequency[GHz],S21[deg],S21[dB],S11[deg],S11[dB],S22[deg],S22[dB]
1338060897.41,2012_05_26_20:34:57,+54.303,+127.71,+106.23,+127.97,+133.51,+135.61,+131.18,+132.82,130.021927,-7.782
3.006250,41.374577,-2.290214,65.866867,-27.145229,-80.001968,-28.075380
3.012500,41.374577,-2.290214,65.866867,-27.145229,-80.001968,-28.075380
3.018750,41.374577,-2.290214,65.866867,-27.145229,-80.001968,-28.075380
3.025000,41.374577,-2.290214,65.866867,-27.145229,-80.001968,-28.075380
3.031250,41.374577,-2.290214,65.866867,-27.145229,-80.001968,-28.075380
3.037500,41.374577,-2.290214,65.866867,-27.145229,-80.001968,-28.075380
3.043750,41.374577,-2.290214,65.866867,-27.145229,-80.001968,-28.075380
3.050000,41.374577,-2.290214,65.866867,-27.145229,-80.001968,-28.075380
3.056250,41.374577,-2.290214,65.866867,-27.145229,-80.001968,-28.075380
3.062500,41.374577,-2.290214,65.866867,-27.145229,-80.001968,-28.075380
3.068750,41.374577,-2.290214,65.866867,-27.145229,-80.001968,-28.075380
3.075000,41.374577,-2.290214,65.866867,-27.145229,-80.001968,-28.075380
3.081250,41.374577,-2.290214,65.866867,-27.145229,-80.001968,-28.075380
3.087500,41.374577,-2.290214,65.866867,-27.145229,-80.001968,-28.075380
3.093750,41.374577,-2.292421,65.866867,-26.953663,-80.001968,-27.867359
3.100000,47.299244,-2.294985,62.466797,-26.792124,-80.178101,-27.653435
3.106250,53.223434,-2.297693,58.192539,-26.688120,-79.486748,-27.434811
3.112500,59.148682,-2.300440,51.636391,-26.657280,-77.656380,-27.193821
3.118750,65.073524,-2.303334,44.929707,-26.696655,-74.469437,-26.883106
3.125000,70.997253,-2.306375,38.697289,-26.718100,-69.971222,-26.571823
3.131250,76.920425,-2.309542,32.630421,-26.763262,-64.205490,-26.234028
3.137500,82.842766,-2.313022,26.891930,-26.839224,-56.820351,-25.857864
3.143750,88.763649,-2.317072,21.760124,-26.940947,-47.901588,-25.451599
3.150000,94.684853,-2.321462,17.511047,-27.056484,-37.573677,-25.029705
3.156250,98.714241,-2.325681,14.377141,-27.172094,-27.886248,-24.612032
3.162500,102.472580,-2.329643,12.537363,-27.272808,-17.397429,-24.222498
3.168750,105.425674,-2.333630,12.124276,-27.345247,-6.835457,-23.897015
3.175000,107.079971,-2.337875,13.265006,-27.371033,3.138640,-23.636620
3.181250,107.009560,-2.342195,14.261051,-27.335333,12.394897,-23.392242
3.187500,104.876007,-2.346383,16.784634,-27.249817,20.012264,-23.201000
3.193750,100.441719,-2.350375,20.152607,-27.122318,25.655682,-23.082043
3.200000,93.584488,-2.354067,23.786894,-26.958519,29.221199,-23.043140
3.206250,84.304405,-2.357397,27.206682,-26.766821,30.651247,-23.082573
3.212500,72.721893,-2.360505,29.971888,-26.559620,29.979362,-23.203787
3.218750,59.072216,-2.363740,31.718420,-26.349546,27.377523,-23.422722
3.225000,43.697033,-2.366928,34.357685,-26.137661,22.858049,-23.644468
3.231250,27.025408,-2.369613,36.360680,-25.922878,16.651842,-23.886513
3.237500,9.549035,-2.371952,36.156967,-25.709312,9.323567,-24.148136
3.243750,-8.203215,-2.374444,35.732323,-25.486612,2.983152,-24.410954
3.250000,-25.686047,-2.377430,34.895935,-25.261555,-3.808306,-24.654034
3.256250,-42.363434,-2.380596,33.196934,-25.076189,-10.399431,-24.867363
3.262500,-57.740059,-2.383420,30.632318,-24.915808,-16.178934,-25.040995
3.268750,-71.390038,-2.385878,27.132826,-24.774782,-20.535240,-25.164000
3.275000,-82.975525,-2.388313,22.515209,-24.652817,-22.981504,-25.231739
3.281250,-92.261093,-2.391101,16.616793,-24.542603,-23.165499,-25.245459
3.287500,-99.123550,-2.394267,9.309669,-24.433060,-20.907150,-25.212614
3.293750,-103.560555,-2.397572,2.694064,-24.300646,-16.191519,-25.135237
3.300000,-105.692551,-2.400756,-4.617546,-24.127142,-9.137829,-25.012449
3.306250,-105.756386,-2.403696,-12.787528,-24.001326,-0.011096,-24.863514
3.312500,-104.093613,-2.406423,-21.020578,-23.890158,10.761943,-24.715273
3.318750,-101.132324,-2.409149,-28.890301,-23.793457,22.651335,-24.590490
3.325000,-97.364960,-2.411726,-36.135551,-23.723095,35.078457,-24.503508
3.331250,-93.323067,-2.414038,-42.515907,-23.696571,47.435585,-24.461517
3.337500,-87.385223,-2.415955,-47.856735,-23.748037,61.257587,-24.467581
3.343750,-81.447121,-2.417554,-52.041382,-23.914164,74.572876,-24.516111
3.350000,-75.509354,-2.418812,-55.800602,-24.081034,85.455467,-24.576050
3.356250,-69.572060,-2.419764,-58.571548,-24.331085,95.470428,-24.646637
3.362500,-63.636101,-2.420571,-58.590916,-24.697451,103.483833,-24.784832
3.368750,-57.702309,-2.421093,-57.614429,-25.174694,109.338142,-24.971277
3.375000,-51.769077,-2.421112,-55.542328,-25.742443,112.631111,-25.221340
3.381250,-45.837231,-2.420651,-52.398026,-26.371532,113.091545,-25.511051
3.387500,-39.910713,-2.420342,-48.294113,-27.027798,111.040398,-25.790005
3.393750,-33.990067,-2.420674,-43.402931,-27.670885,106.140701,-26.067459
3.400000,-28.072479,-2.421411,-37.944050,-28.258102,98.697060,-26.304529
3.406250,-22.154797,-2.421934,-32.219028,-28.762625,89.565384,-26.571836
3.412500,-16.237154,-2.422475,-26.566179,-29.161470,79.614143,-26.830669
3.418750,-10.323555,-2.423709,-20.949724,-29.430790,69.461243,-27.053881
3.425000,-4.413616,-2.425813,-15.359034,-29.559694,57.883785,-27.230965
3.431250,1.497930,-2.428188,-10.068468,-29.551228,47.214703,-27.361517
3.437500,7.413360,-2.430378,-5.287772,-29.406124,37.905144,-27.452374
3.443750,13.328650,-2.433022,-1.042032,-29.104805,30.524406,-27.458452
3.450000,19.242100,-2.436579,2.442411,-28.681543,23.543285,-27.391312
3.456250,25.157999,-2.440520,5.045344,-28.171688,18.668758,-27.264206
3.462500,31.081387,-2.443961,6.862765,-27.613960,15.578807,-27.080372
3.468750,37.010281,-2.446762,8.107265,-27.049820,13.944814,-26.838037
3.475000,42.939690,-2.449300,9.030129,-26.526581,13.415890,-26.546389
3.481250,48.867966,-2.451861,9.954148,-26.060595,13.605340,-26.221205
3.487500,54.795383,-2.454560,9.672465,-25.630865,14.124636,-25.859480
3.493750,60.721710,-2.457659,9.876724,-25.282598,14.567565,-25.464468
3.500000,66.647408,-2.461146,10.343603,-25.032274,14.503534,-25.047157
3.506250,72.575439,-2.464575,10.999793,-24.875990,13.592196,-24.618534
3.512500,78.507355,-2.467308,11.767292,-24.794024,11.563770,-24.188641
3.518750,84.440025,-2.469781,12.592724,-24.737589,8.220395,-23.763781
3.525000,90.367935,-2.472987,13.424813,-24.642143,3.422959,-23.349894
3.531250,96.291214,-2.477304,15.095886,-24.606104,-0.777006,-22.960070
3.537500,100.320778,-2.482089,17.033590,-24.553301,-5.815377,-22.610516
3.543750,104.083008,-2.486548,19.359608,-24.465054,-11.228392,-22.316858
3.550000,107.043427,-2.491076,22.253244,-24.328413,-16.709249,-22.040813
3.556250,108.705505,-2.496130,24.060822,-24.128391,-21.940367,-21.761204
3.562500,108.644493,-2.501582,26.460663,-23.886845,-26.505842,-21.510513
3.568750,106.525581,-2.506435,28.938177,-23.629820,-30.819323,-21.350452
3.575000,102.113350,-2.510073,31.086155,-23.383707,-34.576168,-21.272202
3.581250,95.281441,-2.512543,32.526806,-23.180824,-37.923561,-21.302107
3.587500,86.025345,-2.514469,32.921944,-23.056339,-39.390530,-21.390007
3.593750,74.465233,-2.515979,32.061737,-23.019077,-41.232971,-21.542587
3.600000,60.841305,-2.516565,32.078617,-23.064856,-42.927048,-21.782413
3.606250,45.495865,-2.515878,31.341496,-23.211708,-44.414528,-22.105413
3.612500,28.851660,-2.514169,30.245127,-23.458130,-45.729092,-22.489376
3.618750,11.396786,-2.511974,29.210386,-23.801235,-46.976913,-22.900513
3.625000,-6.335037,-2.509238,28.467052,-24.263792,-48.498920,-23.366001
3.631250,-23.796093,-2.505714,28.445587,-24.814972,-48.376766,-23.860590
3.637500,-40.456093,-2.501736,29.516863,-25.418776,-47.986050,-24.352352
3.643750,-55.827042,-2.497997,31.850569,-26.037497,-47.049717,-24.818398
3.650000,-69.481567,-2.494934,33.596317,-26.629145,-45.400330,-25.238783
3.656250,-81.076324,-2.492513,36.319481,-27.136951,-42.942379,-25.595636
3.662500,-90.372337,-2.490780,39.276115,-27.536003,-39.637913,-25.878305
3.668750,-97.248421,-2.489968,43.465591,-27.848038,-35.558605,-26.089804
3.675000,-101.702507,-2.489862,46.999493,-28.035482,-30.832268,-26.232828
3.681250,-103.853668,-2.490111,49.701542,-28.086210,-25.610527,-26.306927
3.687500,-103.939819,-2.490827,51.325626,-28.005592,-20.111853,-26.315115
3.693750,-102.304092,-2.492695,51.689545,-27.815758,-14.604618,-26.266392
3.700000,-99.373016,-2.495783,50.708813,-27.545820,-9.361292,-26.174782
3.706250,-95.632828,-2.499261,48.539421,-27.189306,-4.595942,-26.046207
3.712500,-91.613655,-2.502541,45.269188,-26.785973,-0.419583,-25.874908
3.718750,-85.697357,-2.505913,39.047783,-26.375507,3.027440,-25.664959
3.725000,-79.782196,-2.509939,31.765762,-25.983850,5.677594,-25.419628
3.731250,-73.865639,-2.514124,23.207832,-25.640253,7.781340,-25.187319
3.737500,-67.943916,-2.517907,15.310324,-25.384251,9.664794,-24.987722
3.743750,-62.018444,-2.521232,6.715718,-25.217916,11.458460,-24.835905
3.750000,-56.093109,-2.524474,-1.964932,-25.130178,13.610275,-24.701328
3.756250,-50.168968,-2.527580,-10.250710,-25.114681,14.949105,-24.556189
3.762500,-44.243961,-2.530385,-17.714878,-25.155622,17.278795,-24.390917
3.768750,-38.319035,-2.533063,-23.906181,-25.220732,18.525095,-24.263767
3.775000,-32.395302,-2.535956,-28.504578,-25.300737,20.448811,-24.180050
3.781250,-26.472321,-2.538928,-31.415112,-25.398056,22.280212,-24.118080
3.787500,-20.548885,-2.541543,-32.307858,-25.488230,23.669825,-24.068071
3.793750,-14.625515,-2.544104,-31.026646,-25.567720,24.346689,-24.029455
3.800000,-8.704062,-2.546995,-29.435444,-25.635422,24.129021,-24.000240
3.806250,-2.784402,-2.550220,-25.503004,-25.601009,23.004642,-23.949286
3.812500,3.135756,-2.553628,-20.266197,-25.514391,20.969549,-23.870234
3.818750,9.055879,-2.557321,-14.474989,-25.393854,17.916714,-23.771599
3.825000,14.975694,-2.561450,-8.702090,-25.252657,13.957486,-23.657749
3.831250,20.898104,-2.565483,-1.324975,-25.102917,9.347832,-23.535570
3.837500,26.823994,-2.569117,5.809749,-24.957310,4.424563,-23.422338
3.843750,32.749947,-2.572708,12.806890,-24.819820,-0.445894,-23.341845
3.850000,38.674129,-2.576729,17.954067,-24.681768,-4.495437,-23.209885
3.856250,44.598221,-2.580784,22.972820,-24.548943,-9.416293,-23.074614
3.862500,50.525749,-2.584225,27.398968,-24.424566,-13.352036,-22.952337
3.868750,56.453819,-2.587507,30.880743,-24.301071,-16.382336,-22.844707
3.875000,62.376602,-2.591588,33.116272,-24.159903,-18.620771,-22.745642
3.881250,68.295364,-2.596914,33.835220,-23.979433,-20.232153,-22.641241
3.887500,74.216652,-2.602551,32.642517,-23.784159,-21.468374,-22.526054
3.893750,80.144890,-2.607679,29.335428,-23.560072,-22.699358,-22.407549
3.900000,86.075989,-2.612854,26.105698,-23.292189,-24.234760,-22.282051
3.906250,92.004890,-2.618930,21.541828,-22.977011,-26.364050,-22.146332
3.912500,96.037910,-2.626050,16.130066,-22.616722,-29.426146,-21.997017
3.918750,99.802757,-2.633694,10.359394,-22.216642,-31.855038,-21.825575
3.925000,102.770081,-2.641253,4.641492,-21.796112,-35.591049,-21.614544
3.931250,104.447815,-2.648461,-0.675242,-21.381273,-40.446117,-21.393976
3.937500,104.407051,-2.655252,-5.227925,-20.994278,-44.320423,-21.203854
3.943750,102.306168,-2.661579,-8.686004,-20.657564,-48.105606,-21.045906
3.950000,97.909218,-2.667023,-10.833937,-20.392645,-51.035316,-20.930407
3.956250,91.094475,-2.670988,-11.562146,-20.218517,-52.478386,-20.870577
3.962500,81.860542,-2.673268,-10.849334,-20.146967,-51.898724,-20.878975
3.968750,70.325233,-2.674132,-8.736050,-20.179937,-48.862770,-20.964779
3.975000,56.722488,-2.673733,-7.221848,-20.299902,-43.081356,-21.136971
3.981250,41.391537,-2.672138,-2.690658,-20.487648,-36.316113,-21.434418
3.987500,24.758837,-2.669401,2.222394,-20.813757,-26.834692,-21.772196
3.993750,7.314481,-2.665717,7.672292,-21.209599,-15.210442,-22.200342
4.000000,-10.409653,-2.661403,13.325911,-21.664854,-2.500791,-22.729712
4.006250,-27.867119,-2.656364,18.756317,-22.168129,10.580532,-23.370441
4.012500,-44.526955,-2.650917,23.672024,-22.698095,23.245840,-24.110056
4.018750,-59.899208,-2.645823,27.830839,-23.226980,34.043007,-24.822170
4.025000,-73.556572,-2.641452,30.996931,-23.733614,44.611855,-25.504511
4.031250,-85.155525,-2.637609,33.178646,-24.210863,52.083336,-26.229662
4.037500,-94.456032,-2.634243,34.497562,-24.642916,58.447701,-26.941204
4.043750,-101.338554,-2.631907,34.895100,-25.014551,62.316528,-27.605499
4.050000,-105.802109,-2.630807,34.317814,-25.321529,64.092186,-28.200649
4.056250,-107.963531,-2.630263,32.779533,-25.560280,64.276093,-28.712370
4.062500,-108.056953,-2.629534,30.448797,-25.708696,61.603783,-29.119261
4.068750,-106.427208,-2.629331,27.493708,-25.772284,58.451672,-29.395638
4.075000,-103.507462,-2.630961,24.037729,-25.766323,54.943657,-29.540342
4.081250,-99.785049,-2.634067,20.377617,-25.702442,51.257492,-29.555128
4.087500,-95.783760,-2.637351,16.896963,-25.588091,47.688988,-29.439085
4.093750,-89.878616,-2.640038,12.124806,-25.428894,44.592896,-29.193989
4.100000,-83.972626,-2.642751,8.100462,-25.234497,40.156708,-28.832935
4.106250,-78.071075,-2.646349,4.718836,-25.011866,36.089390,-28.383457
4.112500,-72.171333,-2.650727,1.924988,-24.759056,32.251637,-27.851652
4.118750,-66.268883,-2.655520,-0.357183,-24.479866,28.763136,-27.222601
4.125000,-60.364025,-2.660776,-2.322626,-24.187838,25.271286,-26.542887
4.131250,-54.457684,-2.666619,-4.108130,-23.894245,21.630039,-25.846836
4.137500,-48.547409,-2.672708,-5.797172,-23.605471,17.835855,-25.161737
4.143750,-42.631252,-2.678593,-7.442899,-23.323814,13.924490,-24.508057
4.150000,-36.711349,-2.684440,-9.107103,-23.050320,9.930722,-23.901913
4.156250,-30.790194,-2.690577,-8.697152,-22.784386,5.895616,-23.349596
4.162500,-24.867798,-2.697068,-7.650857,-22.523867,4.022589,-22.827148
4.168750,-18.941992,-2.703687,-7.450302,-22.260939,2.765847,-22.416979
4.175000,-13.012372,-2.710482,-6.147673,-22.000307,0.840614,-22.066200
4.181250,-7.078950,-2.717201,-4.093279,-21.753139,0.239085,-21.783148
4.187500,-1.140872,-2.723631,-1.585774,-21.526972,0.726053,-21.545218
4.193750,4.801861,-2.729730,1.059337,-21.328346,2.110674,-21.333330
4.200000,10.748516,-2.735271,3.514602,-21.164965,4.929083,-21.239002
4.206250,16.698212,-2.740006,5.459443,-21.043959,6.328711,-21.234524
4.212500,22.650677,-2.743695,8.790781,-20.967813,7.348570,-21.265070
4.218750,28.602972,-2.746568,11.944370,-20.926836,8.971567,-21.316301
4.225000,34.552197,-2.749122,15.230908,-20.914024,9.230348,-21.400291
4.231250,40.497066,-2.751468,16.998287,-20.919594,8.027521,-21.511019
4.237500,46.439552,-2.753600,19.088627,-20.934153,5.239782,-21.630814
4.243750,52.379814,-2.755411,21.054335,-20.973505,2.893388,-21.752611
4.250000,58.318672,-2.756849,22.486021,-21.030628,-0.544201,-21.880119
4.256250,64.255836,-2.757840,23.098799,-21.087639,-4.552709,-21.999325
4.262500,70.188866,-2.758745,22.518774,-21.126158,-8.608459,-22.096201
4.268750,76.115540,-2.760180,20.387012,-21.140278,-12.259361,-22.157015
4.275000,82.034935,-2.762611,18.575138,-21.120258,-15.109502,-22.171766
4.281250,87.952133,-2.765769,15.444342,-21.057318,-16.818623,-22.128685
4.287500,93.870682,-2.769309,11.269038,-20.942513,-17.122637,-22.006151
4.293750,97.894295,-2.773732,6.268353,-20.785789,-15.934949,-21.815590
4.300000,101.642792,-2.779495,0.653565,-20.596689,-13.592542,-21.600716
4.306250,104.589706,-2.785841,-5.238224,-20.377331,-9.996161,-21.350843
4.312500,106.248741,-2.791583,-11.118782,-20.134932,-5.282233,-21.069874
4.318750,106.190468,-2.796768,-16.745274,-19.879738,0.248938,-20.768036
4.325000,104.066658,-2.802349,-21.920105,-19.628548,6.231513,-20.461103
4.331250,99.639931,-2.808501,-26.488380,-19.400475,12.269578,-20.165100
4.337500,92.795105,-2.814368,-30.312754,-19.219433,17.982267,-19.890448
4.343750,83.535667,-2.819207,-33.318680,-19.141266,23.012379,-19.625336
4.350000,71.979324,-2.823177,-34.659267,-19.041950,27.009026,-19.400301
4.356250,58.360706,-2.826242,-34.667187,-19.037260,31.376740,-19.259583
4.362500,43.020294,-2.827965,-33.384850,-19.139835,34.770462,-19.209126
4.368750,26.384468,-2.828409,-30.744459,-19.346758,37.506046,-19.272020
4.375000,8.939958,-2.828170,-26.827805,-19.649218,39.891598,-19.468796
4.381250,-8.782186,-2.827444,-21.796675,-20.030237,41.703751,-19.696175
4.387500,-26.232412,-2.825718,-15.870872,-20.465807,43.697723,-19.973751
4.393750,-42.877602,-2.822904,-9.353591,-20.934435,46.374008,-20.341717
4.400000,-58.232224,-2.820017,-2.619737,-21.421389,48.075008,-20.797949
4.406250,-71.870453,-2.817398,2.078837,-21.909340,50.109032,-21.307621
4.412500,-83.447357,-2.814523,8.221054,-22.380262,52.153793,-21.845646
4.418750,-92.723793,-2.811172,13.639580,-22.820778,53.979092,-22.392250
4.425000,-99.582085,-2.808098,18.149918,-23.195503,55.441189,-22.916149
4.431250,-104.025696,-2.805931,21.731510,-23.473427,56.534084,-23.372124
4.437500,-106.171577,-2.804218,24.167734,-23.660252,57.119942,-23.746811
4.443750,-106.253731,-2.802699,25.458897,-23.762657,57.114307,-24.030497
4.450000,-104.615486,-2.802042,25.777576,-23.781769,56.604256,-24.212412
4.456250,-101.686623,-2.803060,25.376945,-23.720314,55.745220,-24.285851
4.462500,-97.953911,-2.805171,24.579170,-23.585447,54.709976,-24.251003
4.468750,-93.944199,-2.807657,23.778532,-23.391258,53.708164,-24.117277
4.475000,-88.037125,-2.810752,21.520283,-23.156265,52.987434,-23.906202
4.481250,-82.130196,-2.814718,19.952469,-22.874470,51.084743,-23.582289
4.487500,-76.220535,-2.819126,19.007242,-22.564249,49.948204,-23.177687
4.493750,-70.305771,-2.823452,18.441462,-22.254530,49.072609,-22.730797
4.500000,-64.389915,-2.828424,18.144381,-21.965343,48.217087,-22.270145
4.506250,-58.476299,-2.834841,18.055162,-21.706989,47.192234,-21.817698
4.512500,-52.558186,-2.841910,18.119804,-21.478403,45.818180,-21.389511
4.518750,-46.628330,-2.848188,18.271555,-21.261488,43.909012,-20.999296
4.525000,-40.687805,-2.853319,18.425266,-20.989382,41.252399,-20.669277
4.531250,-34.745258,-2.858240,19.958166,-20.819431,37.550255,-20.443558
4.537500,-28.804962,-2.863624,21.687979,-20.689028,34.134457,-20.254337
4.543750,-22.861166,-2.868924,22.284143,-20.563095,29.319851,-20.130735
4.550000,-16.909729,-2.873348,23.555727,-20.454575,23.670662,-20.065367
4.556250,-10.952197,-2.876788,25.014875,-20.386129,17.467793,-20.035515
4.562500,-4.992594,-2.879615,26.304441,-20.376812,11.626502,-20.142786
4.568750,0.967637,-2.881927,27.115204,-20.449526,6.134807,-20.367842
4.575000,6.929695,-2.883500,27.154325,-20.639612,1.180307,-20.667110
4.581250,12.894822,-2.884020,26.187260,-20.956718,-3.387490,-21.005173
4.587500,18.860777,-2.883339,25.094177,-21.328936,-6.811883,-21.409903
4.593750,24.825680,-2.881651,23.294117,-21.805143,-8.967336,-21.879772
4.600000,30.786697,-2.879222,20.798153,-22.390051,-9.883484,-22.398380
4.606250,36.742916,-2.875984,17.620564,-23.113976,-9.727575,-22.956255
4.612500,42.694767,-2.871940,13.847253,-23.922531,-8.831831,-23.552687
4.618750,48.638470,-2.867788,9.906460,-24.792969,-7.410980,-24.164501
4.625000,54.571316,-2.864308,5.668278,-25.712173,-5.756878,-24.773470
4.631250,60.497383,-2.861127,1.334294,-26.650690,-4.226213,-25.365946
4.637500,66.422028,-2.857244,-2.863410,-27.569675,-3.201427,-25.929626
4.643750,72.343330,-2.852809,-8.583622,-28.422152,-3.063966,-26.436132
4.650000,78.253510,-2.849226,-13.993288,-29.155453,-4.188159,-26.845009
4.656250,84.148804,-2.847636,-17.313551,-29.721384,-6.876712,-27.123159
4.662500,90.036209,-2.847818,-20.404428,-30.108286,-9.410181,-27.310202
4.668750,95.922447,-2.849159,-23.239017,-30.297981,-13.526971,-27.393261
4.675000,99.914009,-2.851824,-25.658737,-30.273642,-18.768867,-27.358530
4.681250,103.632759,-2.855867,-27.620893,-30.033056,-24.856056,-27.202641
4.687500,106.548775,-2.860815,-29.159771,-29.593618,-31.521246,-26.933163
4.693750,108.169846,-2.866667,-30.362589,-28.989807,-38.473640,-26.562567
4.700000,108.066933,-2.874181,-31.342728,-28.268795,-45.365135,-26.098501
4.706250,105.899788,-2.883551,-32.382359,-27.431166,-51.824730,-25.540489
4.712500,101.440582,-2.893430,-33.842472,-26.509935,-57.469929,-24.881453
4.718750,94.573441,-2.902368,-35.762741,-25.560484,-63.742546,-24.230076
