Anritsu VNA Frequency[GHz],S21[deg],S21[dB],S11[deg],S11[dB],S22[deg],S22[dB]
1338097193.48,2012_05_27_06:39:53,+40.458,+10.239,+54.762,+10.249,+13.886,+13.695,+13.991,+13.741,10.334174,-16.025
3.006250,33.094402,-1.744273,58.424194,-26.688856,-81.423058,-27.419256
3.012500,33.094402,-1.744273,58.424194,-26.688856,-81.423058,-27.419256
3.018750,33.094402,-1.744273,58.424194,-26.688856,-81.423058,-27.419256
3.025000,33.094402,-1.744273,58.424194,-26.688856,-81.423058,-27.419256
3.031250,33.094402,-1.744273,58.424194,-26.688856,-81.423058,-27.419256
3.037500,33.094402,-1.744273,58.424194,-26.688856,-81.423058,-27.419256
3.043750,33.094402,-1.744273,58.424194,-26.688856,-81.423058,-27.419256
3.050000,33.094402,-1.744273,58.424194,-26.688856,-81.423058,-27.419256
3.056250,33.094402,-1.744273,58.424194,-26.688856,-81.423058,-27.419256
3.062500,33.094402,-1.744273,58.424194,-26.688856,-81.423058,-27.419256
3.068750,33.094402,-1.744273,58.424194,-26.688856,-81.423058,-27.419256
3.075000,33.094402,-1.744273,58.424194,-26.688856,-81.423058,-27.419256
3.081250,33.094402,-1.744273,58.424194,-26.688856,-81.423058,-27.419256
3.087500,33.094402,-1.744273,58.424194,-26.688856,-81.423058,-27.419256
3.093750,33.094402,-1.746069,58.424194,-26.489464,-81.423058,-27.167126
3.100000,38.998470,-1.748149,55.761131,-26.342018,-83.352463,-26.932611
3.106250,44.902683,-1.750234,52.226749,-26.267801,-83.684319,-26.717625
3.112500,50.807579,-1.752329,48.165855,-26.285610,-82.061340,-26.493044
3.118750,56.711525,-1.754626,42.187805,-26.334263,-80.325027,-26.191034
3.125000,62.614624,-1.757067,37.403858,-26.383106,-76.207916,-25.928553
3.131250,68.517479,-1.759625,33.036507,-26.458515,-70.029854,-25.639084
3.137500,74.419281,-1.762493,29.345877,-26.562183,-62.138622,-25.313608
3.143750,80.319672,-1.765901,26.530651,-26.683840,-52.713467,-24.960255
3.150000,86.221001,-1.769592,24.770676,-26.809076,-41.909580,-24.591770
3.156250,92.125587,-1.773048,24.183928,-26.923450,-29.899313,-24.226830
3.162500,96.137856,-1.776240,24.839663,-27.013397,-16.880333,-23.888363
3.168750,99.877007,-1.779567,26.753651,-27.072170,-3.062599,-23.626705
3.175000,102.809654,-1.783147,29.977837,-27.078409,9.494327,-23.382702
3.181250,104.445702,-1.786815,32.748611,-27.019346,22.827904,-23.162436
3.187500,104.359222,-1.790316,36.529045,-26.912359,35.606976,-22.996950
3.193750,102.209213,-1.793542,40.616337,-26.769669,47.347290,-22.902729
3.200000,97.758026,-1.796451,44.441010,-26.599739,57.637043,-22.881256
3.206250,90.884117,-1.799000,47.524933,-26.413460,66.083961,-22.933786
3.212500,81.585587,-1.801327,49.448799,-26.225098,72.376915,-23.067791
3.218750,69.982643,-1.803904,49.901890,-26.045387,76.287895,-23.265532
3.225000,56.313732,-1.806304,50.884068,-25.868383,77.445190,-23.472149
3.231250,40.921753,-1.808141,50.929066,-25.694260,76.022942,-23.696369
3.237500,24.231812,-1.809678,48.550278,-25.522533,74.023056,-23.929504
3.243750,6.732155,-1.811479,45.856960,-25.329077,69.860550,-24.149010
3.250000,-11.044643,-1.813867,42.717651,-25.156401,64.137665,-24.335804
3.256250,-28.547678,-1.816391,38.770081,-25.015852,57.412117,-24.488932
3.262500,-45.242893,-1.818539,34.262676,-24.890522,50.309563,-24.597382
3.268750,-60.639057,-1.820352,29.135317,-24.776756,43.530754,-24.652092
3.275000,-74.312164,-1.822284,23.264896,-24.673580,37.659061,-24.653379
3.281250,-85.922539,-1.824617,16.543251,-24.572109,33.198132,-24.608908
3.287500,-95.231155,-1.827295,8.873182,-24.458729,30.530485,-24.532848
3.293750,-102.113861,-1.830109,0.221870,-24.294664,29.918884,-24.424870
3.300000,-106.570366,-1.832838,-7.236087,-24.126942,31.522625,-24.286119
3.306250,-108.721794,-1.835294,-15.911809,-23.992294,35.323215,-24.144041
3.312500,-108.805885,-1.837525,-24.591267,-23.871313,41.133274,-24.030436
3.318750,-107.164085,-1.839633,-32.981590,-23.772295,48.691975,-23.965679
3.325000,-104.223862,-1.841571,-40.819824,-23.712151,57.659946,-23.960232
3.331250,-100.476509,-1.843177,-47.846111,-23.716095,67.605186,-24.016441
3.337500,-96.455238,-1.844378,-53.883171,-23.845020,78.011124,-24.133478
3.343750,-90.538818,-1.845195,-58.930412,-24.007584,88.336143,-24.296797
3.350000,-84.622551,-1.845658,-63.369946,-24.229134,98.079124,-24.448555
3.356250,-78.707077,-1.845814,-66.818207,-24.553297,106.958717,-24.645397
3.362500,-72.793587,-1.845793,-67.550323,-25.001699,114.021225,-24.892977
3.368750,-66.881981,-1.845511,-67.209213,-25.555658,119.357780,-25.180769
3.375000,-60.970577,-1.844663,-65.674789,-26.188690,122.502037,-25.555546
3.381250,-55.061371,-1.843432,-62.960266,-26.866402,123.208321,-25.888081
3.387500,-49.158504,-1.842586,-59.162407,-27.550783,121.988701,-26.208307
3.393750,-43.262028,-1.842573,-54.438622,-28.197147,118.176865,-26.508656
3.400000,-37.367828,-1.842931,-49.007790,-28.763222,112.216957,-26.781691
3.406250,-31.472513,-1.843119,-43.208397,-29.228144,104.989380,-27.058914
3.412500,-25.577776,-1.843504,-37.364174,-29.566797,97.039230,-27.305586
3.418750,-19.687933,-1.844790,-29.539749,-29.757816,86.905930,-27.501125
3.425000,-13.801161,-1.847086,-23.276445,-29.797306,76.792038,-27.639135
3.431250,-7.911469,-1.849556,-16.720703,-29.700731,67.064362,-27.725763
3.437500,-2.017688,-1.851904,-10.126669,-29.452242,58.133717,-27.764769
3.443750,3.875834,-1.854925,-3.515912,-29.050524,50.671570,-27.703676
3.450000,9.767836,-1.858901,2.588314,-28.540491,42.967064,-27.572676
3.456250,15.663973,-1.863075,8.023944,-27.960953,36.838924,-27.384634
3.462500,21.568668,-1.866567,12.787049,-27.355158,32.060684,-27.141481
3.468750,27.478697,-1.869443,16.965277,-26.769527,28.407770,-26.839615
3.475000,33.388824,-1.872062,20.663158,-26.268522,25.628416,-26.496086
3.481250,39.298611,-1.874521,24.138077,-25.805986,23.443151,-26.125820
3.487500,45.207821,-1.877000,26.122921,-25.410683,21.605583,-25.722563
3.493750,51.115536,-1.879827,28.002497,-25.118299,19.813089,-25.293140
3.500000,57.022572,-1.883083,29.600515,-24.933088,17.741781,-24.850006
3.506250,62.932529,-1.886017,30.813591,-24.840969,15.162135,-24.403433
3.512500,68.846725,-1.888113,31.546429,-24.808363,11.891175,-23.963322
3.518750,74.761215,-1.889988,31.779060,-24.749004,7.795053,-23.533726
3.525000,80.669350,-1.892765,31.664043,-24.731617,2.764262,-23.120838
3.531250,86.572723,-1.896609,31.774336,-24.718000,-3.331963,-22.739643
3.537500,92.478867,-1.900688,31.767500,-24.672218,-8.440479,-22.407387
3.543750,96.495834,-1.904487,31.886507,-24.583988,-14.026793,-22.119640
3.550000,100.242516,-1.908437,32.473072,-24.426449,-19.805046,-21.838871
3.556250,103.182037,-1.913124,31.966652,-24.200718,-25.301939,-21.510712
3.562500,104.826515,-1.918132,32.076862,-23.937111,-30.237471,-21.269991
3.568750,104.755226,-1.922388,32.464348,-23.662285,-33.383213,-21.100231
3.575000,102.627571,-1.925279,32.853951,-23.402822,-35.751244,-21.003454
3.581250,98.200577,-1.927118,32.960415,-23.192394,-37.078411,-20.992479
3.587500,91.347900,-1.928593,32.523037,-23.068026,-37.381374,-21.026625
3.593750,82.069809,-1.929690,31.438879,-23.018839,-36.526596,-21.129381
3.600000,70.492157,-1.929742,29.650639,-23.056639,-34.363953,-21.315266
3.606250,56.852249,-1.928471,28.998312,-23.195396,-31.052172,-21.578264
3.612500,41.485344,-1.926312,28.029337,-23.420467,-26.867407,-21.891537
3.618750,24.815220,-1.923797,27.138721,-23.749409,-22.203205,-22.230673
3.625000,7.335980,-1.920604,26.438126,-24.191210,-17.844076,-22.638102
3.631250,-10.418416,-1.916571,26.540453,-24.709288,-11.983212,-23.074875
3.637500,-27.904781,-1.912176,27.753115,-25.268538,-6.337898,-23.512438
3.643750,-44.594757,-1.908133,30.215075,-25.832281,-0.939897,-23.931639
3.650000,-59.995193,-1.904755,32.060253,-26.355289,4.121472,-24.315851
3.656250,-73.675644,-1.901912,34.849510,-26.763489,8.764304,-24.647474
3.662500,-85.294785,-1.899786,37.759380,-27.100706,12.894256,-24.921265
3.668750,-94.615196,-1.898555,41.712029,-27.346367,16.372467,-25.143597
3.675000,-101.512695,-1.897925,45.031693,-27.472109,19.107698,-25.313580
3.681250,-105.985481,-1.897391,47.449474,-27.475321,21.043905,-25.429655
3.687500,-108.156700,-1.897367,48.725719,-27.369165,22.103790,-25.494923
3.693750,-108.266632,-1.898585,48.716011,-27.179649,22.236172,-25.518204
3.700000,-106.654289,-1.900907,47.423923,-26.913065,21.444908,-25.510416
3.706250,-103.739868,-1.903407,45.011845,-26.586506,19.860943,-25.464190
3.712500,-100.013908,-1.905675,41.453335,-26.238853,17.700136,-25.373755
3.718750,-96.014359,-1.908268,35.048584,-25.897318,15.112304,-25.244007
3.725000,-90.121887,-1.911508,27.720352,-25.577793,12.428337,-25.090658
3.731250,-84.227539,-1.914800,19.190659,-25.325096,10.252018,-24.953072
3.737500,-78.327980,-1.917656,11.402166,-25.162045,8.999727,-24.843838
3.743750,-72.425873,-1.920231,3.099425,-25.074142,9.079954,-24.784264
3.750000,-66.525154,-1.922862,-5.165529,-25.048796,9.097495,-24.689663
3.756250,-60.625336,-1.925482,-13.000425,-25.081783,9.019482,-24.580069
3.762500,-54.724533,-1.927871,-19.982534,-25.153017,10.184414,-24.456575
3.768750,-48.823471,-1.930295,-25.669529,-25.225382,12.333566,-24.368610
3.775000,-42.923958,-1.933019,-29.837376,-25.310673,15.002969,-24.304565
3.781250,-37.024456,-1.935833,-32.384834,-25.396008,17.595181,-24.248737
3.787500,-31.123640,-1.938290,-32.952129,-25.460506,19.747887,-24.194216
3.793750,-25.222734,-1.940890,-31.460445,-25.517666,21.155350,-24.144960
3.800000,-19.323956,-1.943906,-27.927097,-25.515747,21.622112,-24.092165
3.806250,-13.425555,-1.947235,-23.521233,-25.426146,21.162134,-23.999834
3.812500,-7.525673,-1.950747,-17.597595,-25.289850,19.632967,-23.877419
3.818750,-1.625608,-1.954592,-10.746357,-25.123795,16.920399,-23.735470
3.825000,4.275089,-1.958806,-3.572667,-24.942104,13.160304,-23.579952
3.831250,10.180167,-1.962682,5.492724,-24.759436,8.624477,-23.421459
3.837500,16.088686,-1.966013,14.535600,-24.590000,3.631056,-23.297308
3.843750,21.996544,-1.969472,23.596834,-24.429531,-1.480181,-23.160561
3.850000,27.901953,-1.973418,30.872890,-24.272154,-7.403818,-22.995581
3.856250,33.808159,-1.977201,37.920555,-24.127758,-12.940287,-22.840883
3.862500,39.718445,-1.980257,44.205036,-23.994795,-18.070587,-22.704428
3.868750,45.628262,-1.983174,49.294266,-23.860201,-22.772600,-22.583244
3.875000,51.531128,-1.987148,52.780636,-23.702148,-27.073074,-22.466473
3.881250,57.430199,-1.992365,54.246803,-23.525068,-31.041719,-22.338526
3.887500,63.332897,-1.997670,53.248203,-23.331778,-34.863110,-22.204264
3.893750,69.242172,-2.002482,49.710945,-23.104019,-38.791813,-22.068665
3.900000,75.152763,-2.007561,45.717251,-22.831383,-42.959721,-21.924114
3.906250,81.060333,-2.013694,39.859005,-22.513760,-45.668961,-21.769169
3.912500,86.968140,-2.020829,32.672066,-22.152803,-48.786682,-21.599159
3.918750,92.882507,-2.028294,24.706593,-21.756001,-52.023918,-21.400562
3.925000,96.910728,-2.035558,16.427483,-21.349773,-55.139008,-21.147196
3.931250,100.673721,-2.042411,8.288557,-20.958994,-58.204315,-20.928999
3.937500,103.637703,-2.048797,0.844172,-20.604204,-59.003403,-20.741081
3.943750,105.310020,-2.054520,-5.457504,-20.308105,-58.623455,-20.592258
3.950000,105.264717,-2.059105,-10.282919,-20.092806,-56.596676,-20.496149
3.956250,103.160751,-2.061983,-13.404029,-19.976555,-52.569023,-20.468105
3.962500,98.758202,-2.063096,-14.675822,-19.969248,-46.289127,-20.520195
3.968750,91.931519,-2.062832,-14.034053,-20.068325,-37.615906,-20.660700
3.975000,82.678108,-2.061207,-13.382540,-20.241917,-26.556715,-20.900602
3.981250,71.119087,-2.058310,-11.188763,-20.536150,-13.275308,-21.261120
3.987500,57.489685,-2.054323,-6.840274,-20.938822,0.639552,-21.667370
3.993750,42.128410,-2.049488,-1.557277,-21.404552,15.809199,-22.175343
4.000000,25.461679,-2.044069,4.012022,-21.929579,31.448408,-22.791847
4.006250,7.981950,-2.038001,9.521877,-22.497807,46.695408,-23.547245
4.012500,-9.780742,-2.031774,14.701917,-23.081793,60.463280,-24.299435
4.018750,-27.281923,-2.026332,19.304152,-23.648533,73.458115,-25.024805
4.025000,-43.987789,-2.021765,23.041538,-24.182487,83.710434,-25.760887
4.031250,-59.401794,-2.017764,27.774357,-24.673420,92.127373,-26.510277
4.037500,-73.095001,-2.014308,30.136980,-25.100012,97.828568,-27.219927
4.043750,-84.729538,-2.012151,32.171646,-25.449526,101.100281,-27.860695
4.050000,-94.067085,-2.011389,33.731956,-25.721264,102.338196,-28.415981
4.056250,-100.979233,-2.011056,34.750072,-25.905939,102.069756,-28.876638
4.062500,-105.463951,-2.010432,35.304367,-25.985510,99.096573,-29.209532
4.068750,-107.649040,-2.010602,35.342445,-25.976963,95.817009,-29.401337
4.075000,-107.776344,-2.012794,34.884289,-25.897600,92.291214,-29.459496
4.081250,-106.179779,-2.016201,34.111343,-25.760857,88.748726,-29.388531
4.087500,-103.276360,-2.019423,33.277531,-25.575891,83.351929,-29.189453
4.093750,-99.558838,-2.021966,32.684364,-25.351011,77.831848,-28.868122
4.100000,-95.568672,-2.024770,30.747574,-25.100847,72.046402,-28.445234
4.106250,-89.687798,-2.028426,29.468149,-24.831203,65.901260,-27.959946
4.112500,-83.806831,-2.032612,28.751053,-24.534323,59.482674,-27.368954
4.118750,-77.922668,-2.037067,28.334509,-24.226406,52.953506,-26.708759
4.125000,-72.036621,-2.042149,27.924471,-23.923321,46.058456,-26.019508
4.131250,-66.149231,-2.047779,27.348989,-23.634411,38.946125,-25.330996
4.137500,-60.257000,-2.053488,26.493616,-23.363014,31.816517,-24.666002
4.143750,-54.358635,-2.058875,25.269009,-23.108421,24.882092,-24.041725
4.150000,-48.457268,-2.064305,23.592495,-22.869938,18.331480,-23.470856
4.156250,-42.555687,-2.070158,23.556604,-22.643419,12.337001,-22.952944
4.162500,-36.652607,-2.076357,23.756411,-22.418053,7.042459,-22.509121
4.168750,-30.746073,-2.082685,22.774998,-22.181875,4.139215,-22.130358
4.175000,-24.835955,-2.089175,22.470726,-21.955147,1.078421,-21.820007
4.181250,-18.921824,-2.095556,22.653580,-21.742317,-0.431316,-21.571249
4.187500,-13.003017,-2.101622,23.125000,-21.547743,-0.509344,-21.324892
4.193750,-7.079859,-2.107327,23.665209,-21.377520,0.912284,-21.189768
4.200000,-1.152964,-2.112427,24.040983,-21.238771,1.893554,-21.138197
4.206250,4.777260,-2.116608,24.038418,-21.138792,3.124317,-21.148258
4.212500,10.709952,-2.119659,23.496067,-21.075077,5.634835,-21.176872
4.218750,16.641533,-2.121966,24.471540,-21.035261,7.195402,-21.228952
4.225000,22.569185,-2.123991,23.561863,-21.015486,7.797859,-21.304491
4.231250,28.492964,-2.125859,22.745035,-21.004755,7.294956,-21.389420
4.237500,34.414272,-2.127412,21.812710,-21.002068,5.516532,-21.460880
4.243750,40.333294,-2.128702,20.428871,-21.024132,4.377779,-21.528725
4.250000,46.250988,-2.129632,18.434177,-21.056007,2.262845,-21.591949
4.256250,52.166622,-2.130052,15.681823,-21.080299,-0.305481,-21.634407
4.262500,58.077919,-2.130610,11.937949,-21.082476,-2.912662,-21.644518
4.268750,63.981850,-2.131898,7.002790,-21.051579,-5.202258,-21.612013
4.275000,69.879288,-2.134377,0.695300,-20.980776,-6.861163,-21.530268
4.281250,75.776146,-2.137453,-4.977039,-20.857586,-7.617900,-21.387026
4.287500,81.675034,-2.140960,-11.545238,-20.679356,-7.271456,-21.153561
4.293750,87.573204,-2.145625,-18.751959,-20.469604,-5.921369,-20.900282
4.300000,93.470970,-2.151685,-26.226984,-20.230091,-3.832778,-20.629190
4.306250,97.480682,-2.157908,-33.529884,-19.963879,-0.813991,-20.337782
4.312500,101.229088,-2.163285,-40.340073,-19.681906,2.930141,-20.035791
4.318750,104.178421,-2.168174,-46.386650,-19.399075,7.135208,-19.736704
4.325000,105.828773,-2.173632,-51.466789,-19.136520,11.496915,-19.458073
4.331250,105.755425,-2.179405,-55.433247,-18.917574,15.707032,-19.214466
4.337500,103.624947,-2.184490,-58.186256,-18.793413,19.493835,-19.008411
4.343750,99.200676,-2.188428,-59.750149,-18.662844,22.634596,-18.783089
4.350000,92.356712,-2.191447,-59.112400,-18.607647,24.643911,-18.662043
4.356250,83.091072,-2.193320,-57.174942,-18.660330,27.204216,-18.626081
4.362500,71.525833,-2.193655,-53.732449,-18.819965,29.066818,-18.685848
4.368750,57.895370,-2.192800,-48.873508,-19.077993,30.584330,-18.868208
4.375000,42.534142,-2.191565,-42.803646,-19.420843,31.996153,-19.110634
4.381250,25.869480,-2.189818,-35.793251,-19.827246,33.364635,-19.397865
4.387500,8.398283,-2.186954,-28.167173,-20.270622,35.490948,-19.737244
4.393750,-9.348897,-2.183225,-20.342484,-20.734539,36.692196,-20.156155
4.400000,-26.832569,-2.179896,-12.777881,-21.206589,38.526733,-20.630119
4.406250,-43.519604,-2.177022,-3.675836,-21.668932,40.577869,-21.133156
4.412500,-58.911987,-2.173741,3.375259,-22.107721,42.554024,-21.646694
4.418750,-72.581856,-2.170209,10.220005,-22.517324,44.241421,-22.156961
4.425000,-84.193619,-2.167353,16.687012,-22.835928,45.562042,-22.615587
4.431250,-93.511635,-2.165542,22.600365,-23.063105,46.519104,-22.995527
4.437500,-100.408020,-2.164108,27.570267,-23.210869,46.886848,-23.292778
4.443750,-104.880898,-2.162822,31.551983,-23.286627,46.664917,-23.500858
4.450000,-107.056053,-2.162628,34.612053,-23.292429,45.982830,-23.612181
4.456250,-107.171082,-2.163927,36.879837,-23.233088,45.010708,-23.625448
4.462500,-105.560715,-2.165930,38.556149,-23.118958,43.930920,-23.546759
4.468750,-102.647751,-2.168215,39.929615,-22.969343,42.965919,-23.398058
4.475000,-98.927742,-2.171279,39.484039,-22.783199,42.415302,-23.164410
4.481250,-94.934799,-2.175141,39.390099,-22.553513,40.999954,-22.833782
4.487500,-89.041580,-2.178971,39.305195,-22.312889,40.250092,-22.452068
4.493750,-83.143410,-2.182489,39.039219,-22.083075,39.868248,-22.048927
4.500000,-77.246513,-2.186924,38.525394,-21.874893,39.636028,-21.645687
4.506250,-71.352707,-2.192958,37.739273,-21.689009,39.343117,-21.257181
4.512500,-65.453415,-2.199447,36.674568,-21.512138,38.767151,-20.892748
4.518750,-59.541470,-2.204830,35.330364,-21.285471,37.660683,-20.562279
4.525000,-53.620811,-2.209318,33.738270,-21.106075,35.704212,-20.301985
4.531250,-47.701195,-2.214080,32.972889,-20.973379,32.443684,-20.098454
4.537500,-41.783356,-2.219508,32.539112,-20.843924,29.245220,-19.930428
4.543750,-35.859924,-2.224706,31.028467,-20.707888,24.610485,-19.808512
4.550000,-29.927931,-2.228941,30.155725,-20.592691,18.862261,-19.708233
4.556250,-23.990498,-2.232253,29.635609,-20.520384,12.410373,-19.692038
4.562500,-18.051332,-2.235090,29.251539,-20.510572,5.956238,-19.774614
4.568750,-12.111145,-2.237399,28.779268,-20.588430,-0.525161,-19.953413
4.575000,-6.168298,-2.238935,27.993443,-20.813061,-6.858884,-20.174131
4.581250,-0.221903,-2.239221,26.717882,-21.099075,-12.699082,-20.450571
4.587500,5.725348,-2.238183,23.657530,-21.470661,-17.552061,-20.794294
4.593750,11.670715,-2.236247,21.710632,-21.946087,-21.235826,-21.197496
4.600000,17.612062,-2.233445,19.001358,-22.528790,-23.699675,-21.639793
4.606250,23.549593,-2.229584,15.396047,-23.279305,-25.090294,-22.132601
4.612500,29.482327,-2.224768,11.799239,-24.067001,-25.668692,-22.665985
4.618750,35.405357,-2.219972,7.612420,-24.924618,-25.504261,-23.217962
4.625000,41.316166,-2.215955,3.155787,-25.831594,-24.878643,-23.772581
4.631250,47.220566,-2.212041,-1.282751,-26.754654,-24.109798,-24.316282
4.637500,53.123718,-2.207246,-5.441247,-27.651085,-23.562040,-24.831587
4.643750,59.021873,-2.202204,-9.070137,-28.468529,-23.597656,-25.283081
4.650000,64.906036,-2.198453,-13.861988,-29.146790,-24.567364,-25.623543
4.656250,70.775810,-2.196728,-15.950369,-29.658527,-26.853647,-25.861223
4.662500,76.639755,-2.196589,-17.385750,-29.996704,-29.027727,-26.016558
4.668750,82.502563,-2.197692,-18.031433,-30.131550,-32.472713,-26.063530
4.675000,88.365112,-2.200332,-17.910265,-30.051147,-36.955956,-25.994135
4.681250,94.228592,-2.204346,-17.152073,-29.758753,-42.272629,-25.809486
4.687500,98.201546,-2.209063,-15.958611,-29.278606,-48.200909,-25.520912
4.693750,101.904915,-2.214737,-14.572750,-28.649384,-54.472427,-25.140036
4.700000,104.802498,-2.222420,-13.287115,-27.899693,-60.744350,-24.669508
4.706250,106.405701,-2.231767,-12.597980,-27.031361,-66.652237,-24.101652
4.712500,106.298187,-2.241052,-12.743692,-26.086382,-71.752327,-23.491385
4.718750,104.142548,-2.249044,-14.072064,-25.142090,-77.456528,-22.893764
