Anritsu VNA Frequency[GHz],S21[deg],S21[dB],S11[deg],S11[dB],S22[deg],S22[dB]
1338055321.68,2012_05_26_19:02:01,+60.946,+168.68,+151.53,+169.00,+174.49,+176.70,+171.15,+172.85,159.066513,-5.825
3.006250,45.153141,-2.447401,69.384727,-27.477762,-76.795784,-28.405291
3.012500,45.153141,-2.447401,69.384727,-27.477762,-76.795784,-28.405291
3.018750,45.153141,-2.447401,69.384727,-27.477762,-76.795784,-28.405291
3.025000,45.153141,-2.447401,69.384727,-27.477762,-76.795784,-28.405291
3.031250,45.153141,-2.447401,69.384727,-27.477762,-76.795784,-28.405291
3.037500,45.153141,-2.447401,69.384727,-27.477762,-76.795784,-28.405291
3.043750,45.153141,-2.447401,69.384727,-27.477762,-76.795784,-28.405291
3.050000,45.153141,-2.447401,69.384727,-27.477762,-76.795784,-28.405291
3.056250,45.153141,-2.447401,69.384727,-27.477762,-76.795784,-28.405291
3.062500,45.153141,-2.447401,69.384727,-27.477762,-76.795784,-28.405291
3.068750,45.153141,-2.447401,69.384727,-27.477762,-76.795784,-28.405291
3.075000,45.153141,-2.447401,69.384727,-27.477762,-76.795784,-28.405291
3.081250,45.153141,-2.447401,69.384727,-27.477762,-76.795784,-28.405291
3.087500,45.153141,-2.447401,69.384727,-27.477762,-76.795784,-28.405291
3.093750,45.153141,-2.449817,69.384727,-27.287458,-76.795784,-28.236574
3.100000,51.085499,-2.452659,65.626205,-27.118586,-77.127609,-28.047512
3.106250,57.017563,-2.455673,60.972546,-26.996506,-76.631378,-27.838142
3.112500,62.950783,-2.458797,54.059940,-26.937597,-75.036072,-27.595829
3.118750,68.883804,-2.462049,47.030899,-26.959589,-72.126839,-27.289480
3.125000,74.816025,-2.465480,40.340927,-26.959610,-67.862473,-26.956091
3.131250,80.747787,-2.469011,33.975090,-26.980581,-62.324814,-26.592772
3.137500,86.678703,-2.472843,27.946115,-27.032717,-55.195347,-26.187819
3.143750,92.608009,-2.477211,22.533926,-27.113688,-46.514221,-25.750414
3.150000,96.642899,-2.481909,18.020109,-27.212622,-38.295715,-25.295542
3.156250,100.407516,-2.486427,14.643010,-27.316301,-29.060936,-24.843964
3.162500,103.368431,-2.490595,12.588805,-27.410036,-19.520113,-24.420380
3.168750,105.032196,-2.494785,11.992656,-27.478556,-10.355400,-24.056404
3.175000,104.970009,-2.499089,12.969728,-27.504459,-2.180391,-23.779877
3.181250,102.842361,-2.503443,13.808690,-27.470913,4.856994,-23.516392
3.187500,98.414276,-2.507603,16.244799,-27.388430,10.140499,-23.304499
3.193750,91.563980,-2.511478,19.578255,-27.263117,13.335432,-23.168070
3.200000,82.290596,-2.515095,23.208447,-27.099705,14.470099,-23.117685
3.206250,70.716171,-2.518274,26.644386,-26.905704,13.593235,-23.149483
3.212500,57.076427,-2.521196,29.447184,-26.693092,10.854906,-23.266571
3.218750,41.710323,-2.524230,31.246422,-26.474764,6.541877,-23.489904
3.225000,25.045673,-2.527203,33.946930,-26.253643,0.833849,-23.723570
3.231250,7.577003,-2.529797,36.012833,-26.029322,-6.148733,-23.977016
3.237500,-10.163996,-2.532035,35.882610,-25.806412,-13.668158,-24.253387
3.243750,-27.634039,-2.534423,35.538040,-25.578148,-19.597162,-24.535721
3.250000,-44.302185,-2.537422,34.794838,-25.340899,-25.385820,-24.801559
3.256250,-59.672718,-2.540709,33.261963,-25.141026,-30.417349,-25.037277
3.262500,-73.315857,-2.543790,30.818008,-24.968801,-34.158741,-25.233324
3.268750,-84.891327,-2.546482,27.438889,-24.817125,-36.108429,-25.377308
3.275000,-94.165047,-2.549222,22.954788,-24.685106,-35.887943,-25.462601
3.281250,-101.017509,-2.552382,17.204592,-24.566196,-33.275059,-25.487469
3.287500,-105.447090,-2.555994,10.054585,-24.449911,-28.219048,-25.457638
3.293750,-107.572731,-2.559781,3.599010,-24.317219,-20.849237,-25.374464
3.300000,-107.630363,-2.563470,-3.554552,-24.130442,-11.413013,-25.238503
3.306250,-105.960258,-2.566911,-11.377200,-23.990177,-0.288074,-25.065077
3.312500,-102.990646,-2.570153,-19.365126,-23.863543,12.006281,-24.880175
3.318750,-99.214424,-2.573364,-26.966410,-23.747454,24.856220,-24.707985
3.325000,-95.164658,-2.576411,-33.918423,-23.651302,37.627754,-24.564838
3.331250,-89.218361,-2.579113,-39.992905,-23.590139,51.863747,-24.460514
3.337500,-83.270493,-2.581385,-45.025356,-23.590120,65.581558,-24.401241
3.343750,-77.321732,-2.583296,-48.902451,-23.717543,78.704208,-24.385538
3.350000,-71.373299,-2.584816,-51.649830,-23.849697,89.306587,-24.393118
3.356250,-65.425034,-2.585998,-54.050098,-24.049166,98.983971,-24.397835
3.362500,-59.478146,-2.586930,-53.508121,-24.358521,106.740189,-24.480986
3.368750,-53.532990,-2.587572,-51.837692,-24.781513,112.223785,-24.620667
3.375000,-47.588558,-2.587652,-48.959404,-25.301664,115.145187,-24.826017
3.381250,-41.645443,-2.587238,-44.930378,-25.893061,115.238220,-25.098444
3.387500,-35.707394,-2.586894,-39.899567,-26.523758,112.756767,-25.368330
3.393750,-29.775808,-2.587083,-34.088268,-27.155449,107.539490,-25.649357
3.400000,-23.847851,-2.587678,-27.757408,-27.746332,99.788681,-25.897013
3.406250,-17.920113,-2.588161,-21.246698,-28.267466,90.270523,-26.182711
3.412500,-11.992891,-2.588602,-14.930630,-28.695936,80.049294,-26.474854
3.418750,-6.069698,-2.589669,-8.817766,-29.006948,69.643303,-26.741137
3.425000,-0.150753,-2.591653,-2.921602,-29.186680,57.839436,-26.967503
3.431250,5.769104,-2.593919,2.471636,-29.234390,46.979504,-27.149260
3.437500,11.692225,-2.596050,7.133104,-29.152821,37.521767,-27.290747
3.443750,17.615734,-2.598598,11.015176,-28.918966,29.988493,-27.354071
3.450000,23.537077,-2.602150,13.976142,-28.559166,22.926401,-27.337587
3.456250,29.460197,-2.606130,15.879748,-28.106327,18.032440,-27.254299
3.462500,35.390572,-2.609694,16.838297,-27.597031,14.960619,-27.107939
3.468750,41.326843,-2.612658,17.098066,-27.069407,13.370616,-26.896677
3.475000,47.263962,-2.615374,16.957464,-26.566019,12.911909,-26.628738
3.481250,53.200005,-2.618124,16.771111,-26.120865,13.186678,-26.318922
3.487500,59.135178,-2.621064,15.297158,-25.699993,13.794411,-25.967886
3.493750,65.069633,-2.624335,14.453825,-25.347391,14.331253,-25.577166
3.500000,71.003532,-2.627942,13.972079,-25.084587,14.370489,-25.158291
3.506250,76.939857,-2.631534,13.805764,-24.912766,13.556157,-24.723791
3.512500,82.879578,-2.634522,13.916292,-24.818314,11.611776,-24.285412
3.518750,88.820610,-2.637136,14.275594,-24.765667,8.339702,-23.851147
3.525000,94.756981,-2.640385,14.842962,-24.662075,3.605690,-23.428143
3.531250,98.793694,-2.644677,15.643195,-24.612968,-0.527634,-23.028297
3.537500,102.558098,-2.649499,17.456730,-24.558783,-5.486548,-22.667648
3.543750,105.522102,-2.654044,19.686472,-24.473782,-10.796563,-22.366629
3.550000,107.192184,-2.658554,22.496389,-24.346792,-16.104784,-22.095499
3.556250,107.137077,-2.663608,24.225492,-24.159231,-21.174753,-21.828644
3.562500,105.017609,-2.669025,26.599245,-23.926949,-25.534489,-21.575657
3.568750,100.602409,-2.674030,29.082178,-23.676096,-29.468298,-21.417141
3.575000,93.772346,-2.677880,31.252205,-23.432407,-32.845928,-21.342016
3.581250,84.523514,-2.680581,32.725224,-23.227161,-35.736046,-21.373594
3.587500,72.972389,-2.682680,33.154495,-23.093618,-36.622398,-21.478315
3.593750,59.354336,-2.684392,32.302250,-23.051197,-37.873169,-21.640221
3.600000,44.013218,-2.685320,32.272171,-23.092138,-38.953396,-21.887169
3.606250,27.377855,-2.684928,31.516079,-23.231401,-39.807674,-22.217649
3.612500,9.936872,-2.681375,30.381887,-23.471746,-40.493362,-22.612223
3.618750,-7.773897,-2.679474,29.287630,-23.807735,-41.139503,-23.037704
3.625000,-25.222763,-2.676986,28.495487,-24.262506,-42.051643,-23.510029
3.631250,-41.868061,-2.673712,28.366222,-24.812212,-41.402309,-24.013714
3.637500,-57.219631,-2.669936,29.301849,-25.421093,-40.580357,-24.515497
3.643750,-70.854538,-2.666367,29.594494,-26.051592,-39.301510,-24.992020
3.650000,-82.432678,-2.663401,30.916456,-26.663191,-37.399937,-25.422712
3.656250,-91.714439,-2.661052,32.688934,-27.203360,-34.780849,-25.789545
3.662500,-98.576225,-2.659312,34.235352,-27.626570,-31.405842,-26.079004
3.668750,-103.018234,-2.658461,36.730042,-27.963629,-27.330284,-26.291847
3.675000,-105.160347,-2.658366,38.196457,-28.177605,-22.682837,-26.431934
3.681250,-105.237434,-2.658726,38.643265,-28.251591,-17.611092,-26.499447
3.687500,-103.590225,-2.659529,37.948082,-28.187176,-12.313727,-26.497087
3.693750,-100.647987,-2.661434,36.039772,-28.002975,-7.043926,-26.433205
3.700000,-96.903191,-2.664585,32.928425,-27.734449,-2.065659,-26.321371
3.706250,-92.882637,-2.668283,28.809837,-27.377905,2.406346,-26.172300
3.712500,-86.961136,-2.671821,24.008518,-26.960691,6.254969,-25.981686
3.718750,-81.037117,-2.675465,16.670588,-26.528444,9.378137,-25.752396
3.725000,-75.113770,-2.679744,8.714549,-26.111931,11.695314,-25.484921
3.731250,-69.189323,-2.684237,-0.022951,-25.737587,13.395656,-25.221619
3.737500,-63.259766,-2.688398,-7.584051,-25.447392,14.897805,-24.992971
3.743750,-57.325882,-2.692040,-15.394272,-25.251825,16.311129,-24.810091
3.750000,-51.390991,-2.695538,-22.868452,-25.141375,18.037447,-24.662508
3.756250,-45.457363,-2.698834,-29.559587,-25.109125,18.900660,-24.507526
3.762500,-39.523006,-2.701824,-35.117443,-25.141102,20.806324,-24.338572
3.768750,-33.588406,-2.704615,-39.191483,-25.209002,21.561804,-24.196007
3.775000,-27.654982,-2.707496,-41.537254,-25.292482,23.028963,-24.106569
3.781250,-21.722620,-2.710424,-42.137268,-25.396372,24.421440,-24.044903
3.787500,-15.789527,-2.713005,-40.856625,-25.498543,25.384924,-23.999626
3.793750,-9.856562,-2.715464,-39.499744,-25.588488,25.661097,-23.968176
3.800000,-3.925446,-2.718145,-36.503166,-25.676075,25.075106,-23.949518
3.806250,2.003540,-2.721188,-32.257977,-25.666052,23.604408,-23.916819
3.812500,7.932681,-2.724383,-27.484243,-25.595531,21.294559,-23.856165
3.818750,13.861744,-2.727837,-23.089508,-25.485357,18.047009,-23.775070
3.825000,19.790089,-2.731780,-17.428946,-25.348934,13.957023,-23.676867
3.831250,25.720455,-2.735784,-12.297030,-25.198183,9.273995,-23.567095
3.837500,31.654232,-2.739394,-7.541976,-25.046045,4.330002,-23.457634
3.843750,37.589062,-2.742962,-2.951198,-24.900553,-0.505458,-23.376631
3.850000,43.522251,-2.746940,1.761027,-24.754639,-4.659748,-23.255854
3.856250,49.454865,-2.751004,4.949122,-24.611700,-9.514359,-23.119959
3.862500,55.390697,-2.754586,8.400820,-24.477549,-13.375488,-22.990665
3.868750,61.327435,-2.757956,11.797701,-24.348328,-16.355797,-22.872583
3.875000,67.259659,-2.762067,14.846799,-24.209328,-18.576397,-22.762304
3.881250,73.187737,-2.767405,17.262346,-24.032030,-20.199892,-22.648891
3.887500,79.118027,-2.773129,18.646158,-23.835915,-21.462088,-22.523994
3.893750,85.054634,-2.778410,18.528606,-23.619434,-22.706720,-22.394897
3.900000,90.994926,-2.783635,19.008764,-23.364084,-24.268396,-22.261335
3.906250,95.038055,-2.789654,18.521263,-23.063820,-26.424952,-22.120092
3.912500,98.806328,-2.796786,17.354393,-22.719196,-29.495464,-21.967989
3.918750,101.773132,-2.804535,15.796605,-22.334375,-33.796608,-21.798790
3.925000,103.449776,-2.812256,14.068738,-21.924438,-37.739651,-21.598410
3.931250,103.409348,-2.819646,12.330301,-21.513981,-43.256355,-21.375841
3.937500,101.309738,-2.826673,10.757122,-21.125078,-48.177757,-21.183296
3.943750,96.912865,-2.833282,9.531419,-20.780128,-53.422222,-21.022314
3.950000,90.097893,-2.839145,8.770852,-20.499472,-58.090469,-20.901386
3.956250,80.865524,-2.843625,8.523152,-20.302519,-61.455452,-20.832401
3.962500,69.335999,-2.846421,8.786663,-20.201809,-62.874298,-20.827574
3.968750,55.742729,-2.847835,9.544858,-20.201557,-61.811413,-20.896349
3.975000,40.423145,-2.847982,11.026913,-20.290033,-59.767235,-21.047720
3.981250,23.802895,-2.846937,13.432990,-20.433752,-54.887245,-21.313915
3.987500,6.373600,-2.844754,16.323345,-20.712921,-47.574478,-21.627565
3.993750,-11.333796,-2.841650,19.589493,-21.070019,-38.159649,-22.022402
4.000000,-28.774071,-2.837845,23.236237,-21.487400,-27.681561,-22.512775
4.006250,-45.414696,-2.833297,26.918295,-21.956059,-16.734474,-23.104889
4.012500,-60.764900,-2.828219,30.405993,-22.458008,-5.983017,-23.844803
4.018750,-74.399704,-2.823381,33.522217,-22.968643,3.609711,-24.546373
4.025000,-85.979149,-2.819181,36.090340,-23.464539,11.122250,-25.226946
4.031250,-95.263802,-2.815516,35.995838,-23.938057,17.949528,-25.947865
4.037500,-102.128632,-2.812296,36.865356,-24.376322,23.655363,-26.676615
4.043750,-106.575592,-2.809967,36.763954,-24.763651,27.014231,-27.375874
4.050000,-108.725357,-2.808833,35.672974,-25.093161,28.477621,-28.020405
4.056250,-108.811028,-2.808271,33.622051,-25.362125,28.566074,-28.592243
4.062500,-107.169899,-2.807618,30.782343,-25.550180,26.007339,-29.070839
4.068750,-104.232994,-2.807361,27.379473,-25.654604,23.155949,-29.426910
4.075000,-100.497643,-2.808791,23.550787,-25.689402,20.155203,-29.651426
4.081250,-96.493515,-2.811782,19.586424,-25.665646,17.138596,-29.743187
4.087500,-90.589775,-2.815152,15.872490,-25.589983,14.347148,-29.699238
4.093750,-84.677055,-2.817940,10.943089,-25.466671,12.085099,-29.518656
4.100000,-78.762543,-2.820590,6.836745,-25.303535,10.656025,-29.210026
4.106250,-72.852188,-2.824138,3.439713,-25.107479,8.187329,-28.795523
4.112500,-66.944435,-2.828492,0.679301,-24.878805,6.329770,-28.296141
4.118750,-61.034184,-2.833379,-1.518516,-24.618153,5.052882,-27.684603
4.125000,-55.121220,-2.838675,-3.335020,-24.336391,4.012253,-27.004391
4.131250,-49.206211,-2.844517,-4.933369,-24.045820,2.853921,-26.292862
4.137500,-43.287670,-2.850647,-6.422511,-23.753914,1.436927,-25.580137
4.143750,-37.363728,-2.856686,-7.870369,-23.464104,-0.332140,-24.889523
4.150000,-31.435534,-2.862560,-9.351462,-23.178818,-2.524038,-24.239378
4.156250,-25.506096,-2.868757,-8.780542,-22.898794,-3.023862,-23.639381
4.162500,-19.575253,-2.875298,-7.606618,-22.623394,-3.225097,-23.069054
4.168750,-13.641415,-2.882009,-7.312515,-22.350428,-2.787022,-22.621563
4.175000,-7.703803,-2.888871,-5.927073,-22.075933,-3.277141,-22.235439
4.181250,-1.762371,-2.895746,-3.786229,-21.813322,-2.569143,-21.926212
4.187500,4.183741,-2.902341,-1.225176,-21.572365,-1.050482,-21.683578
4.193750,10.134624,-2.908606,1.444738,-21.360428,1.012138,-21.428640
4.200000,16.089596,-2.914320,3.900440,-21.185017,3.674517,-21.315952
4.206250,22.047499,-2.919304,5.824429,-21.054073,7.002139,-21.300016
4.212500,28.008467,-2.923270,9.111499,-20.971643,8.179768,-21.344439
4.218750,33.969757,-2.926415,12.194608,-20.930346,9.950165,-21.402826
4.225000,39.928253,-2.929137,15.403512,-20.921322,10.388292,-21.495262
4.231250,45.882854,-2.931655,17.098227,-20.935692,9.434205,-21.619959
4.237500,51.834667,-2.933978,19.129534,-20.961933,6.959569,-21.761045
4.243750,57.784321,-2.935913,21.076670,-21.010994,4.994919,-21.906786
4.250000,63.732849,-2.937475,22.500446,-21.082045,2.013429,-22.059237
4.256250,69.679138,-2.938567,23.119787,-21.156685,-1.521722,-22.206806
4.262500,75.621483,-2.939481,22.581017,-21.218306,-5.095168,-22.334538
4.268750,81.557594,-2.940808,20.534424,-21.254204,-8.265332,-22.427307
4.275000,87.486115,-2.943075,18.841957,-21.256861,-10.654072,-22.473557
4.281250,93.411674,-2.946142,15.877643,-21.217781,-11.940252,-22.461523
4.287500,97.442955,-2.949553,11.917573,-21.127050,-11.871927,-22.372726
4.293750,101.201103,-2.953841,7.198755,-20.988842,-10.350150,-22.199142
4.300000,104.151184,-2.959446,1.919883,-20.814150,-7.657793,-21.993578
4.306250,105.806335,-2.965832,-3.614207,-20.605511,-3.845327,-21.747742
4.312500,105.745964,-2.971806,-9.120080,-20.369061,1.012753,-21.463320
4.318750,103.628334,-2.977237,-14.362336,-20.113832,6.618557,-21.149246
4.325000,99.208824,-2.982992,-19.154863,-19.855213,12.610488,-20.821049
4.331250,92.364510,-2.989530,-23.359209,-19.611254,18.588579,-20.495659
4.337500,83.101654,-2.995986,-26.856968,-19.402685,24.172997,-20.185989
4.343750,71.546059,-3.001577,-29.585842,-19.288464,29.001295,-19.892246
4.350000,57.932129,-3.006273,-29.303984,-19.162931,32.748333,-19.615429
4.356250,42.596901,-3.010164,-28.870779,-19.111143,36.914860,-19.423710
4.362500,25.967302,-3.012826,-26.861795,-19.160135,40.036224,-19.319113
4.368750,8.535563,-3.014202,-23.209265,-19.310659,42.493660,-19.322735
4.375000,-9.170740,-3.014815,-18.033865,-19.556999,44.615582,-19.494392
4.381250,-26.607901,-3.014870,-11.553152,-19.886023,46.421753,-19.690926
4.387500,-43.240372,-3.013933,-4.057580,-20.276312,48.188717,-19.949102
4.393750,-58.575096,-3.011801,4.082008,-20.706917,50.650150,-20.288588
4.400000,-72.191223,-3.009328,12.417736,-21.163158,52.280548,-20.738071
4.406250,-83.749931,-3.007048,18.608086,-21.629847,54.357769,-21.256275
4.412500,-93.011330,-3.004467,26.049376,-22.089283,56.519009,-21.813942
4.418750,-99.850632,-3.001268,32.508720,-22.526690,58.521927,-22.387865
4.425000,-104.271622,-2.998094,37.728611,-22.916447,60.196953,-22.950394
4.431250,-106.399734,-2.995643,41.642956,-23.217836,61.497063,-23.454155
4.437500,-106.468391,-2.993658,44.073196,-23.432474,62.331509,-23.877424
4.443750,-104.815018,-2.991819,44.969574,-23.566389,62.578133,-24.208279
4.450000,-101.868828,-2.990742,44.510506,-23.620102,62.286907,-24.433954
4.456250,-98.124741,-2.991261,42.982819,-23.594208,61.594040,-24.545544
4.462500,-94.111115,-2.993005,40.755787,-23.493242,60.660027,-24.540703
4.468750,-88.199120,-2.995208,38.289444,-23.327599,59.682858,-24.424536
4.475000,-82.284279,-2.997910,34.196609,-23.115791,58.897781,-24.218519
4.481250,-76.369576,-3.001504,30.673424,-22.859234,58.643990,-23.904324
4.487500,-70.453140,-3.005706,27.790266,-22.564810,57.503616,-23.491457
4.493750,-64.532257,-3.009974,25.415464,-22.260668,57.092617,-23.022863
4.500000,-58.609268,-3.014812,23.486734,-21.969246,57.105358,-22.531860
4.506250,-52.687542,-3.021135,22.009163,-21.703503,57.297157,-22.043856
4.512500,-46.761848,-3.028229,20.992067,-21.466209,57.429398,-21.578808
4.518750,-40.824436,-3.034722,20.421797,-21.246754,57.246563,-21.153404
4.525000,-34.875454,-3.039981,20.255674,-20.980227,56.473442,-20.786930
4.531250,-28.923403,-3.044963,20.309317,-20.788404,54.768330,-20.529011
4.537500,-22.973234,-3.050359,21.938297,-20.649776,51.597469,-20.326002
4.543750,-17.020229,-3.055781,22.395437,-20.526915,48.380608,-20.193296
4.550000,-11.059897,-3.060439,23.590555,-20.419039,43.638866,-20.133129
4.556250,-5.093121,-3.064043,25.013163,-20.349556,37.629688,-20.084232
4.562500,0.876034,-3.067014,26.277489,-20.338297,30.993492,-20.188251
4.568750,6.845926,-3.069467,27.070921,-20.406851,24.238020,-20.409914
4.575000,12.817109,-3.071158,27.099831,-20.585218,17.393576,-20.741030
4.581250,18.791456,-3.071830,26.121719,-20.945198,10.340159,-21.094238
4.587500,24.766895,-3.071258,24.981203,-21.327536,3.960502,-21.514256
4.593750,30.741093,-3.069612,23.216099,-21.821554,-1.415704,-22.003456
4.600000,36.711510,-3.067130,20.768066,-22.434473,-5.651311,-22.548058
4.606250,42.676914,-3.063924,17.694502,-23.175442,-8.733872,-23.132690
4.612500,48.637558,-3.059913,14.024862,-24.025915,-10.795287,-23.756485
4.618750,54.590611,-3.055703,10.117551,-24.943186,-11.953878,-24.398106
4.625000,60.533108,-3.052042,5.985590,-25.908245,-12.344648,-25.037752
4.631250,66.468338,-3.048717,1.769558,-26.890656,-12.207032,-25.659889
4.637500,72.401588,-3.044781,-2.324199,-27.851135,-11.839273,-26.253588
4.643750,78.332077,-3.040228,-7.969887,-28.743206,-11.572528,-26.794781
4.650000,84.251724,-3.036381,-13.340219,-29.515543,-11.789655,-27.241585
4.656250,90.156479,-3.034484,-16.646044,-30.117393,-12.833684,-27.558390
4.662500,96.051903,-3.034434,-19.699736,-30.525436,-15.100545,-27.765762
4.668750,100.050980,-3.035661,-22.511389,-30.729122,-17.035067,-27.871300
4.675000,103.777039,-3.038147,-24.944618,-30.711735,-20.146429,-27.858009
4.681250,106.697495,-3.042077,-26.923769,-30.469049,-24.228477,-27.719652
4.687500,108.322136,-3.046993,-28.466944,-30.016794,-29.103676,-27.461809
4.693750,108.224869,-3.052883,-29.652462,-29.388611,-34.573196,-27.096695
4.700000,106.063522,-3.060305,-30.579853,-28.634447,-40.374611,-26.633654
4.706250,101.600601,-3.069675,-31.470167,-27.770994,-46.201477,-26.076380
4.712500,94.722771,-3.079741,-32.782345,-26.816668,-51.720680,-25.408154
4.718750,85.436707,-3.089078,-34.503452,-25.828108,-56.393822,-24.727680
