Anritsu VNA Frequency[GHz],S21[deg],S21[dB],S11[deg],S11[dB],S22[deg],S22[dB]
1338107324.1,2012_05_27_09:28:44,+40.612,+10.295,+54.947,+10.311,+13.927,+13.738,+14.031,+13.783,10.400491,-15.948
3.006250,34.099476,-1.752767,59.254768,-26.670225,-80.061348,-27.422611
3.012500,34.099476,-1.752767,59.254768,-26.670225,-80.061348,-27.422611
3.018750,34.099476,-1.752767,59.254768,-26.670225,-80.061348,-27.422611
3.025000,34.099476,-1.752767,59.254768,-26.670225,-80.061348,-27.422611
3.031250,34.099476,-1.752767,59.254768,-26.670225,-80.061348,-27.422611
3.037500,34.099476,-1.752767,59.254768,-26.670225,-80.061348,-27.422611
3.043750,34.099476,-1.752767,59.254768,-26.670225,-80.061348,-27.422611
3.050000,34.099476,-1.752767,59.254768,-26.670225,-80.061348,-27.422611
3.056250,34.099476,-1.752767,59.254768,-26.670225,-80.061348,-27.422611
3.062500,34.099476,-1.752767,59.254768,-26.670225,-80.061348,-27.422611
3.068750,34.099476,-1.752767,59.254768,-26.670225,-80.061348,-27.422611
3.075000,34.099476,-1.752767,59.254768,-26.670225,-80.061348,-27.422611
3.081250,34.099476,-1.752767,59.254768,-26.670225,-80.061348,-27.422611
3.087500,34.099476,-1.752767,59.254768,-26.670225,-80.061348,-27.422611
3.093750,34.099476,-1.754526,59.254768,-26.469131,-80.061348,-27.172304
3.100000,40.006184,-1.756573,56.574825,-26.319178,-82.070541,-26.939886
3.106250,45.912888,-1.758600,53.009281,-26.240589,-82.463257,-26.726862
3.112500,51.819923,-1.760625,48.924465,-26.254377,-80.881622,-26.505777
3.118750,57.726280,-1.762900,42.916145,-26.298731,-79.160843,-26.206612
3.125000,63.631416,-1.765280,38.114185,-26.344370,-75.119843,-25.946341
3.131250,69.535812,-1.767681,33.724396,-26.417311,-68.955574,-25.659367
3.137500,75.439194,-1.770469,30.007551,-26.518166,-61.073902,-25.336130
3.143750,81.340912,-1.773791,27.169025,-26.638790,-51.653847,-24.984640
3.150000,87.243553,-1.777403,25.387108,-26.763834,-40.854961,-24.617342
3.156250,93.149513,-1.780807,24.785326,-26.879223,-28.849764,-24.252447
3.162500,97.163055,-1.783922,25.429407,-26.971952,-15.837137,-23.913815
3.168750,100.903427,-1.787169,27.340731,-27.034737,-3.919690,-23.650103
3.175000,103.837463,-1.790677,30.562889,-27.045437,8.356415,-23.405426
3.181250,105.474564,-1.794315,33.335125,-26.991116,20.874866,-23.183874
3.187500,105.389610,-1.797842,37.122581,-26.889500,32.354889,-23.016420
3.193750,103.241043,-1.801107,41.222160,-26.752251,42.364048,-22.918756
3.200000,98.791771,-1.804087,45.064754,-26.587965,50.578171,-22.894583
3.206250,91.919464,-1.806701,48.168400,-26.406866,56.713165,-22.944384
3.212500,82.622658,-1.809185,50.112713,-26.222883,60.570850,-23.075331
3.218750,71.021568,-1.811909,50.585896,-26.046484,62.049595,-23.270815
3.225000,57.354725,-1.814511,51.587940,-25.871773,60.896793,-23.475636
3.231250,41.964676,-1.816588,51.655243,-25.698694,57.399948,-23.698473
3.237500,25.276970,-1.818378,49.296703,-25.527102,53.666309,-23.930740
3.243750,7.779487,-1.820434,46.624088,-25.334200,48.200645,-24.150040
3.250000,-9.995150,-1.823105,43.507294,-25.160574,41.670586,-24.337185
3.256250,-27.496367,-1.825872,39.586376,-25.019079,34.668507,-24.491135
3.262500,-44.189064,-1.828268,35.098362,-24.892984,27.841860,-24.600634
3.268750,-59.583035,-1.830325,29.990692,-24.778090,21.872910,-24.657017
3.275000,-73.254082,-1.832430,24.138084,-24.673830,17.305643,-24.659990
3.281250,-84.862274,-1.834904,17.429819,-24.570877,14.579733,-24.616739
3.287500,-94.168625,-1.837733,9.775325,-24.456329,13.990838,-24.541887
3.293750,-101.049126,-1.840639,1.138384,-24.291225,15.692651,-24.435909
3.300000,-105.503563,-1.843397,-6.300200,-24.123037,19.732286,-24.298681
3.306250,-107.653107,-1.845861,-14.969841,-23.987511,25.967033,-24.157740
3.312500,-107.734856,-1.848109,-23.640722,-23.865713,34.091877,-24.044439
3.318750,-106.090797,-1.850196,-32.024620,-23.765411,43.729630,-23.979719
3.325000,-103.148453,-1.852112,-39.857571,-23.703772,54.431355,-23.974218
3.331250,-99.398933,-1.853684,-46.883167,-23.706589,65.680077,-24.030769
3.337500,-95.375458,-1.854878,-52.918709,-23.836527,76.896233,-24.148018
3.343750,-89.456940,-1.855741,-57.990891,-23.996355,87.500198,-24.311310
3.350000,-83.538689,-1.856219,-62.436871,-24.216839,97.242691,-24.465429
3.356250,-77.621155,-1.856403,-65.896072,-24.540083,105.846924,-24.663372
3.362500,-71.705368,-1.856485,-66.646431,-24.988436,112.104225,-24.912418
3.368750,-65.791679,-1.856284,-66.329750,-25.542490,116.140373,-25.202589
3.375000,-59.878384,-1.855530,-64.821732,-26.175734,117.557213,-25.581051
3.381250,-53.967079,-1.854372,-62.134991,-26.853954,116.181480,-25.916922
3.387500,-48.062038,-1.853603,-58.364513,-27.539188,112.656059,-26.241051
3.393750,-42.163200,-1.853631,-53.665981,-28.187035,106.412376,-26.546360
3.400000,-36.266785,-1.854028,-48.258522,-28.754644,98.014977,-26.824453
3.406250,-30.369099,-1.854240,-42.477699,-29.221157,88.469246,-27.106415
3.412500,-24.471939,-1.854562,-36.646206,-29.561720,78.437218,-27.357992
3.418750,-18.579576,-1.855757,-28.827908,-29.754820,66.562485,-27.557779
3.425000,-12.690159,-1.857942,-22.566160,-29.796476,55.132057,-27.699432
3.431250,-6.797575,-1.860220,-16.008461,-29.701534,44.580463,-27.788534
3.437500,-0.900873,-1.862431,-9.405798,-29.455002,35.361378,-27.829132
3.443750,4.995190,-1.865246,-2.784342,-29.054087,28.155212,-27.769196
3.450000,10.890014,-1.869031,3.334297,-28.545023,21.246140,-27.637678
3.456250,16.788902,-1.873005,8.788858,-27.966284,16.410370,-27.448099
3.462500,22.696365,-1.876365,13.572532,-27.361454,13.353198,-27.203112
3.468750,28.608959,-1.879102,17.768543,-26.776476,11.763098,-26.899035
3.475000,34.521873,-1.881635,21.483837,-26.276459,11.290915,-26.551394
3.481250,40.434128,-1.884053,24.977089,-25.813719,11.538929,-26.176910
3.487500,46.345757,-1.886508,26.974785,-25.418499,12.140817,-25.768932
3.493750,52.255836,-1.889412,28.864187,-25.126171,12.664957,-25.335251
3.500000,58.164978,-1.892767,30.470737,-24.941734,12.675394,-24.887974
3.506250,64.077057,-1.895904,31.690634,-24.850847,11.840046,-24.437346
3.512500,69.993317,-1.898215,32.431602,-24.818956,9.887517,-23.993111
3.518750,75.909523,-1.900321,32.666355,-24.758194,6.616337,-23.560150
3.525000,81.819672,-1.903302,32.579945,-24.743168,1.872628,-23.144701
3.531250,87.725243,-1.907400,32.699936,-24.730890,-2.314975,-22.761417
3.537500,93.632919,-1.911776,32.701603,-24.685804,-7.409165,-22.426760
3.543750,97.651405,-1.915798,32.830425,-24.598158,-12.982825,-22.137306
3.550000,101.399513,-1.919977,33.426865,-24.441401,-18.751575,-21.855425
3.556250,104.340775,-1.924841,32.931721,-24.216248,-24.243059,-21.525686
3.562500,105.986847,-1.930013,33.048882,-23.952930,-29.158049,-21.283926
3.568750,105.916908,-1.934367,33.442177,-23.678024,-32.296677,-21.113169
3.575000,103.790604,-1.937323,33.831860,-23.418154,-34.652855,-21.014154
3.581250,99.364998,-1.939211,33.936890,-23.208117,-35.957268,-21.000931
3.587500,92.513763,-1.940654,33.501083,-23.083706,-36.237118,-21.033394
3.593750,83.237106,-1.941700,32.416626,-23.034660,-35.361160,-21.134079
3.600000,71.660782,-1.941707,30.617180,-23.072578,-33.174419,-21.317450
3.606250,58.022182,-1.940325,29.956610,-23.211021,-29.834854,-21.577667
3.612500,42.656582,-1.938076,28.980297,-23.436300,-25.620495,-21.888552
3.618750,25.987707,-1.935416,28.088852,-23.764565,-20.927830,-22.224985
3.625000,8.509841,-1.932076,27.398426,-24.207577,-16.539274,-22.628992
3.631250,-9.243408,-1.927895,27.516722,-24.727283,-10.654498,-23.063080
3.637500,-26.728325,-1.923371,28.747337,-25.288570,-4.994371,-23.498871
3.643750,-43.416908,-1.919200,31.229279,-25.854237,0.415646,-23.916359
3.650000,-58.815884,-1.915705,33.097660,-26.379316,5.488029,-24.298653
3.656250,-72.495087,-1.912760,35.910912,-26.788811,10.135598,-24.628975
3.662500,-84.112343,-1.910503,38.843472,-27.128014,14.260259,-24.901985
3.668750,-93.430885,-1.909196,42.822407,-27.374990,17.724564,-25.124557
3.675000,-100.326591,-1.908496,46.167667,-27.501947,20.444059,-25.295065
3.681250,-104.797165,-1.907919,48.607956,-27.506273,22.362200,-25.412109
3.687500,-106.965721,-1.907813,49.902454,-27.400471,23.402674,-25.478897
3.693750,-107.072922,-1.908969,49.904125,-27.211464,23.514021,-25.504335
3.700000,-105.457588,-1.911265,48.617363,-26.944143,22.701185,-25.499409
3.706250,-102.540169,-1.913769,46.198490,-26.616409,21.097422,-25.456987
3.712500,-98.811157,-1.916043,42.628643,-26.267603,18.919073,-25.370552
3.718750,-94.808296,-1.918605,36.207211,-25.924826,16.316935,-25.245272
3.725000,-88.912407,-1.921845,28.855961,-25.604181,13.621057,-25.096786
3.731250,-83.014801,-1.925160,20.302084,-25.349823,11.434515,-24.963926
3.737500,-77.112114,-1.928012,12.485284,-25.185356,10.176252,-24.858929
3.743750,-71.207237,-1.930616,4.154835,-25.096254,10.253033,-24.803869
3.750000,-65.303719,-1.933309,-4.138383,-25.070599,10.262142,-24.713980
3.756250,-59.401588,-1.935976,-11.996202,-25.103867,10.184561,-24.609510
3.762500,-53.498394,-1.938405,-18.999813,-25.175018,11.342280,-24.490690
3.768750,-47.595501,-1.940861,-24.711994,-25.248108,13.483393,-24.406343
3.775000,-41.694130,-1.943611,-28.902174,-25.333796,16.148174,-24.345352
3.781250,-35.793159,-1.946436,-31.458857,-25.419880,18.733522,-24.292267
3.787500,-29.890957,-1.948977,-32.030594,-25.485918,20.877378,-24.240002
3.793750,-23.988972,-1.951602,-30.532272,-25.546217,22.273031,-24.191957
3.800000,-18.088781,-1.954638,-28.885469,-25.545034,22.728182,-24.140131
3.806250,-12.188992,-1.957986,-24.738342,-25.457111,22.256481,-24.048941
3.812500,-6.287719,-1.961509,-19.604088,-25.322159,20.718346,-23.926619
3.818750,-0.386150,-1.965390,-14.030056,-25.157234,18.002483,-23.783459
3.825000,5.516204,-1.969595,-8.552185,-24.976629,14.242289,-23.626366
3.831250,11.422732,-1.973471,-1.516850,-24.794922,9.703456,-23.466000
3.837500,17.333282,-1.976774,5.260557,-24.626188,4.710100,-23.339308
3.843750,23.243534,-1.980217,11.937655,-24.466476,-0.398050,-23.201496
3.850000,29.151234,-1.984155,16.825790,-24.309387,-6.309989,-23.033876
3.856250,35.059841,-1.987898,21.605133,-24.164757,-11.835839,-22.876534
3.862500,40.972691,-1.990903,25.852787,-24.030659,-16.955027,-22.737867
3.868750,46.884838,-1.993761,29.239517,-23.894569,-21.644901,-22.614962
3.875000,52.790371,-1.997679,31.444250,-23.733774,-25.933136,-22.496836
3.881250,58.691971,-2.002797,32.113892,-23.554081,-29.888359,-22.367897
3.887500,64.597069,-2.008050,30.850143,-23.357861,-33.695690,-22.232458
3.893750,70.508293,-2.012778,27.584984,-23.126759,-37.611130,-22.096010
3.900000,76.420975,-2.017789,24.392351,-22.850708,-41.766933,-21.950922
3.906250,82.330513,-2.023850,19.822844,-22.529436,-44.465855,-21.795179
3.912500,88.240120,-2.030905,14.346982,-22.164171,-47.574017,-21.624323
3.918750,94.155830,-2.038366,8.427611,-21.762829,-50.803879,-21.425097
3.925000,98.185287,-2.045579,2.433130,-21.351852,-53.913261,-21.170950
3.931250,101.949539,-2.052393,-3.296763,-20.957262,-56.965073,-20.950945
3.937500,104.914841,-2.058804,-8.330686,-20.598953,-57.758942,-20.761583
3.943750,106.588348,-2.064561,-12.339571,-20.299862,-57.373241,-20.610876
3.950000,106.544197,-2.069221,-15.107368,-20.081894,-55.340363,-20.512720
3.956250,104.441238,-2.072217,-16.509253,-19.963461,-51.307926,-20.482506
3.962500,100.039818,-2.073477,-16.486200,-19.954332,-45.023476,-20.532419
3.968750,93.214569,-2.073341,-15.034752,-20.051725,-36.348232,-20.670967
3.975000,83.962883,-2.071887,-14.104549,-20.221983,-25.290173,-20.908712
3.981250,72.405289,-2.069163,-10.005176,-20.515665,-12.008912,-21.274015
3.987500,58.777412,-2.065352,-5.653802,-20.916288,1.878795,-21.681721
3.993750,43.417713,-2.060711,-0.364157,-21.380030,17.034584,-22.191748
4.000000,26.752455,-2.055439,5.216343,-21.902666,32.657059,-22.812426
4.006250,9.274419,-2.049534,10.736814,-22.467892,47.881462,-23.574896
4.012500,-8.486050,-2.043447,15.928369,-23.048117,61.632889,-24.335365
4.018750,-25.985271,-2.038092,20.542763,-23.610613,74.591385,-25.071396
4.025000,-42.689476,-2.033635,24.289463,-24.139668,84.809608,-25.817513
4.031250,-58.101494,-2.029654,29.036385,-24.625700,93.196220,-26.578751
4.037500,-71.792564,-2.026247,31.412916,-25.047812,98.876053,-27.300745
4.043750,-83.424774,-2.024105,33.462612,-25.393316,102.133331,-27.953341
4.050000,-92.759842,-2.023332,35.038933,-25.662025,103.367218,-28.519423
4.056250,-99.669647,-2.022954,36.073833,-25.844238,103.105881,-28.989407
4.062500,-104.151825,-2.022355,36.644535,-25.922855,100.146278,-29.330063
4.068750,-106.334221,-2.022512,36.695190,-25.914410,96.889076,-29.527555
4.075000,-106.458603,-2.024689,36.245651,-25.836189,93.396034,-29.589428
4.081250,-104.859299,-2.028145,35.476089,-25.701729,89.891922,-29.519728
4.087500,-101.953545,-2.031444,34.641399,-25.519672,84.537964,-29.319818
4.093750,-98.233467,-2.034132,34.043621,-25.299074,79.060150,-28.995604
4.100000,-94.240730,-2.037039,32.102989,-25.054117,73.315598,-28.567823
4.106250,-88.357368,-2.040873,30.815390,-24.790676,67.207451,-28.076382
4.112500,-82.474167,-2.045238,30.082567,-24.499750,60.817848,-27.478483
4.118750,-76.587875,-2.049885,29.649323,-24.197775,54.314545,-26.809937
4.125000,-70.699974,-2.055107,29.217369,-23.900202,47.435520,-26.112055
4.131250,-64.810898,-2.060946,28.621696,-23.616047,40.329967,-25.415140
4.137500,-58.916950,-2.066832,27.747087,-23.348740,33.197968,-24.742445
4.143750,-53.016945,-2.072355,26.507822,-23.097252,26.251011,-24.111843
4.150000,-47.113914,-2.077851,24.816978,-22.860577,19.680304,-23.535942
4.156250,-41.210789,-2.083715,24.770487,-22.634991,13.661765,-23.015713
4.162500,-35.306072,-2.089863,24.960688,-22.409695,8.334078,-22.564337
4.168750,-29.398075,-2.096074,23.975737,-22.173620,5.414510,-22.182547
4.175000,-23.486094,-2.102355,23.667837,-21.945686,2.333025,-21.870369
4.181250,-17.570038,-2.108544,23.848602,-21.730804,0.801798,-21.619926
4.187500,-11.649667,-2.114374,24.319391,-21.533735,0.703458,-21.370787
4.193750,-5.724826,-2.119797,24.856588,-21.360407,2.094887,-21.233410
4.200000,0.203960,-2.124621,25.230013,-21.218485,3.064280,-21.179174
4.206250,6.135974,-2.128523,25.224802,-21.115158,4.285313,-21.187222
4.212500,12.070642,-2.131324,24.676046,-21.047560,6.787988,-21.213379
4.218750,18.004055,-2.133398,25.646696,-21.005022,8.339915,-21.262419
4.225000,23.933500,-2.135184,24.729925,-20.983034,8.938323,-21.334955
4.231250,29.859159,-2.136860,23.903101,-20.970341,8.432986,-21.416967
4.237500,35.782257,-2.138298,22.958218,-20.966909,6.654933,-21.485876
4.243750,41.703358,-2.139483,21.560324,-20.988556,5.525091,-21.550966
4.250000,47.622868,-2.140355,19.551168,-21.020748,3.422767,-21.611647
4.256250,53.540478,-2.140804,16.784576,-21.046001,0.870040,-21.651649
4.262500,59.453701,-2.138923,13.027080,-21.049362,-1.718190,-21.659826
4.268750,65.347176,-2.140349,8.080953,-21.020376,-3.986721,-21.625668
4.275000,71.247093,-2.142947,1.766875,-20.951748,-5.622088,-21.542614
4.281250,77.146255,-2.146205,-3.909701,-20.831369,-6.353460,-21.398197
4.287500,83.047653,-2.149847,-10.479247,-20.656137,-5.982328,-21.163332
4.293750,88.948692,-2.154684,-17.681746,-20.449110,-4.605418,-20.908602
4.300000,94.849060,-2.160860,-25.150675,-20.212049,-2.494576,-20.636511
4.306250,98.861397,-2.167256,-32.441208,-19.948177,0.545337,-20.344208
4.312500,102.612106,-2.172776,-39.236542,-19.668242,4.306314,-20.041370
4.318750,105.564117,-2.177802,-45.265255,-19.387001,8.523776,-19.741432
4.325000,107.217133,-2.183352,-50.327293,-19.125435,12.894486,-19.462124
4.331250,107.146255,-2.189273,-54.275505,-18.906996,17.106888,-19.218267
4.337500,105.017876,-2.194490,-57.012493,-18.778618,20.889887,-19.012272
4.343750,100.595528,-2.198534,-58.558949,-18.652084,24.020437,-18.787720
4.350000,93.753464,-2.201647,-57.910732,-18.596733,26.026018,-18.667593
4.356250,84.489319,-2.203694,-55.965652,-18.648621,28.573355,-18.632568
4.362500,72.925697,-2.204151,-52.523182,-18.806887,30.421331,-18.693068
4.368750,59.296627,-2.203410,-47.671329,-19.063524,31.922157,-18.875998
4.375000,43.936729,-2.202273,-41.611969,-19.405329,33.322071,-19.121063
4.381250,27.273108,-2.200642,-34.619511,-19.810997,34.674252,-19.410852
4.387500,9.802909,-2.197867,-27.015564,-20.254053,36.783325,-19.752098
4.393750,-7.943222,-2.194211,-19.214931,-20.718233,37.969616,-20.172989
4.400000,-25.425896,-2.190866,-11.674790,-21.190594,39.796024,-20.648993
4.406250,-42.112015,-2.187940,-2.599599,-21.653286,41.843384,-21.153927
4.412500,-57.503574,-2.184630,4.426657,-22.092939,43.820114,-21.668961
4.418750,-71.172211,-2.181034,11.248707,-22.503796,45.512428,-22.180672
4.425000,-82.783073,-2.178044,17.695124,-22.823874,46.837601,-22.641230
4.431250,-92.099731,-2.176130,23.593109,-23.052967,47.807384,-23.022753
4.437500,-98.995018,-2.174558,28.551977,-23.202871,48.189156,-23.321615
4.443750,-103.466385,-2.173129,32.526157,-23.281078,47.982971,-23.530922
4.450000,-105.640244,-2.172750,35.581005,-23.289608,47.317177,-23.643389
4.456250,-105.754036,-2.173867,37.845612,-23.232862,46.360249,-23.657387
4.462500,-104.142303,-2.175749,39.520470,-23.121126,45.294460,-23.579123
4.468750,-101.227936,-2.177971,40.893547,-22.973679,44.341316,-23.430761
4.475000,-97.506660,-2.180982,40.450306,-22.789257,43.795784,-23.198202
4.481250,-93.512222,-2.184856,40.356674,-22.561165,42.381901,-22.867485
4.487500,-87.617912,-2.188745,40.273952,-22.321280,41.631374,-22.485228
4.493750,-81.718086,-2.192383,40.010941,-22.091394,41.243595,-22.081202
4.500000,-75.819466,-2.196929,39.500320,-21.882277,40.999363,-21.677011
4.506250,-69.924004,-2.203096,38.719173,-21.694788,40.688354,-21.287117
4.512500,-64.023544,-2.209757,37.659653,-21.515978,40.092937,-20.921158
4.518750,-58.110233,-2.215350,36.322006,-21.292116,38.966381,-20.588814
4.525000,-52.188110,-2.220006,34.733128,-21.106916,36.993828,-20.325354
4.531250,-46.266842,-2.224942,33.977345,-20.969770,33.727448,-20.119846
4.537500,-40.347305,-2.230480,33.549343,-20.837168,30.525290,-19.949003
4.543750,-34.422443,-2.235800,32.044102,-20.697504,25.888067,-19.824259
4.550000,-28.488974,-2.240111,31.180998,-20.577848,20.145397,-19.721292
4.556250,-22.549822,-2.243507,30.668978,-20.500574,13.703974,-19.700695
4.562500,-16.609112,-2.246337,30.292627,-20.485111,7.269153,-19.778774
4.568750,-10.667223,-2.248636,29.826761,-20.557480,0.816350,-19.952194
4.575000,-4.722561,-2.250109,29.043737,-20.775078,-5.470439,-20.169218
4.581250,1.225386,-2.250340,27.761208,-21.057392,-11.266796,-20.440613
4.587500,7.174497,-2.249286,24.711592,-21.424833,-16.077158,-20.778782
4.593750,13.121849,-2.247293,22.769714,-21.896910,-19.715515,-21.176422
4.600000,19.065382,-2.244488,20.062601,-22.477346,-22.133282,-21.613012
4.606250,25.005322,-2.240634,16.460037,-23.230679,-23.474447,-22.100229
4.612500,30.940561,-2.235809,12.909305,-24.021717,-24.012159,-22.628717
4.618750,36.866077,-2.231010,8.745413,-24.885162,-23.811954,-23.175987
4.625000,42.779221,-2.227001,4.317492,-25.800703,-23.157707,-23.726679
4.631250,48.686192,-2.223172,-0.081969,-26.734922,-22.371632,-24.267256
4.637500,54.591843,-2.218497,-4.191014,-27.644876,-21.817802,-24.780783
4.643750,60.492607,-2.213558,-7.762708,-28.477537,-21.860590,-25.232151
4.650000,66.379478,-2.209865,-12.491361,-29.172129,-22.849325,-25.573853
4.656250,72.251930,-2.208223,-14.516380,-29.700506,-25.163109,-25.812716
4.662500,78.118217,-2.208187,-15.887251,-30.054529,-27.373379,-25.971228
4.668750,83.983253,-2.209444,-16.472729,-30.203871,-30.861605,-26.022278
4.675000,89.847893,-2.212220,-16.298119,-30.135904,-35.390079,-25.957834
4.681250,93.818306,-2.216334,-15.495685,-29.853306,-40.750221,-25.778656
4.687500,97.520103,-2.221199,-14.269480,-29.379736,-46.717876,-25.496054
4.693750,100.419693,-2.226947,-12.865011,-28.753305,-53.024158,-25.121672
4.700000,102.021309,-2.234698,-11.577423,-28.001978,-59.324886,-24.657816
4.706250,101.901009,-2.244185,-10.890392,-27.130531,-65.253487,-24.097055
4.712500,99.729324,-2.253573,-11.052758,-26.180548,-70.374779,-23.491472
4.718750,95.272690,-2.261677,-12.404232,-25.227339,-76.093163,-22.898417
