Anritsu VNA Frequency[GHz],S21[deg],S21[dB],S11[deg],S11[dB],S22[deg],S22[dB]
1338099155.38,2012_05_27_07:12:35,+40.452,+10.253,+54.727,+10.264,+13.897,+13.707,+14.003,+13.753,10.358143,-15.987
3.006250,33.017197,-1.740769,58.287338,-26.696529,-81.367477,-27.422005
3.012500,33.017197,-1.740769,58.287338,-26.696529,-81.367477,-27.422005
3.018750,33.017197,-1.740769,58.287338,-26.696529,-81.367477,-27.422005
3.025000,33.017197,-1.740769,58.287338,-26.696529,-81.367477,-27.422005
3.031250,33.017197,-1.740769,58.287338,-26.696529,-81.367477,-27.422005
3.037500,33.017197,-1.740769,58.287338,-26.696529,-81.367477,-27.422005
3.043750,33.017197,-1.740769,58.287338,-26.696529,-81.367477,-27.422005
3.050000,33.017197,-1.740769,58.287338,-26.696529,-81.367477,-27.422005
3.056250,33.017197,-1.740769,58.287338,-26.696529,-81.367477,-27.422005
3.062500,33.017197,-1.740769,58.287338,-26.696529,-81.367477,-27.422005
3.068750,33.017197,-1.740769,58.287338,-26.696529,-81.367477,-27.422005
3.075000,33.017197,-1.740769,58.287338,-26.696529,-81.367477,-27.422005
3.081250,33.017197,-1.740769,58.287338,-26.696529,-81.367477,-27.422005
3.087500,33.017197,-1.740769,58.287338,-26.696529,-81.367477,-27.422005
3.093750,33.017197,-1.742545,58.287338,-26.498114,-81.367477,-27.169315
3.100000,38.921345,-1.744621,55.635616,-26.352108,-83.324257,-26.934496
3.106250,44.825493,-1.746706,52.111412,-26.278824,-83.677994,-26.718609
3.112500,50.730247,-1.748841,48.064148,-26.297634,-82.073593,-26.495493
3.118750,56.633953,-1.751155,42.096413,-26.346687,-80.348183,-26.190989
3.125000,62.536453,-1.753678,37.327576,-26.396488,-76.264023,-25.928774
3.131250,68.438683,-1.756291,32.973022,-26.472439,-70.095749,-25.639374
3.137500,74.339638,-1.759232,29.293610,-26.575750,-62.213551,-25.313614
3.143750,80.238983,-1.762695,26.490217,-26.696918,-52.796589,-24.960205
3.150000,86.139168,-1.766466,24.740242,-26.821394,-41.998737,-24.591774
3.156250,92.042542,-1.769984,24.163559,-26.934425,-29.992277,-24.226498
3.162500,96.053589,-1.773214,24.825300,-27.023146,-16.973770,-23.887217
3.168750,99.791435,-1.776597,26.746046,-27.079765,-3.152846,-23.624912
3.175000,102.722618,-1.780224,29.972176,-27.084047,9.401255,-23.381348
3.181250,104.356949,-1.783923,32.745674,-27.023020,22.733511,-23.161093
3.187500,104.269135,-1.787407,36.525799,-26.913923,35.515388,-22.995657
3.193750,102.118057,-1.790651,40.610188,-26.769529,47.258003,-22.900927
3.200000,97.666100,-1.793569,44.431725,-26.598001,57.545372,-22.879597
3.206250,90.791321,-1.796109,47.509003,-26.410402,65.990555,-22.932230
3.212500,81.491943,-1.798447,49.425179,-26.221220,72.280754,-23.066322
3.218750,69.888412,-1.800996,49.868713,-26.041084,76.183678,-23.263931
3.225000,56.219223,-1.803423,50.839596,-25.863966,77.333023,-23.470606
3.231250,40.827145,-1.805280,50.878063,-25.690001,75.901436,-23.694822
3.237500,24.137640,-1.806823,48.490215,-25.518469,73.891243,-23.928049
3.243750,6.638251,-1.808725,45.789318,-25.325668,69.717911,-24.147449
3.250000,-11.137849,-1.811174,42.640446,-25.153751,63.983601,-24.334242
3.256250,-28.640251,-1.813729,38.686943,-25.014111,57.244545,-24.487293
3.262500,-45.334095,-1.815928,34.174549,-24.889744,50.131306,-24.595573
3.268750,-60.729095,-1.817805,29.044109,-24.776686,43.341629,-24.650240
3.275000,-74.401009,-1.819779,23.171543,-24.674183,37.460827,-24.651419
3.281250,-86.010155,-1.822171,16.448803,-24.572914,32.993446,-24.606504
3.287500,-95.317406,-1.824914,8.780704,-24.460186,30.319918,-24.530552
3.293750,-102.198921,-1.827726,0.132652,-24.296068,29.703604,-24.422613
3.300000,-106.654274,-1.830467,-7.319867,-24.128578,31.309559,-24.283916
3.306250,-108.804535,-1.832930,-15.993584,-23.993851,35.111961,-24.141750
3.312500,-108.887802,-1.835157,-24.667879,-23.872593,40.924694,-24.028263
3.318750,-107.245201,-1.837248,-33.053062,-23.773382,48.488579,-23.964031
3.325000,-104.304382,-1.839191,-40.885651,-23.713245,57.463898,-23.958782
3.331250,-100.556442,-1.840768,-47.910458,-23.716785,67.417938,-24.015425
3.337500,-96.534821,-1.841983,-53.943878,-23.845718,77.832253,-24.132957
3.343750,-90.618309,-1.842857,-58.973015,-24.008331,88.167107,-24.296646
3.350000,-84.702209,-1.843346,-63.410034,-24.230013,97.921539,-24.449533
3.356250,-78.787025,-1.843537,-66.850037,-24.554041,106.814362,-24.646852
3.362500,-72.873444,-1.843581,-67.574219,-25.002960,113.889488,-24.895283
3.368750,-66.961777,-1.843375,-67.219643,-25.557344,119.235817,-25.184675
3.375000,-61.050602,-1.842577,-65.671562,-26.190495,122.390297,-25.560339
3.381250,-55.141651,-1.841410,-62.942513,-26.868557,123.097427,-25.894352
3.387500,-49.239140,-1.840614,-59.129993,-27.553366,121.881775,-26.215887
3.393750,-43.342869,-1.840628,-54.391613,-28.199987,118.073105,-26.517658
3.400000,-37.449104,-1.841019,-48.948650,-28.765985,112.113548,-26.792456
3.406250,-31.554241,-1.841205,-43.136131,-29.230677,104.881302,-27.071167
3.412500,-25.659891,-1.841563,-37.284096,-29.569159,96.922668,-27.319399
3.418750,-19.770763,-1.842823,-29.455139,-29.760111,86.777588,-27.516142
3.425000,-13.884532,-1.845042,-23.190296,-29.799150,76.649506,-27.655313
3.431250,-7.995551,-1.847423,-16.636572,-29.702057,66.906189,-27.742617
3.437500,-2.102648,-1.849730,-10.047194,-29.453056,57.960419,-27.782148
3.443750,3.789866,-1.852685,-3.448949,-29.050764,50.483978,-27.721350
3.450000,9.680881,-1.856598,2.642145,-28.540295,42.764515,-27.589796
3.456250,15.575906,-1.860695,8.061143,-27.960241,36.624393,-27.400928
3.462500,21.479700,-1.864134,12.806839,-27.354038,31.835993,-27.156939
3.468750,27.388617,-1.866956,16.963425,-26.767950,28.177813,-26.853781
3.475000,33.297871,-1.869555,20.641926,-26.266273,25.398739,-26.508356
3.481250,39.206562,-1.872039,24.096870,-25.803560,23.212286,-26.136490
3.487500,45.114830,-1.874517,26.061712,-25.408033,21.382124,-25.731558
3.493750,51.021843,-1.877390,27.923805,-25.115282,19.597984,-25.300390
3.500000,56.928116,-1.880698,29.507519,-24.929768,17.539431,-24.855465
3.506250,62.837826,-1.883711,30.708757,-24.837187,14.974827,-24.407591
3.512500,68.751625,-1.885891,31.436981,-24.804388,11.720198,-23.966122
3.518750,74.665520,-1.887847,31.665918,-24.744705,7.643096,-23.535488
3.525000,80.573311,-1.890740,31.535578,-24.727001,2.629718,-23.122005
3.531250,86.476898,-1.894676,31.646511,-24.713272,-3.452236,-22.740423
3.537500,92.383179,-1.898852,31.640385,-24.667494,-8.546074,-22.407751
3.543750,96.400497,-1.902760,31.761129,-24.579395,-14.119340,-22.119881
3.550000,100.147392,-1.906807,32.347980,-24.422083,-19.888298,-21.838453
3.556250,103.087379,-1.911601,31.842983,-24.196905,-25.378519,-21.510386
3.562500,104.732338,-1.916621,31.952703,-23.933769,-30.302794,-21.269466
3.568750,104.661659,-1.920889,32.341568,-23.659599,-33.443344,-21.099657
3.575000,102.534462,-1.923789,32.731880,-23.400492,-35.811832,-21.002464
3.581250,98.107925,-1.925604,32.838409,-23.191399,-37.136082,-20.990631
3.587500,91.255661,-1.927016,32.404903,-23.068110,-37.440723,-21.024605
3.593750,81.977913,-1.928031,31.318098,-23.019936,-36.587658,-21.126852
3.600000,70.400223,-1.927957,29.525755,-23.058241,-34.426708,-21.312027
3.606250,56.759987,-1.926515,28.872694,-23.197502,-31.117821,-21.574291
3.612500,41.392658,-1.924237,27.898371,-23.423388,-26.937445,-21.887197
3.618750,24.721962,-1.921542,27.001415,-23.752327,-22.279428,-22.225792
3.625000,7.241970,-1.918169,26.296719,-24.194019,-17.929792,-22.632708
3.631250,-10.513819,-1.913961,26.392092,-24.711708,-12.074533,-23.069132
3.637500,-28.001495,-1.909381,27.597881,-25.270487,-6.439315,-23.506878
3.643750,-44.692875,-1.905220,30.051851,-25.833313,-1.051085,-23.926249
3.650000,-60.094868,-1.901713,31.889774,-26.355137,4.002953,-24.310638
3.656250,-73.777000,-1.898810,34.670704,-26.762339,8.638396,-24.642761
3.662500,-85.397385,-1.896602,37.573322,-27.098003,12.762351,-24.916973
3.668750,-94.718994,-1.895359,41.522202,-27.341948,16.232971,-25.140022
3.675000,-101.617790,-1.894725,44.838661,-27.466249,18.965612,-25.310913
3.681250,-106.091225,-1.894209,47.255550,-27.467970,20.900202,-25.427788
3.687500,-108.263199,-1.894218,48.534199,-27.360357,21.961441,-25.493877
3.693750,-108.373344,-1.895500,48.528564,-27.170265,22.096205,-25.517847
3.700000,-106.760818,-1.897942,47.242947,-26.902336,21.309689,-25.510517
3.706250,-103.845909,-1.900525,44.835293,-26.574821,19.732115,-25.464703
3.712500,-100.119446,-1.902908,41.287830,-26.227121,17.578156,-25.374454
3.718750,-96.119133,-1.905650,34.894020,-25.885500,14.999724,-25.244581
3.725000,-90.225845,-1.909009,27.574627,-25.565954,12.322891,-25.091143
3.731250,-84.330528,-1.912452,19.054945,-25.313393,10.153423,-24.953285
3.737500,-78.429893,-1.915412,11.276100,-25.150677,8.905149,-24.843294
3.743750,-72.527069,-1.918158,2.981837,-25.063362,8.989753,-24.783468
3.750000,-66.625610,-1.920916,-5.276067,-25.038853,9.012059,-24.688190
3.756250,-60.725243,-1.923681,-13.105598,-25.073065,8.937698,-24.577818
3.762500,-54.823669,-1.926227,-20.083735,-25.144793,10.101696,-24.454206
3.768750,-48.922424,-1.928791,-25.773525,-25.217897,12.253068,-24.365587
3.775000,-43.022758,-1.931633,-29.940901,-25.303755,14.922649,-24.301256
3.781250,-37.123371,-1.934549,-32.487934,-25.389975,17.515213,-24.245363
3.787500,-31.222677,-1.937168,-33.060234,-25.455040,19.668766,-24.190962
3.793750,-25.321941,-1.939853,-31.570328,-25.512951,21.077286,-24.142042
3.800000,-19.423216,-1.942954,-28.037615,-25.511856,21.545103,-24.089563
3.806250,-13.525288,-1.946342,-23.632977,-25.422812,21.089636,-23.997797
3.812500,-7.625589,-1.949869,-17.710640,-25.287071,19.562298,-23.876156
3.818750,-1.725564,-1.953763,-10.858588,-25.121550,16.853756,-23.734383
3.825000,4.175057,-1.957984,-3.681855,-24.940428,13.099289,-23.579336
3.831250,10.079907,-1.961834,5.389741,-24.758423,8.565948,-23.421219
3.837500,15.988533,-1.965116,14.438859,-24.589737,3.574713,-23.297264
3.843750,21.896616,-1.968480,23.509008,-24.429974,-1.536477,-23.160835
3.850000,27.802029,-1.972325,30.794529,-24.273260,-7.460492,-22.995764
3.856250,33.708447,-1.976000,37.852993,-24.129427,-12.998168,-22.840765
3.862500,39.619251,-1.978919,44.146904,-23.997017,-18.131172,-22.704098
3.868750,45.529415,-1.981674,49.244560,-23.863035,-22.838305,-22.582464
3.875000,51.432373,-1.985549,52.739265,-23.704775,-27.144199,-22.465137
3.881250,57.331856,-1.990601,54.212074,-23.528339,-31.120441,-22.336800
3.887500,63.234818,-1.995766,53.222054,-23.335634,-34.950226,-22.201984
3.893750,69.144394,-2.000532,49.686195,-23.107857,-38.887440,-22.065817
3.900000,75.055275,-2.005515,45.693493,-22.835300,-43.064594,-21.920959
3.906250,80.963127,-2.011620,39.835941,-22.517752,-45.782139,-21.765709
3.912500,86.871033,-2.018727,32.646408,-22.156796,-48.907013,-21.595366
3.918750,92.785164,-2.026223,24.676291,-21.759815,-52.150803,-21.396976
3.925000,96.813210,-2.033543,16.391832,-21.353579,-55.270706,-21.143114
3.931250,100.576294,-2.040505,8.245755,-20.962460,-58.341225,-20.924564
3.937500,103.540100,-2.047008,0.794229,-20.607195,-59.142715,-20.736795
3.943750,105.211731,-2.052880,-5.517002,-20.310625,-58.763966,-20.587744
3.950000,105.165894,-2.057590,-10.349970,-20.094887,-56.736824,-20.491285
3.956250,103.061127,-2.060594,-13.478662,-19.977940,-52.707073,-20.462984
3.962500,98.657761,-2.061888,-14.758404,-19.969887,-46.424686,-20.514576
3.968750,91.830383,-2.061747,-14.121958,-20.068752,-37.750168,-20.654633
3.975000,82.576027,-2.060250,-13.475972,-20.241468,-26.685801,-20.893999
3.981250,71.015984,-2.057420,-11.290545,-20.534655,-13.399410,-21.253637
3.987500,57.385658,-2.053482,-6.950257,-20.936243,0.513955,-21.659409
3.993750,42.023628,-2.048719,-1.669199,-21.401354,15.687741,-22.166552
4.000000,25.356096,-2.043305,3.895672,-21.925550,31.327560,-22.782293
4.006250,7.875659,-2.037187,9.401388,-22.493156,46.576691,-23.538095
4.012500,-9.887253,-2.030951,14.576930,-23.076586,60.349850,-24.289898
4.018750,-27.388531,-2.025430,19.174719,-23.642776,73.344437,-25.015467
4.025000,-44.094498,-2.020846,22.907473,-24.175974,83.595726,-25.751991
4.031250,-59.508186,-2.016778,27.638391,-24.666212,92.014343,-26.502024
4.037500,-73.200455,-2.013238,29.998125,-25.092302,97.718491,-27.212708
4.043750,-84.834572,-2.011039,32.030380,-25.441370,100.996597,-27.855114
4.050000,-94.171196,-2.010245,33.589317,-25.712732,102.242203,-28.412266
4.056250,-101.082390,-2.009821,34.606537,-25.897528,101.982559,-28.874908
4.062500,-105.565895,-2.009198,35.161114,-25.976969,99.020874,-29.209612
4.068750,-107.749886,-2.009359,35.200611,-25.968391,95.753983,-29.403286
4.075000,-107.876190,-2.011523,34.745136,-25.889206,92.240501,-29.463346
4.081250,-106.278862,-2.014929,33.974632,-25.753002,88.710342,-29.394060
4.087500,-103.374924,-2.018134,33.143803,-25.568529,83.325523,-29.195971
4.093750,-99.656822,-2.020678,32.552872,-25.344284,77.814735,-28.875547
4.100000,-95.666473,-2.023477,30.620153,-25.095161,72.038437,-28.453300
4.106250,-89.785698,-2.027131,29.344862,-24.826324,65.899452,-27.968166
4.112500,-83.905296,-2.031282,28.631077,-24.530512,59.484173,-27.377119
4.118750,-78.021652,-2.035705,28.219080,-24.223839,52.956253,-26.716290
4.125000,-72.136299,-2.040669,27.814920,-23.921942,46.058491,-26.026337
4.131250,-66.249992,-2.046287,27.243336,-23.633984,38.940281,-25.337170
4.137500,-60.358669,-2.051912,26.391178,-23.363630,31.801268,-24.671148
4.143750,-54.461300,-2.057214,25.171381,-23.109900,24.854443,-24.046173
4.150000,-48.560944,-2.062548,23.498041,-22.871983,18.291063,-23.474524
4.156250,-42.660347,-2.068282,23.465494,-22.645842,12.280107,-22.955696
4.162500,-36.758350,-2.074367,23.669901,-22.421362,6.970504,-22.512682
4.168750,-30.852596,-2.080602,22.695601,-22.185688,4.064414,-22.133499
4.175000,-24.942873,-2.086994,22.391836,-21.959076,0.990117,-21.823589
4.181250,-19.029272,-2.093298,22.577822,-21.746658,-0.525210,-21.576118
4.187500,-13.111093,-2.099334,23.052696,-21.552664,-0.607717,-21.330122
4.193750,-7.188084,-2.105019,23.594538,-21.382761,0.807678,-21.196438
4.200000,-1.261517,-2.110135,23.973003,-21.244539,1.788785,-21.146481
4.206250,4.668381,-2.114360,23.972446,-21.145388,3.024482,-21.158041
4.212500,10.600911,-2.117493,23.428267,-21.081873,5.542796,-21.188484
4.218750,16.531864,-2.119925,24.405333,-21.042789,7.110167,-21.242155
4.225000,22.459148,-2.122029,23.493769,-21.024012,7.719151,-21.318844
4.231250,28.382494,-2.124038,22.674202,-21.014143,7.224610,-21.404705
4.237500,34.303379,-2.125734,21.738424,-21.011919,5.454275,-21.476999
4.243750,40.221638,-2.127149,20.351595,-21.034571,4.322522,-21.545605
4.250000,46.138702,-2.128202,18.353605,-21.066849,2.211797,-21.609148
4.256250,52.053516,-2.128720,15.597225,-21.091438,-0.352134,-21.651419
4.262500,57.964226,-2.129327,11.849310,-21.093393,-2.957202,-21.661024
4.268750,63.867435,-2.130673,6.910819,-21.062046,-5.247954,-21.628052
4.275000,69.764191,-2.133151,0.601262,-20.990707,-6.908801,-21.545376
4.281250,75.660629,-2.136190,-5.074172,-20.866791,-7.669511,-21.400675
4.287500,81.559479,-2.139643,-11.644114,-20.687794,-7.328399,-21.165649
4.293750,87.457748,-2.144242,-18.851612,-20.476892,-5.984781,-20.910587
4.300000,93.355423,-2.150181,-26.328642,-20.236145,-3.905487,-20.637756
4.306250,97.365440,-2.156355,-33.632496,-19.968813,-0.895726,-20.344513
4.312500,101.114494,-2.161590,-40.442890,-19.685888,2.838949,-20.040747
4.318750,104.064438,-2.166405,-46.489693,-19.402142,7.035820,-19.739801
4.325000,105.715614,-2.171764,-51.570297,-19.139063,11.390534,-19.459436
4.331250,105.643059,-2.177480,-55.537228,-18.919779,15.594285,-19.214472
4.337500,103.513298,-2.182536,-58.289146,-18.796198,19.376368,-19.007423
4.343750,99.090126,-2.186447,-59.851841,-18.665977,22.514778,-18.780199
4.350000,92.247063,-2.189456,-59.214844,-18.611248,24.514553,-18.658392
4.356250,82.982018,-2.191340,-57.276424,-18.665203,27.074446,-18.621683
4.362500,71.417206,-2.191706,-53.833187,-18.826534,28.936077,-18.680828
4.368750,57.787205,-2.190848,-48.974262,-19.086481,30.453926,-18.862989
4.375000,42.426052,-2.189624,-42.902435,-19.431812,31.868828,-19.105343
4.381250,25.761448,-2.187890,-35.891907,-19.840696,33.238312,-19.392227
4.387500,8.290246,-2.185022,-28.265852,-20.286476,35.366074,-19.731464
4.393750,-9.457221,-2.181282,-20.441338,-20.752739,36.570095,-20.150295
4.400000,-26.940996,-2.177878,-12.877791,-21.226919,38.409721,-20.624367
4.406250,-43.628483,-2.174948,-3.778167,-21.690823,40.465340,-21.127523
4.412500,-59.021233,-2.171604,3.271091,-22.131186,42.446430,-21.641106
4.418750,-72.691345,-2.168014,10.114079,-22.541424,44.139412,-22.151342
4.425000,-84.303543,-2.165056,16.576227,-22.860008,45.466042,-22.609816
4.431250,-93.621872,-2.163161,22.487282,-23.086861,46.430077,-22.989573
4.437500,-100.518539,-2.161653,27.454147,-23.233526,46.802814,-23.286821
4.443750,-104.991707,-2.160346,31.432775,-23.307877,46.585728,-23.494783
4.450000,-107.167007,-2.160108,34.489288,-23.311848,45.910042,-23.605837
4.456250,-107.282166,-2.161411,36.755413,-23.250242,44.942631,-23.618923
4.462500,-105.671997,-2.163458,38.431293,-23.133549,43.868095,-23.539921
4.468750,-102.759125,-2.165762,39.805233,-22.981392,42.907711,-23.391317
4.475000,-99.039230,-2.168892,39.360916,-22.792501,42.360622,-23.157747
4.481250,-95.046127,-2.172898,39.270061,-22.560368,40.947723,-22.827110
4.487500,-89.152916,-2.176804,39.189507,-22.317600,40.200871,-22.445601
4.493750,-83.254692,-2.180452,38.927647,-22.085907,39.820751,-22.042723
4.500000,-77.357765,-2.185020,38.419014,-21.876425,39.587990,-21.640139
4.506250,-71.463890,-2.191175,37.639191,-21.689384,39.292538,-21.252357
4.512500,-65.564560,-2.197732,36.580906,-21.511845,38.713703,-20.888664
4.518750,-59.652115,-2.203151,35.241474,-21.284098,37.602638,-20.558950
4.525000,-53.731392,-2.207651,33.652889,-21.103889,35.639915,-20.299482
4.531250,-47.811840,-2.212420,32.890705,-20.971495,32.372849,-20.096586
4.537500,-41.894382,-2.217796,32.459972,-20.842068,29.166853,-19.929409
4.543750,-35.970978,-2.222897,30.951885,-20.705969,24.525951,-19.808146
4.550000,-30.039135,-2.227032,30.080626,-20.590752,18.768614,-19.708055
4.556250,-24.102047,-2.230221,29.560402,-20.518585,12.306376,-19.691992
4.562500,-18.163534,-2.232922,29.176037,-20.509039,5.844915,-19.774580
4.568750,-12.224105,-2.235086,28.703491,-20.587601,-0.645034,-19.952875
4.575000,-6.281977,-2.236468,27.920511,-20.812822,-6.987246,-20.172493
4.581250,-0.336863,-2.236620,26.643375,-21.099407,-12.832440,-20.447672
4.587500,5.609375,-2.235519,23.591970,-21.471476,-17.690319,-20.789932
4.593750,11.553430,-2.233477,21.648226,-21.947355,-21.378027,-21.191389
4.600000,17.493731,-2.230633,18.942873,-22.529896,-23.845428,-21.631668
4.606250,23.430235,-2.226774,15.345609,-23.278791,-25.239016,-22.122234
4.612500,29.361937,-2.221995,11.756120,-24.066462,-25.819611,-22.653399
4.618750,35.283886,-2.217220,7.578269,-24.923134,-25.658497,-23.203201
4.625000,41.193745,-2.213269,3.130122,-25.827990,-25.033037,-23.755724
4.631250,47.097710,-2.209464,-1.300255,-26.748083,-24.265533,-24.297745
4.637500,53.000484,-2.204778,-5.452422,-27.640833,-23.717867,-24.811773
4.643750,58.898731,-2.199831,-9.077098,-28.453897,-23.754877,-25.262571
4.650000,64.783073,-2.196194,-13.866928,-29.127394,-24.725426,-25.602352
4.656250,70.653297,-2.194603,-15.955437,-29.634378,-27.011946,-25.839743
4.662500,76.517700,-2.194609,-17.394524,-29.967993,-29.185226,-25.995543
4.668750,82.381340,-2.195869,-18.046261,-30.098520,-32.629738,-26.043100
4.675000,88.244865,-2.198659,-17.932318,-30.014332,-37.112541,-25.974703
4.681250,94.109100,-2.202775,-17.183840,-29.718819,-42.428082,-25.791187
4.687500,98.083153,-2.207599,-16.001940,-29.236555,-48.354622,-25.503874
4.693750,101.787445,-2.213389,-14.627920,-28.606134,-54.625229,-25.124516
4.700000,104.685867,-2.221191,-13.356290,-27.855997,-60.895729,-24.655474
4.706250,106.289566,-2.230674,-12.682032,-26.988640,-66.802574,-24.088947
4.712500,106.182503,-2.240023,-12.839276,-26.045101,-71.900063,-23.479961
4.718750,104.027298,-2.248089,-14.179289,-25.103140,-77.601387,-22.883574
