Anritsu VNA Frequency[GHz],S21[deg],S21[dB],S11[deg],S11[dB],S22[deg],S22[dB]
1338118114.13,2012_05_27_12:28:34,+40.707,+10.273,+55.350,+10.291,+13.908,+13.719,+14.013,+13.765,10.395285,-15.817
3.006250,34.242043,-1.754753,59.335548,-26.655874,-79.885475,-27.427542
3.012500,34.242043,-1.754753,59.335548,-26.655874,-79.885475,-27.427542
3.018750,34.242043,-1.754753,59.335548,-26.655874,-79.885475,-27.427542
3.025000,34.242043,-1.754753,59.335548,-26.655874,-79.885475,-27.427542
3.031250,34.242043,-1.754753,59.335548,-26.655874,-79.885475,-27.427542
3.037500,34.242043,-1.754753,59.335548,-26.655874,-79.885475,-27.427542
3.043750,34.242043,-1.754753,59.335548,-26.655874,-79.885475,-27.427542
3.050000,34.242043,-1.754753,59.335548,-26.655874,-79.885475,-27.427542
3.056250,34.242043,-1.754753,59.335548,-26.655874,-79.885475,-27.427542
3.062500,34.242043,-1.754753,59.335548,-26.655874,-79.885475,-27.427542
3.068750,34.242043,-1.754753,59.335548,-26.655874,-79.885475,-27.427542
3.075000,34.242043,-1.754753,59.335548,-26.655874,-79.885475,-27.427542
3.081250,34.242043,-1.754753,59.335548,-26.655874,-79.885475,-27.427542
3.087500,34.242043,-1.754753,59.335548,-26.655874,-79.885475,-27.427542
3.093750,34.242043,-1.756399,59.335548,-26.453382,-79.885475,-27.179827
3.100000,40.149311,-1.758337,56.649364,-26.299959,-81.898621,-26.948723
3.106250,46.056644,-1.760295,53.077545,-26.218161,-82.294609,-26.735931
3.112500,51.964787,-1.762270,48.988178,-26.227892,-80.718513,-26.515022
3.118750,57.871952,-1.764480,42.977459,-26.270460,-79.010246,-26.216667
3.125000,63.778034,-1.766778,38.179226,-26.313911,-74.963776,-25.955265
3.131250,69.683617,-1.769202,33.783794,-26.384388,-68.802856,-25.666876
3.137500,75.588211,-1.771988,30.064384,-26.482958,-60.921837,-25.342440
3.143750,81.491173,-1.775349,27.224823,-26.601667,-51.503487,-24.989449
3.150000,87.394989,-1.779027,25.447645,-26.725771,-40.703072,-24.620798
3.156250,93.301781,-1.782516,24.853262,-26.840899,-28.696909,-24.254749
3.162500,97.316101,-1.785728,25.504066,-26.933853,-15.680064,-23.915476
3.168750,101.057098,-1.789096,27.422804,-26.997107,-3.758903,-23.650257
3.175000,103.991356,-1.792755,30.648983,-27.008913,8.518064,-23.405502
3.181250,105.628357,-1.796535,33.423023,-26.955818,21.038206,-23.183392
3.187500,105.543266,-1.800161,37.216053,-26.855545,32.520782,-23.015278
3.193750,103.394592,-1.803558,41.323448,-26.720160,42.530823,-22.917334
3.200000,98.945038,-1.806624,45.170418,-26.558149,50.742020,-22.892761
3.206250,92.072304,-1.809292,48.273689,-26.379385,56.873116,-22.942099
3.212500,82.775055,-1.811801,50.217426,-26.197586,60.727982,-23.073114
3.218750,71.173668,-1.814529,50.687843,-26.023159,62.201893,-23.268160
3.225000,57.506565,-1.817097,51.684883,-25.850023,61.041882,-23.472588
3.231250,42.116531,-1.819108,51.745392,-25.678598,57.536144,-23.695074
3.237500,25.429132,-1.820764,49.380833,-25.508965,53.795135,-23.927109
3.243750,7.932075,-1.822688,46.704075,-25.318617,48.323231,-24.146301
3.250000,-9.841407,-1.825191,43.579819,-25.146427,41.787994,-24.332846
3.256250,-27.341366,-1.827779,39.659252,-25.006443,34.782345,-24.486572
3.262500,-44.032780,-1.830021,35.172035,-24.882029,27.954039,-24.595900
3.268750,-59.425259,-1.831922,30.062901,-24.768879,21.984406,-24.652119
3.275000,-73.094421,-1.833880,24.209267,-24.665707,17.417021,-24.655207
3.281250,-84.700745,-1.836219,17.503595,-24.563507,14.693581,-24.612261
3.287500,-94.005287,-1.838953,9.853390,-24.449808,14.111542,-24.537416
3.293750,-100.884148,-1.841789,1.224200,-24.286287,15.822021,-24.431541
3.300000,-105.336884,-1.844525,-6.206714,-24.117786,19.872551,-24.295429
3.306250,-107.484924,-1.847008,-14.872958,-23.982304,26.116024,-24.155495
3.312500,-107.565788,-1.849257,-23.535204,-23.860350,34.253532,-24.043406
3.318750,-105.921249,-1.851441,-31.909010,-23.759453,43.904194,-23.979809
3.325000,-102.978256,-1.853454,-39.737076,-23.697527,54.620003,-23.975609
3.331250,-99.228775,-1.855116,-46.754662,-23.700653,65.880272,-24.033747
3.337500,-95.205551,-1.856439,-52.779732,-23.841171,77.109741,-24.152559
3.343750,-89.287453,-1.857409,-57.834118,-23.999029,87.726402,-24.317019
3.350000,-83.369743,-1.858009,-62.273415,-24.223534,97.480034,-24.472824
3.356250,-77.452827,-1.858323,-65.714706,-24.554005,106.093781,-24.671768
3.362500,-71.537621,-1.858500,-66.442711,-25.011183,112.355011,-24.922060
3.368750,-65.624275,-1.858384,-66.100304,-25.576262,116.395996,-25.212805
3.375000,-59.711296,-1.857678,-64.564079,-26.221882,117.816673,-25.588652
3.381250,-53.800293,-1.856576,-61.847393,-26.913033,116.435722,-25.924902
3.387500,-47.895123,-1.855865,-58.042915,-27.611103,112.907715,-26.248104
3.393750,-41.996197,-1.855915,-53.312187,-28.271210,106.657082,-26.551384
3.400000,-36.099522,-1.856312,-47.875370,-28.850035,98.249947,-26.827248
3.406250,-30.201376,-1.856503,-42.067192,-29.326057,88.690514,-27.106508
3.412500,-24.303755,-1.856803,-36.212734,-29.673780,78.644394,-27.354992
3.418750,-18.410734,-1.858032,-28.378998,-29.871347,66.753517,-27.551668
3.425000,-12.520757,-1.860213,-22.109074,-29.914524,55.307224,-27.690294
3.431250,-6.628294,-1.862526,-15.550376,-29.818678,44.739937,-27.776810
3.437500,-0.731606,-1.864760,-8.964989,-29.568130,35.506908,-27.815039
3.443750,5.164520,-1.867606,-2.365163,-29.160387,28.287687,-27.753363
3.450000,11.059267,-1.871398,3.723186,-28.641895,21.367554,-27.620895
3.456250,16.957989,-1.875431,9.141090,-28.052450,16.525473,-27.430801
3.462500,22.865097,-1.878891,13.881469,-27.436049,13.466029,-27.185808
3.468750,28.777472,-1.881712,18.027130,-26.838839,11.875144,-26.882776
3.475000,34.690022,-1.884300,21.684971,-26.327919,11.404920,-26.537031
3.481250,40.601948,-1.886758,25.121065,-25.853710,11.654259,-26.163902
3.487500,46.513470,-1.889295,27.063179,-25.448666,12.263245,-25.758202
3.493750,52.423683,-1.892263,28.903105,-25.149101,12.794994,-25.326950
3.500000,58.333275,-1.895643,30.467314,-24.960232,12.813004,-24.882174
3.506250,64.245308,-1.898822,31.656084,-24.867222,11.986996,-24.434109
3.512500,70.162033,-1.901181,32.372311,-24.835268,10.045965,-23.992102
3.518750,76.078987,-1.903262,32.590881,-24.765024,6.785392,-23.561054
3.525000,81.989586,-1.906257,32.491421,-24.754892,2.050798,-23.147493
3.531250,87.895653,-1.910351,32.619530,-24.744616,-2.129891,-22.765856
3.537500,93.804070,-1.914664,32.631481,-24.700777,-7.217572,-22.432203
3.543750,97.823334,-1.918626,32.775780,-24.614466,-12.784296,-22.142696
3.550000,101.571655,-1.922769,33.389164,-24.458160,-18.547653,-21.860598
3.556250,104.513527,-1.927594,32.912441,-24.233423,-24.035774,-21.533266
3.562500,106.159988,-1.932766,33.053318,-23.969954,-28.944859,-21.291037
3.568750,106.090408,-1.937069,33.467377,-23.694365,-32.082672,-21.120047
3.575000,103.964211,-1.940019,33.875298,-23.433456,-34.437305,-21.020790
3.581250,99.539070,-1.941883,33.994682,-23.222343,-35.744617,-21.007467
3.587500,92.688171,-1.943360,33.568733,-23.096735,-36.024185,-21.039467
3.593750,83.411880,-1.944445,32.487003,-23.046587,-35.149525,-21.139536
3.600000,71.835762,-1.944459,30.693213,-23.082935,-32.966702,-21.322176
3.606250,58.197311,-1.943113,30.025505,-23.220346,-29.630449,-21.581728
3.612500,42.831875,-1.940890,29.037136,-23.443907,-25.419449,-21.891577
3.618750,26.163439,-1.938216,28.145306,-23.771307,-20.730616,-22.226570
3.625000,8.685709,-1.934895,27.455166,-24.214357,-16.341934,-22.628799
3.631250,-9.067080,-1.930731,27.576351,-24.735138,-10.460114,-23.061274
3.637500,-26.551805,-1.926209,28.808546,-25.297754,-4.801615,-23.495474
3.643750,-43.240013,-1.921974,31.293247,-25.864779,0.607321,-23.911493
3.650000,-58.638817,-1.918390,33.165962,-26.391315,5.680605,-24.292431
3.656250,-72.317589,-1.915371,35.989376,-26.800764,10.329214,-24.621252
3.662500,-83.934464,-1.913053,38.934521,-27.141184,14.456379,-24.893583
3.668750,-93.252411,-1.911647,42.927208,-27.389256,17.924334,-25.115437
3.675000,-100.147644,-1.910835,46.285942,-27.516687,20.646833,-25.285822
3.681250,-104.617676,-1.910171,48.739170,-27.520977,22.570322,-25.403160
3.687500,-106.785599,-1.909953,50.043621,-27.414845,23.616356,-25.470476
3.693750,-106.892006,-1.911002,50.051594,-27.224234,23.732656,-25.496851
3.700000,-105.275848,-1.913191,48.767860,-26.954895,22.924021,-25.493534
3.706250,-102.357559,-1.915599,46.344906,-26.624939,21.322142,-25.452652
3.712500,-98.627693,-1.917755,42.767586,-26.272961,19.150375,-25.367929
3.718750,-94.624107,-1.920256,36.331493,-25.926453,16.552206,-25.244381
3.725000,-88.727676,-1.923423,28.963453,-25.601593,13.860409,-25.097980
3.731250,-82.829247,-1.926660,20.391253,-25.343473,11.676962,-24.966818
3.737500,-76.926117,-1.929448,12.556608,-25.175032,10.420317,-24.863214
3.743750,-71.020996,-1.931963,4.205276,-25.082378,10.500704,-24.809996
3.750000,-65.117432,-1.934607,-4.106152,-25.053493,10.506577,-24.721489
3.756250,-59.214935,-1.937208,-11.980468,-25.084339,10.429564,-24.618055
3.762500,-53.312035,-1.939623,-18.997435,-25.153524,11.588547,-24.499928
3.768750,-47.409088,-1.942055,-24.718069,-25.225172,13.726936,-24.416409
3.775000,-41.507812,-1.944816,-28.909992,-25.310125,16.389297,-24.356197
3.781250,-35.607208,-1.947654,-31.470062,-25.396656,18.974190,-24.303505
3.787500,-29.705217,-1.950248,-32.032093,-25.463757,21.115448,-24.251150
3.793750,-23.803057,-1.952903,-30.517794,-25.527756,22.508015,-24.202831
3.800000,-17.902916,-1.956044,-28.854151,-25.529118,22.957411,-24.151047
3.806250,-12.002917,-1.959533,-24.685713,-25.444693,22.476898,-24.059708
3.812500,-6.101527,-1.963213,-19.531914,-25.313467,20.933735,-23.936821
3.818750,-0.199476,-1.967237,-13.935189,-25.152575,18.214010,-23.792959
3.825000,5.703671,-1.971607,-8.433418,-24.976061,14.449046,-23.634796
3.831250,11.610913,-1.975651,-1.372161,-24.798605,9.904025,-23.473312
3.837500,17.522512,-1.979160,5.431880,-24.633999,4.902977,-23.345165
3.843750,23.433645,-1.982741,12.129913,-24.477753,-0.212368,-23.206005
3.850000,29.342026,-1.986819,17.037451,-24.323511,-6.131156,-23.037466
3.856250,35.251587,-1.990716,21.831186,-24.180769,-11.661992,-22.878616
3.862500,41.165272,-1.993809,26.090443,-24.047674,-16.786888,-22.738426
3.868750,47.078327,-1.996728,29.485092,-23.911175,-21.483210,-22.614222
3.875000,52.984570,-2.000687,31.694859,-23.749640,-25.775427,-22.495007
3.881250,58.886433,-2.005852,32.365437,-23.568272,-29.733215,-22.364721
3.887500,64.791679,-2.011093,31.102901,-23.369379,-33.539963,-22.228300
3.893750,70.703278,-2.015855,27.836697,-23.135620,-37.457886,-22.091164
3.900000,76.616173,-2.020818,24.643843,-22.856710,-41.612640,-21.945570
3.906250,82.525703,-2.026848,20.070538,-22.532530,-44.307217,-21.789600
3.912500,88.435349,-2.033874,14.588982,-22.164248,-47.413143,-21.618767
3.918750,94.350998,-2.041303,8.663057,-21.759386,-50.639671,-21.420277
3.925000,98.380455,-2.048504,2.660918,-21.345619,-53.743225,-21.166418
3.931250,102.145058,-2.055315,-3.071578,-20.948830,-56.783703,-20.947153
3.937500,105.110489,-2.061696,-8.109653,-20.588871,-57.573776,-20.758821
3.943750,106.784454,-2.067456,-12.123463,-20.288816,-57.181244,-20.609308
3.950000,106.740616,-2.072109,-14.895786,-20.070532,-55.142509,-20.512543
3.956250,104.638222,-2.075056,-16.303633,-19.952192,-51.103214,-20.483782
3.962500,100.237389,-2.076312,-16.285210,-19.943533,-44.813614,-20.535118
3.968750,93.412674,-2.076143,-14.839152,-20.041941,-36.134228,-20.674980
3.975000,84.161621,-2.074646,-13.913672,-20.212118,-25.074471,-20.913801
3.981250,72.604675,-2.071881,-9.814991,-20.507303,-11.797773,-21.282948
3.987500,58.977451,-2.067976,-5.464503,-20.907999,2.086462,-21.691248
3.993750,43.618397,-2.063234,-0.179938,-21.371458,17.240303,-22.203087
4.000000,26.953897,-2.057857,5.399767,-21.893694,32.855949,-22.825243
4.006250,9.476228,-2.051821,10.921072,-22.458223,48.070747,-23.589897
4.012500,-8.283625,-2.045636,16.115896,-23.036766,61.809444,-24.352623
4.018750,-25.782501,-2.040180,20.731646,-23.596874,74.753395,-25.091356
4.025000,-42.486103,-2.035639,24.484032,-24.123148,84.958725,-25.840113
4.031250,-57.897770,-2.031578,29.235815,-24.606020,93.329941,-26.603397
4.037500,-71.588547,-2.028079,31.620737,-25.025209,98.995285,-27.327650
4.043750,-83.220436,-2.025892,33.678440,-25.367922,102.241249,-27.982374
4.050000,-92.555237,-2.025132,35.264439,-25.634161,103.464462,-28.550425
4.056250,-99.464920,-2.024751,36.309097,-25.814615,103.191925,-29.021889
4.062500,-103.946960,-2.024161,36.889141,-25.891975,100.224312,-29.363937
4.068750,-106.129051,-2.024396,36.948135,-25.883043,96.963539,-29.562393
4.075000,-106.253525,-2.026569,36.505661,-25.804955,93.467903,-29.624508
4.081250,-104.654655,-2.030102,35.740944,-25.671061,89.964195,-29.554655
4.087500,-101.749008,-2.033476,34.909489,-25.490295,84.612694,-29.353806
4.093750,-98.029152,-2.036217,34.315807,-25.271278,79.140961,-29.028212
4.100000,-94.036949,-2.039195,32.380177,-25.029108,73.404404,-28.598862
4.106250,-88.153870,-2.043067,31.097694,-24.768045,67.302666,-28.104893
4.112500,-82.271271,-2.047480,30.364794,-24.479712,60.919937,-27.504526
4.118750,-76.385536,-2.052187,29.929283,-24.180109,54.428535,-26.833336
4.125000,-70.497978,-2.057454,29.496513,-23.884476,47.560543,-26.132586
4.131250,-64.609215,-2.063307,28.898031,-23.601795,40.466858,-25.432613
4.137500,-58.715824,-2.069230,28.022659,-23.335293,33.344357,-24.756830
4.143750,-52.816162,-2.074785,26.780874,-23.084061,26.406576,-24.123384
4.150000,-46.913399,-2.080298,25.089464,-22.847355,19.842754,-23.545263
4.156250,-41.010376,-2.086182,25.044430,-22.620966,13.829419,-23.023285
4.162500,-35.105717,-2.092319,25.234413,-22.394339,8.512453,-22.567698
4.168750,-29.197628,-2.098565,24.245581,-22.157139,5.594995,-22.185215
4.175000,-23.285475,-2.104853,23.939106,-21.927996,2.516218,-21.871376
4.181250,-17.369585,-2.111035,24.118277,-21.711330,0.986136,-21.619867
4.187500,-11.448950,-2.116899,24.587280,-21.512125,0.886803,-21.369467
4.193750,-5.523691,-2.122347,25.121672,-21.336739,2.275412,-21.230896
4.200000,0.405229,-2.127187,25.492470,-21.192789,3.240996,-21.176252
4.206250,6.337475,-2.131123,25.484385,-21.087656,4.458533,-21.183750
4.212500,12.272552,-2.133950,24.932747,-21.018585,6.956109,-21.209677
4.218750,18.206478,-2.136071,25.901175,-20.974463,8.502496,-21.258610
4.225000,24.136379,-2.137936,24.980785,-20.951271,9.093688,-21.331213
4.231250,30.062454,-2.139641,24.149490,-20.937767,8.583975,-21.413488
4.237500,35.985893,-2.141138,23.199894,-20.933638,6.805505,-21.482828
4.243750,41.907230,-2.142414,21.795929,-20.954962,5.676413,-21.548206
4.250000,47.826958,-2.143308,19.779324,-20.986959,3.575642,-21.609007
4.256250,53.744698,-2.143851,17.004503,-21.012022,1.027506,-21.649210
4.262500,59.658379,-2.144455,13.239686,-21.015549,-1.553692,-21.657583
4.268750,65.564598,-2.145826,8.287839,-20.987005,-3.813782,-21.623676
4.275000,71.464088,-2.148355,1.968127,-20.919348,-5.439175,-21.540834
4.281250,77.363129,-2.151521,-3.715023,-20.799938,-6.159555,-21.396606
4.287500,83.264244,-2.155070,-10.290972,-20.626106,-5.775312,-21.161936
4.293750,89.164970,-2.159744,-17.500458,-20.420416,-4.385421,-20.907177
4.300000,95.064980,-2.165821,-24.973644,-20.184828,-2.262924,-20.635063
4.306250,99.076988,-2.172077,-32.267517,-19.922480,0.788020,-20.342913
4.312500,102.827560,-2.177453,-39.063908,-19.644241,4.560065,-20.040266
4.318750,105.779335,-2.182344,-45.093510,-19.364647,8.786568,-19.740810
4.325000,107.432457,-2.187745,-50.155125,-19.104710,13.163542,-19.462109
4.331250,107.361794,-2.193491,-54.101746,-18.887367,17.379780,-19.218912
4.337500,105.233490,-2.198537,-56.837959,-18.759090,21.163601,-19.013744
4.343750,100.811615,-2.202439,-58.382324,-18.634565,24.293530,-18.789711
4.350000,93.970032,-2.205386,-57.739479,-18.580271,26.301138,-18.670031
4.356250,84.706375,-2.207263,-55.798122,-18.632444,28.843716,-18.635244
4.362500,73.143372,-2.207582,-52.360489,-18.790625,30.688173,-18.696079
4.368750,59.514992,-2.206680,-47.516991,-19.046738,32.187763,-18.879169
4.375000,44.155624,-2.205375,-41.469276,-19.387747,33.587231,-19.124178
4.381250,27.492661,-2.203639,-34.491215,-19.792692,34.940392,-19.413509
4.387500,10.022762,-2.200740,-26.904951,-20.235113,37.047363,-19.754005
4.393750,-7.723011,-2.197008,-19.122509,-20.698235,38.235691,-20.173962
4.400000,-25.205313,-2.193596,-11.602888,-21.169586,40.068436,-20.648891
4.406250,-41.891335,-2.190648,-2.547724,-21.631262,42.125153,-21.152447
4.412500,-57.282986,-2.187388,4.459852,-22.069708,44.114468,-21.666084
4.418750,-70.951866,-2.183867,11.265014,-22.479380,45.820335,-22.176516
4.425000,-82.562889,-2.180999,17.696079,-22.798824,47.159756,-22.636002
4.431250,-91.879669,-2.179237,23.582588,-23.027334,48.145416,-23.016718
4.437500,-98.775215,-2.177852,28.534647,-23.176992,48.542824,-23.315153
4.443750,-103.247032,-2.176631,32.504395,-23.255257,48.349468,-23.524216
4.450000,-105.420761,-2.176494,35.556194,-23.263639,47.694305,-23.636723
4.456250,-105.534317,-2.177834,37.820560,-23.206776,46.744762,-23.651018
4.462500,-103.922409,-2.179922,39.497478,-23.094969,45.683575,-23.573891
4.468750,-101.007500,-2.182318,40.875446,-22.947279,44.722240,-23.426079
4.475000,-97.285446,-2.185487,40.438595,-22.762903,44.173080,-23.194635
4.481250,-93.289894,-2.189428,40.350800,-22.534697,42.752747,-22.864967
4.487500,-87.394691,-2.193381,40.274334,-22.294603,41.993332,-22.483467
4.493750,-81.493530,-2.196984,40.017391,-22.064119,41.591843,-22.080191
4.500000,-75.593384,-2.201462,39.513275,-21.854216,41.331944,-21.676456
4.506250,-69.696472,-2.207484,38.736397,-21.665752,41.003613,-21.286840
4.512500,-63.794506,-2.213911,37.679173,-21.486137,40.390240,-20.920818
4.518750,-57.880028,-2.219288,36.343235,-21.262445,39.246807,-20.588064
4.525000,-51.956753,-2.223709,34.753597,-21.075304,37.258331,-20.323668
4.531250,-46.034653,-2.228362,34.001816,-20.936588,33.980583,-20.117706
4.537500,-40.114502,-2.233661,33.575829,-20.802803,30.769978,-19.945910
4.543750,-34.189278,-2.238702,32.068523,-20.662043,26.124743,-19.819750
4.550000,-28.255779,-2.242794,31.205675,-20.541283,20.375526,-19.715290
4.556250,-22.317114,-2.245995,30.696732,-20.462965,13.927906,-19.693293
4.562500,-16.377085,-2.248658,30.321215,-20.446352,7.489706,-19.769571
4.568750,-10.436094,-2.250887,29.855721,-20.517204,1.037693,-19.941477
4.575000,-4.492742,-2.252313,29.072172,-20.732521,-5.250881,-20.157417
4.581250,1.453748,-2.252573,27.775381,-21.014853,-11.048943,-20.427420
4.587500,7.401129,-2.251631,24.725792,-21.381170,-15.860805,-20.764427
4.593750,13.347026,-2.249743,22.777409,-21.852982,-19.500561,-21.160994
4.600000,19.289112,-2.247096,20.057045,-22.431845,-21.921694,-21.596937
4.606250,25.227789,-2.243474,16.442560,-23.188646,-23.267435,-22.084007
4.612500,31.161688,-2.238900,12.872846,-23.981998,-23.809927,-22.612190
4.618750,37.086231,-2.234362,8.688483,-24.847645,-23.616989,-23.159409
4.625000,42.998878,-2.230602,4.238114,-25.766636,-22.968754,-23.710497
4.631250,48.905602,-2.226986,-0.185724,-26.705458,-22.191788,-24.251947
4.637500,54.811344,-2.222578,-4.320171,-27.620852,-21.647102,-24.766314
4.643750,60.712791,-2.217840,-7.917390,-28.459538,-21.697582,-25.218975
4.650000,66.600594,-2.214307,-12.670270,-29.160639,-22.694454,-25.562246
4.656250,72.474274,-2.212771,-14.716347,-29.695414,-25.013718,-25.802717
4.662500,78.342010,-2.212801,-16.102463,-30.055584,-27.229788,-25.962975
4.668750,84.209183,-2.214034,-16.697634,-30.210442,-30.723091,-26.016098
4.675000,90.075722,-2.216783,-16.527012,-30.147249,-35.253124,-25.953749
4.681250,94.048134,-2.220794,-15.722356,-29.868620,-40.612869,-25.776608
4.687500,97.751823,-2.225491,-14.486579,-29.397909,-46.576622,-25.495857
4.693750,100.653122,-2.231122,-13.066875,-28.773090,-52.876514,-25.123407
4.700000,102.256630,-2.238677,-11.759857,-28.021738,-59.168331,-24.661530
4.706250,102.137581,-2.247947,-11.049762,-27.149738,-65.085129,-24.102781
4.712500,99.967110,-2.257151,-11.180277,-26.198641,-70.195419,-23.498177
4.718750,95.511238,-2.265074,-12.498960,-25.243490,-75.901581,-22.906237
