Anritsu VNA Frequency[GHz],S21[deg],S21[dB],S11[deg],S11[dB],S22[deg],S22[dB]
1338077583.85,2012_05_27_01:13:03,+40.841,+10.301,+55.577,+10.317,+13.950,+13.760,+14.054,+13.807,10.424600,-17.767
3.006250,34.036530,-1.751124,59.280304,-26.647495,-80.030403,-27.459665
3.012500,34.036530,-1.751124,59.280304,-26.647495,-80.030403,-27.459665
3.018750,34.036530,-1.751124,59.280304,-26.647495,-80.030403,-27.459665
3.025000,34.036530,-1.751124,59.280304,-26.647495,-80.030403,-27.459665
3.031250,34.036530,-1.751124,59.280304,-26.647495,-80.030403,-27.459665
3.037500,34.036530,-1.751124,59.280304,-26.647495,-80.030403,-27.459665
3.043750,34.036530,-1.751124,59.280304,-26.647495,-80.030403,-27.459665
3.050000,34.036530,-1.751124,59.280304,-26.647495,-80.030403,-27.459665
3.056250,34.036530,-1.751124,59.280304,-26.647495,-80.030403,-27.459665
3.062500,34.036530,-1.751124,59.280304,-26.647495,-80.030403,-27.459665
3.068750,34.036530,-1.751124,59.280304,-26.647495,-80.030403,-27.459665
3.075000,34.036530,-1.751124,59.280304,-26.647495,-80.030403,-27.459665
3.081250,34.036530,-1.751124,59.280304,-26.647495,-80.030403,-27.459665
3.087500,34.036530,-1.751124,59.280304,-26.647495,-80.030403,-27.459665
3.093750,34.036530,-1.752986,59.280304,-26.445192,-80.030403,-27.207785
3.100000,39.943188,-1.755147,56.600109,-26.292233,-82.047371,-26.974787
3.106250,45.849976,-1.757332,53.037243,-26.211260,-82.443817,-26.761391
3.112500,51.757107,-1.759547,48.953613,-26.221659,-80.867912,-26.540594
3.118750,57.663429,-1.761957,42.950333,-26.265776,-79.160667,-26.238899
3.125000,63.568600,-1.764492,38.146492,-26.309643,-75.124741,-25.978413
3.131250,69.473488,-1.767160,33.755211,-26.380877,-68.965378,-25.690893
3.137500,75.377365,-1.770122,30.036549,-26.479736,-61.092239,-25.366932
3.143750,81.279861,-1.773643,27.192360,-26.598703,-51.678982,-25.014322
3.150000,87.182922,-1.777468,25.408361,-26.723042,-40.886581,-24.645702
3.156250,93.089432,-1.781065,24.803110,-26.838165,-28.887537,-24.279230
3.162500,97.103302,-1.784380,25.441107,-26.930941,-15.883836,-23.938948
3.168750,100.844330,-1.787791,27.343094,-26.993643,-2.082968,-23.673864
3.175000,103.778900,-1.791509,30.553223,-27.004873,10.455311,-23.427885
3.181250,105.416367,-1.795328,33.312668,-26.951515,23.773333,-23.205090
3.187500,105.331558,-1.798955,37.091469,-26.851099,36.542183,-23.036461
3.193750,103.183434,-1.802316,41.181927,-26.715839,48.269699,-22.937212
3.200000,98.734085,-1.805383,45.015327,-26.553270,58.541882,-22.911751
3.206250,91.861824,-1.808058,48.108509,-26.374081,66.968956,-22.960220
3.212500,82.564972,-1.810576,50.046516,-26.192051,73.244949,-23.090038
3.218750,70.963684,-1.813285,50.514175,-26.017899,77.143738,-23.284277
3.225000,57.296234,-1.815836,51.513397,-25.844944,78.290833,-23.487566
3.231250,41.906017,-1.817822,51.578873,-25.673676,76.854492,-23.708902
3.237500,25.217999,-1.819508,49.221626,-25.503841,74.844185,-23.939713
3.243750,7.720500,-1.821450,46.551079,-25.312830,70.675110,-24.157232
3.250000,-10.054084,-1.823935,43.433853,-25.141708,64.951187,-24.342539
3.256250,-27.555185,-1.826527,39.520924,-25.001600,58.225388,-24.494598
3.262500,-44.247684,-1.828741,35.040848,-24.876921,51.127274,-24.602470
3.268750,-59.641056,-1.830609,29.937769,-24.763338,44.354027,-24.657276
3.275000,-73.311150,-1.832561,24.088636,-24.660063,38.489765,-24.659117
3.281250,-84.918213,-1.834915,17.384115,-24.558001,34.041111,-24.615326
3.287500,-94.223648,-1.837585,9.733268,-24.444262,31.389946,-24.539663
3.293750,-101.102966,-1.840376,1.101038,-24.281607,30.794470,-24.433134
3.300000,-105.556068,-1.843072,-6.334369,-24.113136,32.410233,-24.296495
3.306250,-107.704010,-1.845530,-14.996347,-23.977955,36.220772,-24.156462
3.312500,-107.784523,-1.847746,-23.663733,-23.856720,42.043522,-24.044563
3.318750,-106.139404,-1.849873,-32.042629,-23.756861,49.618240,-23.981281
3.325000,-103.196167,-1.851842,-39.869419,-23.695679,58.597389,-23.977676
3.331250,-99.445869,-1.853491,-46.887711,-23.698027,68.547066,-24.036674
3.337500,-95.421875,-1.854791,-52.912968,-23.832682,78.956619,-24.156548
3.343750,-89.502724,-1.855764,-57.944649,-23.992523,89.288208,-24.322466
3.350000,-83.584290,-1.856405,-62.385906,-24.214565,97.136948,-24.478668
3.356250,-77.666740,-1.856745,-65.815208,-24.540516,105.742989,-24.678616
3.362500,-71.750961,-1.856941,-66.533875,-24.992002,111.998268,-24.930067
3.368750,-65.837402,-1.856894,-66.178085,-25.550165,116.035820,-25.221472
3.375000,-59.924335,-1.856274,-64.625412,-26.187876,117.457504,-25.597998
3.381250,-54.013329,-1.855272,-61.891418,-26.871143,116.102180,-25.933886
3.387500,-48.108746,-1.854634,-58.071068,-27.561363,112.582527,-26.257105
3.393750,-42.210484,-1.854771,-53.325539,-28.213758,106.349976,-26.560272
3.400000,-36.314507,-1.855251,-47.873684,-28.785440,97.969360,-26.835104
3.406250,-30.417253,-1.855512,-42.052868,-29.255707,88.444855,-27.113281
3.412500,-24.520649,-1.855921,-36.188934,-29.599152,78.442108,-27.360247
3.418750,-18.628757,-1.857152,-28.347107,-29.793907,66.597282,-27.555328
3.425000,-12.739812,-1.859352,-22.071894,-29.835855,55.199997,-27.692448
3.431250,-6.847946,-1.861641,-15.511151,-29.740116,44.681641,-27.777897
3.437500,-0.951701,-1.863793,-8.918379,-29.491623,35.493366,-27.814770
3.443750,4.943962,-1.866574,-2.324466,-29.087843,28.316078,-27.752201
3.450000,10.838500,-1.870273,3.762323,-28.574545,21.433228,-27.619305
3.456250,16.737032,-1.874157,9.174208,-27.990728,16.620773,-27.429089
3.462500,22.644278,-1.877380,13.908327,-27.379923,13.579185,-27.184158
3.468750,28.556730,-1.880010,18.046894,-26.788870,11.998343,-26.881651
3.475000,34.469460,-1.882351,21.697971,-26.282644,11.525066,-26.536861
3.481250,40.381828,-1.884592,25.122061,-25.813593,11.767415,-26.165344
3.487500,46.293461,-1.886865,27.055445,-25.412683,12.359189,-25.761314
3.493750,52.203491,-1.889545,28.886261,-25.115368,12.866271,-25.331806
3.500000,58.112728,-1.892669,30.440203,-24.927193,12.852748,-24.889297
3.506250,64.025024,-1.895553,31.616671,-24.833532,11.988900,-24.443605
3.512500,69.941353,-1.897637,32.322330,-24.801323,10.007182,-24.003836
3.518750,75.857536,-1.899538,32.531044,-24.735622,6.706072,-23.574890
3.525000,81.767555,-1.902317,32.397907,-24.721195,1.931224,-23.163069
3.531250,87.672989,-1.906215,32.515575,-24.709217,-2.284954,-22.782606
3.537500,93.580902,-1.910368,32.508484,-24.664446,-7.404581,-22.450439
3.543750,97.599503,-1.914217,32.638023,-24.577566,-12.999448,-22.161364
3.550000,101.347702,-1.918249,33.237404,-24.421009,-18.785543,-21.879749
3.556250,104.288956,-1.922996,32.750664,-24.196556,-24.290525,-21.552691
3.562500,105.935173,-1.928056,32.880787,-23.933687,-29.233614,-21.310802
3.568750,105.865395,-1.932307,33.289158,-23.658718,-32.380043,-21.139454
3.575000,103.739487,-1.935207,33.698959,-23.398777,-34.745712,-21.039297
3.581250,99.314247,-1.937045,33.825371,-23.187784,-36.062660,-21.024513
3.587500,92.463463,-1.938482,33.408249,-23.062317,-36.348629,-21.055891
3.593750,83.187180,-1.939486,32.340611,-23.012661,-35.478409,-21.155191
3.600000,71.611244,-1.939478,30.564734,-23.048773,-33.298481,-21.337053
3.606250,57.972816,-1.938088,29.920643,-23.186256,-29.963739,-21.595636
3.612500,42.607536,-1.935861,28.959269,-23.410362,-25.752161,-21.904402
3.618750,25.938931,-1.933247,28.081980,-23.738148,-21.054335,-22.239151
3.625000,8.461325,-1.930003,27.412086,-24.180437,-16.656364,-22.641459
3.631250,-9.291892,-1.925936,27.540941,-24.699993,-10.759995,-23.074167
3.637500,-26.776850,-1.921555,28.781914,-25.261631,-5.089687,-23.508781
3.643750,-43.465836,-1.917573,31.270647,-25.828075,0.335098,-23.925375
3.650000,-58.865021,-1.914246,33.144424,-26.354010,5.423382,-24.307091
3.656250,-72.544373,-1.911595,35.963833,-26.764627,10.087608,-24.637110
3.662500,-84.162193,-1.909678,38.904507,-27.105339,14.233573,-24.910675
3.668750,-93.481209,-1.908710,42.886459,-27.353842,17.717222,-25.133936
3.675000,-100.377090,-1.908377,46.231167,-27.482395,20.451691,-25.305830
3.681250,-104.848022,-1.908238,48.669445,-27.487690,22.383183,-25.424368
3.687500,-107.017075,-1.908600,49.960403,-27.382778,23.434380,-25.492662
3.693750,-107.124603,-1.910203,49.955601,-27.193645,23.552448,-25.519707
3.700000,-105.509315,-1.912907,48.658573,-26.926012,22.741316,-25.516615
3.706250,-102.592033,-1.915843,46.225597,-26.597578,21.135620,-25.475534
3.712500,-98.862938,-1.918482,42.643982,-26.247437,18.953062,-25.390352
3.718750,-94.860123,-1.921378,36.201607,-25.902580,16.342356,-25.266113
3.725000,-88.964157,-1.924928,28.830957,-25.579279,13.637029,-25.118958
3.731250,-83.066132,-1.928464,20.259434,-25.322378,11.439600,-24.986794
3.737500,-77.163185,-1.931489,12.422074,-25.154898,10.168504,-24.881708
3.743750,-71.257996,-1.934168,4.071646,-25.063005,10.231572,-24.826744
3.750000,-65.353836,-1.936892,-4.240379,-25.035009,10.226536,-24.736267
3.756250,-59.451283,-1.939530,-12.117131,-25.066143,10.137154,-24.631174
3.762500,-53.547611,-1.941908,-19.137371,-25.136297,11.288606,-24.512011
3.768750,-47.644241,-1.944243,-24.859135,-25.208836,13.419364,-24.426525
3.775000,-41.742325,-1.946859,-29.053677,-25.294266,16.075134,-24.364697
3.781250,-35.840843,-1.949501,-31.616646,-25.381762,18.656597,-24.310701
3.787500,-29.938105,-1.951842,-32.187176,-25.449402,20.797440,-24.257456
3.793750,-24.035700,-1.954245,-30.685883,-25.512472,22.191622,-24.208431
3.800000,-18.135147,-1.957090,-29.035248,-25.514626,22.640810,-24.156452
3.806250,-12.235354,-1.960234,-24.878592,-25.430292,22.160812,-24.064795
3.812500,-6.334095,-1.963572,-19.732788,-25.299507,20.616720,-23.941647
3.818750,-0.432558,-1.967264,-14.146408,-25.138865,17.897573,-23.797863
3.825000,5.469727,-1.971282,-8.654166,-24.962635,14.131740,-23.640457
3.831250,11.376191,-1.975008,-1.605304,-24.785444,9.587588,-23.480349
3.837500,17.286116,-1.978186,5.186104,-24.620813,4.587667,-23.354115
3.843750,23.195436,-1.981482,11.872939,-24.464418,-0.531455,-23.216497
3.850000,29.102358,-1.985302,16.770195,-24.310417,-6.452733,-23.049616
3.856250,35.010090,-1.988953,21.558561,-24.167847,-11.985384,-22.892920
3.862500,40.922161,-1.991870,25.813808,-24.035379,-17.110205,-22.755348
3.868750,46.833553,-1.994649,29.206211,-23.899883,-21.805567,-22.633907
3.875000,52.738247,-1.998520,31.417259,-23.739414,-26.096144,-22.517534
3.881250,58.638836,-2.003629,32.094532,-23.559212,-30.051775,-22.390278
3.887500,64.543335,-2.008822,30.840792,-23.361746,-33.857376,-22.257050
3.893750,70.454269,-2.013597,27.582890,-23.129393,-37.769531,-22.122623
3.900000,76.366745,-2.018654,24.397142,-22.851753,-41.920288,-21.979258
3.906250,82.276321,-2.024769,19.835602,-22.528517,-44.613007,-21.825411
3.912500,88.185966,-2.031894,14.366259,-22.161272,-47.715939,-21.656231
3.918750,94.102440,-2.039423,8.456825,-21.757599,-50.940132,-21.458418
3.925000,98.132576,-2.046794,2.471246,-21.344902,-54.038555,-21.205553
3.931250,101.897751,-2.053772,-3.247707,-20.948601,-57.082912,-20.986546
3.937500,104.864159,-2.060308,-8.273494,-20.589117,-57.869751,-20.798019
3.943750,106.538712,-2.066194,-12.278742,-20.288754,-57.477077,-20.647808
3.950000,106.495773,-2.070951,-15.043143,-20.069881,-55.438717,-20.550091
3.956250,104.394081,-2.074039,-16.443560,-19.950941,-51.401489,-20.520159
3.962500,99.993675,-2.075380,-16.422323,-19.941584,-45.112686,-20.570400
3.968750,93.169174,-2.075291,-14.975915,-20.038998,-36.433735,-20.709124
3.975000,83.918297,-2.073858,-14.051760,-20.210114,-25.369757,-20.947262
3.981250,72.361359,-2.071126,-9.957248,-20.503849,-12.089957,-21.314926
3.987500,58.734093,-2.067242,-5.613714,-20.905479,1.803743,-21.722677
3.993750,43.374710,-2.062519,-0.332569,-21.369812,16.965431,-22.234056
4.000000,26.709843,-2.057109,5.239887,-21.893404,32.590107,-22.855944
4.006250,9.231892,-2.051072,10.754166,-22.459955,47.815136,-23.620989
4.012500,-8.528960,-2.044864,15.940451,-23.041132,61.565445,-24.383390
4.018750,-26.028265,-2.039360,20.549898,-23.604820,74.520515,-25.121347
4.025000,-42.732250,-2.034740,24.297583,-24.135357,84.735832,-25.869461
4.031250,-58.144268,-2.030604,29.046782,-24.622755,93.114937,-26.632221
4.037500,-71.835457,-2.027044,31.426264,-25.046282,98.786911,-27.355219
4.043750,-83.467857,-2.024753,33.481480,-25.393597,102.034271,-28.008343
4.050000,-92.802910,-2.023851,35.065369,-25.664127,103.256729,-28.574230
4.056250,-99.712708,-2.023328,36.107430,-25.848557,102.979340,-29.043772
4.062500,-104.194550,-2.022556,36.685558,-25.928976,100.003799,-29.383495
4.068750,-106.376633,-2.022573,36.743259,-25.922321,96.734467,-29.579136
4.075000,-106.500862,-2.024570,36.300228,-25.845776,93.227066,-29.638727
4.081250,-104.901451,-2.027809,35.535603,-25.712784,89.710678,-29.566751
4.087500,-101.995506,-2.030883,34.704807,-25.532282,84.347748,-29.364077
4.093750,-98.275200,-2.033306,34.112175,-25.313097,78.866188,-29.036997
4.100000,-94.282570,-2.035968,32.174789,-25.069809,73.121773,-28.606953
4.106250,-88.398903,-2.039498,30.889036,-24.807096,67.013535,-28.111961
4.112500,-82.515709,-2.043551,30.157568,-24.516487,60.627247,-27.511385
4.118750,-76.629654,-2.047911,29.722692,-24.214306,54.132587,-26.840277
4.125000,-70.741974,-2.052875,29.292114,-23.916090,47.263943,-26.140173
4.131250,-64.853104,-2.058438,28.697582,-23.630856,40.170799,-25.441082
4.137500,-58.959480,-2.064079,27.825544,-23.361834,33.051128,-24.766527
4.143750,-53.059689,-2.069429,26.589787,-23.108290,26.116547,-24.133999
4.150000,-47.156990,-2.074777,24.905375,-22.869629,19.556677,-23.556759
4.156250,-41.254025,-2.080576,24.867125,-22.641422,13.544181,-23.035440
4.162500,-35.349678,-2.086702,25.067894,-22.413073,8.229976,-22.580212
4.168750,-29.441725,-2.092979,24.092035,-22.173477,5.316588,-22.197895
4.175000,-23.529758,-2.099387,23.794264,-21.942537,2.234051,-21.884277
4.181250,-17.613754,-2.105777,23.985504,-21.724342,0.704571,-21.633038
4.187500,-11.693199,-2.111850,24.466156,-21.523750,0.607001,-21.382124
4.193750,-5.768159,-2.117560,25.014217,-21.347057,1.997253,-21.243532
4.200000,0.160517,-2.122679,25.398432,-21.201775,2.964262,-21.188477
4.206250,6.092597,-2.126901,25.402046,-21.095503,4.182817,-21.195524
4.212500,12.027517,-2.130032,24.860823,-21.025364,6.684179,-21.220900
4.218750,17.961224,-2.132431,25.838924,-20.980549,8.234135,-21.269770
4.225000,23.890963,-2.134547,24.925304,-20.956621,8.830505,-21.342302
4.231250,29.816532,-2.136512,24.099192,-20.942448,8.325176,-21.424841
4.237500,35.739876,-2.138222,23.153473,-20.937523,6.551281,-21.494066
4.243750,41.660645,-2.139659,21.751028,-20.958229,5.426233,-21.559492
4.250000,47.580021,-2.140727,19.734068,-20.989737,3.327008,-21.620907
4.256250,53.497086,-2.141321,16.957571,-21.014351,0.779623,-21.661674
4.262500,59.410122,-2.141968,13.190576,-21.017612,-1.802765,-21.670620
4.268750,65.315727,-2.143374,8.235283,-20.988710,-4.066165,-21.637280
4.275000,71.214836,-2.145942,1.910358,-20.920673,-5.697206,-21.554935
4.281250,77.113434,-2.149127,-3.778344,-20.800858,-6.424974,-21.411133
4.287500,83.013908,-2.152692,-10.359698,-20.626480,-6.050560,-21.177330
4.293750,88.913849,-2.157411,-17.576525,-20.420639,-4.669538,-20.923244
4.300000,94.813286,-2.163485,-25.055338,-20.184795,-2.557512,-20.651783
4.306250,98.824753,-2.169752,-32.354294,-19.922323,0.481095,-20.360085
4.312500,102.574837,-2.175147,-39.156128,-19.644022,4.241190,-20.057775
4.318750,105.525894,-2.180074,-45.190285,-19.364285,8.457673,-19.758297
4.325000,107.178223,-2.185506,-50.256062,-19.104301,12.825151,-19.479635
4.331250,107.106583,-2.191315,-54.206982,-18.886978,17.034771,-19.236254
4.337500,104.977554,-2.196399,-56.944038,-18.759378,20.814577,-19.030920
4.343750,100.555115,-2.200353,-58.484741,-18.634975,23.944622,-18.807423
4.350000,93.712807,-2.203348,-57.845123,-18.580948,25.950220,-18.687891
4.356250,84.448769,-2.205274,-55.902328,-18.633371,28.497869,-18.653868
4.362500,72.884651,-2.205605,-52.460220,-18.791971,30.347795,-18.715214
4.368750,59.255474,-2.204715,-47.610622,-19.048735,31.852701,-18.898109
4.375000,43.895199,-2.203414,-41.555229,-19.390724,33.261818,-19.144857
4.381250,27.231777,-2.201620,-34.568722,-19.796463,34.625729,-19.435827
4.387500,9.761403,-2.198703,-26.973923,-20.239697,36.745300,-19.777893
4.393750,-7.985182,-2.194898,-19.183681,-20.703594,37.945557,-20.199652
4.400000,-25.468199,-2.191409,-11.656037,-21.175770,39.788303,-20.676172
4.406250,-42.154736,-2.188370,-2.593585,-21.638058,41.853569,-21.181242
4.412500,-57.546600,-2.184972,4.419601,-22.077328,43.850510,-21.696121
4.418750,-71.215942,-2.181276,11.227704,-22.487146,45.561554,-22.207642
4.425000,-82.827438,-2.178242,17.662863,-22.806894,46.905106,-22.667767
4.431250,-92.145248,-2.176276,23.549582,-23.035475,47.891178,-23.048325
4.437500,-99.041229,-2.174704,28.499260,-23.184958,48.287815,-23.346178
4.443750,-103.513641,-2.173350,32.464737,-23.262577,48.092876,-23.554251
4.450000,-105.687798,-2.173054,35.511547,-23.270283,47.436138,-23.665445
4.456250,-105.802116,-2.174288,37.769817,-23.212730,46.485626,-23.678242
4.462500,-104.190872,-2.176288,39.439438,-23.100101,45.422146,-23.598669
4.468750,-101.276871,-2.178634,40.810173,-22.951853,44.467358,-23.449127
4.475000,-97.555626,-2.181783,40.366314,-22.766409,43.916641,-23.215509
4.481250,-93.561119,-2.185778,40.272118,-22.537197,42.496815,-22.884064
4.487500,-87.666412,-2.189797,40.189713,-22.296518,41.739647,-22.501259
4.493750,-81.766396,-2.193545,39.927700,-22.065556,41.340878,-22.096870
4.500000,-75.867203,-2.198197,39.419861,-21.855572,41.085205,-21.692520
4.506250,-69.971054,-2.204427,38.641865,-21.667133,40.763081,-21.302732
4.512500,-64.069756,-2.211076,37.586098,-21.487745,40.157513,-20.937126
4.518750,-58.155663,-2.216677,36.250103,-21.263454,39.023071,-20.605223
4.525000,-52.232819,-2.221311,34.655628,-21.076639,37.040379,-20.342270
4.531250,-46.310783,-2.226253,33.909237,-20.938194,33.762295,-20.136372
4.537500,-40.390965,-2.231743,33.487026,-20.804638,30.555645,-19.965435
4.543750,-34.465443,-2.236980,31.979603,-20.664303,25.916080,-19.840790
4.550000,-28.531673,-2.241225,31.119003,-20.543655,20.170326,-19.739218
4.556250,-22.592157,-2.244534,30.610027,-20.465515,13.720399,-19.718117
4.562500,-16.651463,-2.247323,30.236074,-20.449333,7.278102,-19.794834
4.568750,-10.709796,-2.249581,29.773857,-20.520304,0.823627,-19.969032
4.575000,-4.765380,-2.251016,28.993067,-20.735697,-5.464976,-20.185545
4.581250,1.182414,-2.251243,27.695860,-21.017704,-11.269127,-20.456169
4.587500,7.131154,-2.250188,24.643713,-21.384310,-16.084188,-20.793581
4.593750,13.077977,-2.248186,22.692270,-21.855639,-19.728401,-21.190411
4.600000,19.020750,-2.245378,19.970343,-22.435352,-22.150681,-21.626631
4.606250,24.960056,-2.241538,16.343901,-23.191135,-23.497795,-22.113108
4.612500,30.894707,-2.236720,12.765995,-23.983446,-24.039694,-22.641090
4.618750,36.819824,-2.231923,8.565936,-24.848278,-23.843885,-23.187624
4.625000,42.732891,-2.227906,4.098319,-25.766499,-23.193245,-23.737854
4.631250,48.639767,-2.224065,-0.346653,-26.704187,-22.411247,-24.278053
4.637500,54.545681,-2.219395,-4.505745,-27.618395,-21.858734,-24.791542
4.643750,60.446812,-2.214419,-8.128830,-28.455826,-21.901022,-25.243444
4.650000,66.334351,-2.210688,-12.909575,-29.155399,-22.885431,-25.585794
4.656250,72.207573,-2.209031,-14.983267,-29.689075,-25.195629,-25.825846
4.662500,78.075089,-2.208988,-16.396446,-30.048319,-27.403183,-25.985731
4.668750,83.941689,-2.210187,-17.016260,-30.202345,-30.888828,-26.038588
4.675000,89.807732,-2.212968,-16.865414,-30.138493,-35.412193,-25.976254
4.681250,93.779739,-2.217091,-16.076651,-29.859514,-40.767910,-25.799362
4.687500,97.482841,-2.221948,-14.851554,-29.388720,-46.731785,-25.518848
4.693750,100.383682,-2.227822,-13.435198,-28.763899,-53.037342,-25.146587
4.700000,101.986717,-2.235698,-12.123918,-28.013136,-59.339806,-24.684458
4.706250,101.867401,-2.245323,-11.404569,-27.141792,-65.269356,-24.124964
4.712500,99.696014,-2.254873,-11.524424,-26.191164,-70.389687,-23.520973
4.718750,95.239777,-2.263190,-12.826728,-25.236858,-76.112389,-22.928888
