Anritsu VNA Frequency[GHz],S21[deg],S21[dB],S11[deg],S11[dB],S22[deg],S22[dB]
1338063849.21,2012_05_26_21:24:09,+48.858,+105.67,+86.108,+105.97,+111.21,+113.22,+109.23,+110.64,110.200668,-10.332
3.006250,39.675941,-2.198071,64.531670,-27.079151,-81.940117,-28.044069
3.012500,39.675941,-2.198071,64.531670,-27.079151,-81.940117,-28.044069
3.018750,39.675941,-2.198071,64.531670,-27.079151,-81.940117,-28.044069
3.025000,39.675941,-2.198071,64.531670,-27.079151,-81.940117,-28.044069
3.031250,39.675941,-2.198071,64.531670,-27.079151,-81.940117,-28.044069
3.037500,39.675941,-2.198071,64.531670,-27.079151,-81.940117,-28.044069
3.043750,39.675941,-2.198071,64.531670,-27.079151,-81.940117,-28.044069
3.050000,39.675941,-2.198071,64.531670,-27.079151,-81.940117,-28.044069
3.056250,39.675941,-2.198071,64.531670,-27.079151,-81.940117,-28.044069
3.062500,39.675941,-2.198071,64.531670,-27.079151,-81.940117,-28.044069
3.068750,39.675941,-2.198071,64.531670,-27.079151,-81.940117,-28.044069
3.075000,39.675941,-2.198071,64.531670,-27.079151,-81.940117,-28.044069
3.081250,39.675941,-2.198071,64.531670,-27.079151,-81.940117,-28.044069
3.087500,39.675941,-2.198071,64.531670,-27.079151,-81.940117,-28.044069
3.093750,39.675941,-2.200238,64.531670,-26.880474,-81.940117,-27.813101
3.100000,45.597015,-2.202736,61.282043,-26.714453,-81.999886,-27.583233
3.106250,51.517559,-2.205348,57.161156,-26.609739,-81.186050,-27.356848
3.112500,57.438896,-2.208018,52.633488,-26.581821,-79.223892,-27.114374
3.118750,63.359634,-2.210855,46.304569,-26.619350,-75.889137,-26.790558
3.125000,69.279289,-2.213812,41.030117,-26.640583,-71.227264,-26.483400
3.131250,75.198318,-2.216898,36.350834,-26.686867,-65.352386,-26.151188
3.137500,81.116257,-2.220279,32.411060,-26.763790,-57.835514,-25.780838
3.143750,87.032509,-2.224224,29.406878,-26.866211,-48.784832,-25.380503
3.150000,92.949173,-2.228507,27.513853,-26.980997,-38.335926,-24.963900
3.156250,96.974159,-2.232593,26.845768,-27.094530,-28.540981,-24.551266
3.162500,100.728035,-2.236402,27.462721,-27.192207,-17.966612,-24.166636
3.168750,103.676643,-2.240248,29.376860,-27.261026,-7.341622,-23.847584
3.175000,105.326515,-2.244330,32.603504,-27.283274,2.665094,-23.585699
3.181250,105.251724,-2.248485,35.346165,-27.243624,11.972812,-23.341183
3.187500,103.114037,-2.252511,39.169735,-27.154921,19.594940,-23.150368
3.193750,98.675522,-2.256292,43.333897,-27.025797,25.221724,-23.032284
3.200000,91.814384,-2.259769,47.228638,-26.862278,28.756731,-22.993614
3.206250,82.530617,-2.262871,50.359974,-26.673407,30.139797,-23.033241
3.212500,70.944633,-2.265718,52.303932,-26.471573,29.413651,-23.156317
3.218750,57.291370,-2.268746,52.739704,-26.269257,26.750204,-23.372568
3.225000,41.912640,-2.271654,53.651150,-26.065247,22.113060,-23.591455
3.231250,25.237907,-2.274106,53.590836,-25.859648,15.835200,-23.832037
3.237500,7.758351,-2.276191,51.087791,-25.655167,10.313804,-24.091372
3.243750,-9.997407,-2.278457,48.244133,-25.439238,4.144543,-24.350214
3.250000,-27.483566,-2.281282,44.980106,-25.226048,-1.961040,-24.587286
3.256250,-44.164219,-2.284325,40.962933,-25.051046,-7.394016,-24.794254
3.262500,-59.544018,-2.287044,36.337181,-24.898682,-11.600695,-24.960691
3.268750,-73.197403,-2.289352,31.113115,-24.764051,-14.043890,-25.075665
3.275000,-84.786491,-2.291723,25.191364,-24.646437,-14.338461,-25.135094
3.281250,-94.076035,-2.294518,18.472815,-24.538404,-12.246579,-25.141228
3.287500,-100.942337,-2.297701,10.870749,-24.428169,-7.702342,-25.102297
3.293750,-105.383240,-2.301004,2.336124,-24.290009,-0.813076,-25.019125
3.300000,-107.519302,-2.304193,-4.998652,-24.115343,8.197863,-24.893156
3.306250,-107.587402,-2.307182,-13.274332,-23.986794,18.961430,-24.743750
3.312500,-105.928902,-2.309932,-21.583662,-23.871595,30.964893,-24.598583
3.318750,-102.971809,-2.312639,-29.545788,-23.771238,43.619205,-24.480007
3.325000,-99.208435,-2.315167,-36.897358,-23.698685,56.309429,-24.402388
3.331250,-95.170586,-2.317398,-43.395073,-23.673527,68.413185,-24.372219
3.337500,-89.236931,-2.319230,-48.859936,-23.733540,81.478485,-24.391811
3.343750,-83.302628,-2.320678,-53.183193,-23.881891,93.576141,-24.454020
3.350000,-77.368912,-2.321765,-57.076656,-24.051329,102.840385,-24.524534
3.356250,-71.435341,-2.322539,-59.963177,-24.303766,110.928246,-24.611841
3.362500,-65.503380,-2.323110,-60.100132,-24.671217,116.746513,-24.765419
3.368750,-59.573395,-2.323398,-59.227570,-25.145365,120.310043,-24.966970
3.375000,-53.643742,-2.323159,-57.232834,-25.705881,121.309807,-25.233776
3.381250,-47.715733,-2.322459,-54.143452,-26.323368,119.595001,-25.530947
3.387500,-41.793068,-2.321967,-50.068424,-26.963648,115.643959,-25.816343
3.393750,-35.876991,-2.322122,-45.178364,-27.586491,109.132919,-26.096989
3.400000,-29.963711,-2.322707,-39.694286,-28.150190,100.496460,-26.338882
3.406250,-24.050215,-2.323152,-33.930466,-28.630518,90.715523,-26.608650
3.412500,-18.136978,-2.323639,-28.220053,-29.004358,80.598274,-26.865618
3.418750,-12.228295,-2.324900,-22.527870,-29.249340,68.660515,-27.084007
3.425000,-6.323133,-2.327111,-16.852083,-29.356009,57.193382,-27.254219
3.431250,-0.416180,-2.329555,-11.473742,-29.330324,46.630058,-27.377172
3.437500,5.494664,-2.331842,-6.603636,-29.170130,37.424473,-27.459188
3.443750,11.405101,-2.334702,-2.252102,-28.858347,30.159969,-27.453375
3.450000,17.313652,-2.338528,1.315638,-28.431561,23.267241,-27.375158
3.456250,23.224977,-2.342734,3.990741,-27.925068,18.465769,-27.237816
3.462500,29.144350,-2.346420,5.873647,-27.377783,15.434979,-27.044382
3.468750,35.074596,-2.349377,7.179606,-26.830915,13.848787,-26.792637
3.475000,41.000423,-2.352102,8.156750,-26.332850,13.358760,-26.494017
3.481250,46.925388,-2.354809,9.133952,-25.890348,13.571688,-26.162794
3.487500,52.849701,-2.357614,8.931702,-25.487284,14.104790,-25.796215
3.493750,58.772541,-2.360796,9.181616,-25.167439,14.545926,-25.397942
3.500000,64.694908,-2.364372,9.692982,-24.944658,14.466413,-24.979525
3.506250,70.619965,-2.367797,10.394796,-24.812521,13.527519,-24.551332
3.512500,76.548454,-2.370494,11.208171,-24.747551,11.463120,-24.123350
3.518750,82.477623,-2.372879,12.079406,-24.695757,8.077211,-23.701555
3.525000,88.401566,-2.375999,12.967197,-24.628773,3.229860,-23.292107
3.531250,94.321106,-2.380138,14.691183,-24.599627,-1.026332,-22.908165
3.537500,98.347389,-2.384692,16.662312,-24.550436,-6.133128,-22.566620
3.543750,102.106247,-2.388884,19.018354,-24.464115,-11.629240,-22.279089
3.550000,105.062775,-2.393147,21.942694,-24.326605,-17.219158,-22.004938
3.556250,106.720810,-2.397954,23.781794,-24.124296,-22.543436,-21.724041
3.562500,106.656143,-2.403137,26.189482,-23.881413,-27.218616,-21.479218
3.568750,104.533585,-2.407670,28.663282,-23.624123,-31.719210,-21.322954
3.575000,100.118111,-2.410985,30.805603,-23.378798,-35.656826,-21.246422
3.581250,93.282471,-2.413219,32.235168,-23.177795,-39.212177,-21.276127
3.587500,84.022484,-2.414942,32.621017,-23.057804,-40.944595,-21.358315
3.593750,72.458466,-2.416260,31.757406,-23.022738,-43.032642,-21.506598
3.600000,58.831360,-2.416690,31.785015,-23.070614,-44.986824,-21.740824
3.606250,43.482288,-2.415860,31.052483,-23.219542,-46.745243,-22.056660
3.612500,26.834299,-2.414104,29.964182,-23.465841,-48.327755,-22.430408
3.618750,9.375675,-2.411947,28.943026,-23.810312,-49.830948,-22.829571
3.625000,-8.359720,-2.409247,28.193773,-24.273689,-51.611385,-23.285784
3.631250,-25.824116,-2.405735,28.177305,-24.823290,-51.703716,-23.770189
3.637500,-42.487644,-2.401824,29.256922,-25.423325,-51.485111,-24.251614
3.643750,-57.862259,-2.398185,31.594826,-26.035807,-50.676910,-24.707777
3.650000,-71.520454,-2.395231,33.336365,-26.618214,-49.109844,-25.119648
3.656250,-83.118889,-2.392854,36.047165,-27.111763,-46.687927,-25.469471
3.662500,-92.418800,-2.391194,38.975060,-27.500534,-43.377224,-25.747643
3.668750,-99.298698,-2.390400,43.089352,-27.801670,-39.251060,-25.957933
3.675000,-103.756660,-2.390298,46.557323,-27.977989,-34.440243,-26.102495
3.681250,-105.912079,-2.390452,49.182144,-28.018925,-29.102428,-26.180571
3.687500,-106.002975,-2.391084,50.716194,-27.931433,-23.464153,-26.194984
3.693750,-104.372131,-2.392843,50.983700,-27.738380,-17.802004,-26.154984
3.700000,-101.446198,-2.395744,49.916275,-27.466295,-12.395670,-26.074345
3.706250,-97.711159,-2.398974,47.683125,-27.109970,-7.461747,-25.957180
3.712500,-93.697212,-2.402003,44.344887,-26.711163,-3.114577,-25.796082
3.718750,-87.786949,-2.405190,38.071552,-26.307819,0.492599,-25.595911
3.725000,-81.877869,-2.408947,30.767675,-25.924227,3.298674,-25.361704
3.731250,-75.967148,-2.412857,22.211069,-25.592222,5.575950,-25.143560
3.737500,-70.050896,-2.416315,14.326415,-25.349640,7.606296,-24.957045
3.743750,-64.131218,-2.419397,5.785529,-25.195131,9.537680,-24.819418
3.750000,-58.211285,-2.422392,-2.811571,-25.117189,11.845032,-24.690147
3.756250,-52.292553,-2.425242,-11.006374,-25.110374,13.343281,-24.550173
3.762500,-46.372486,-2.427807,-18.367414,-25.157917,15.812613,-24.389874
3.768750,-40.452145,-2.430279,-24.450991,-25.225273,17.238132,-24.270817
3.775000,-34.532745,-2.432960,-28.945866,-25.307848,19.308001,-24.190996
3.781250,-28.613953,-2.435736,-31.771650,-25.405684,21.285767,-24.130978
3.787500,-22.694138,-2.438166,-32.579735,-25.495157,22.824448,-24.081091
3.793750,-16.773994,-2.440552,-31.229740,-25.574917,23.644772,-24.041716
3.800000,-10.855814,-2.443321,-29.598625,-25.632456,23.561148,-24.010202
3.806250,-4.939049,-2.446414,-25.573263,-25.590256,22.569305,-23.952806
3.812500,0.978335,-2.449671,-20.324366,-25.496637,20.638626,-23.866795
3.818750,6.895755,-2.453305,-14.537126,-25.369448,17.661753,-23.760954
3.825000,12.812857,-2.457359,-8.775403,-25.221722,13.753628,-23.639841
3.831250,18.732777,-2.461314,-1.412533,-25.065889,9.171735,-23.511118
3.837500,24.656073,-2.464868,5.706820,-24.914999,4.251158,-23.394581
3.843750,30.579185,-2.468418,12.695976,-24.771870,-0.635997,-23.306784
3.850000,36.499828,-2.472471,17.843473,-24.627745,-4.638439,-23.167517
3.856250,42.420631,-2.476521,22.864561,-24.489635,-9.596211,-23.027983
3.862500,48.344795,-2.479994,27.296734,-24.360134,-13.571221,-22.903103
3.868750,54.269081,-2.483288,30.793617,-24.230686,-16.630539,-22.793982
3.875000,60.187557,-2.487484,33.050762,-24.082354,-18.886753,-22.693481
3.881250,66.102028,-2.492910,33.784767,-23.896811,-20.504744,-22.587088
3.887500,72.019104,-2.498600,32.586292,-23.697901,-21.743654,-22.470486
3.893750,77.942978,-2.503814,29.283588,-23.469704,-22.978973,-22.352274
3.900000,83.869469,-2.509061,26.052525,-23.197973,-24.513708,-22.227062
3.906250,89.793587,-2.515289,21.470221,-22.880249,-26.642004,-22.092115
3.912500,95.717056,-2.522492,16.019817,-22.518402,-27.817162,-21.943836
3.918750,99.751335,-2.530197,10.188976,-22.118586,-29.993780,-21.773144
3.925000,103.520668,-2.537741,4.380575,-21.701771,-32.962540,-21.559895
3.931250,106.492531,-2.544912,-1.056772,-21.294151,-36.602356,-21.345631
3.937500,108.173164,-2.551666,-5.743236,-20.917267,-38.875828,-21.162674
3.943750,108.134621,-2.557873,-9.350883,-20.593569,-40.726105,-21.013134
3.950000,106.037216,-2.563131,-11.658539,-20.344654,-41.514996,-20.908077
3.956250,101.643822,-2.566864,-12.551912,-20.189079,-40.725330,-20.861101
3.962500,94.830696,-2.568864,-12.003839,-20.137785,-37.936474,-20.884344
3.968750,85.594521,-2.569460,-10.041201,-20.191010,-32.827850,-20.986485
3.975000,74.053482,-2.568769,-8.655872,-20.328186,-25.213852,-21.177462
3.981250,60.443802,-2.566882,-4.217499,-20.542870,-16.954628,-21.499176
3.987500,45.104679,-2.563819,0.559178,-20.890852,-6.330401,-21.853750
3.993750,28.461693,-2.559913,5.975671,-21.304899,5.912205,-22.302839
4.000000,11.005872,-2.555356,11.617336,-21.776283,18.756872,-22.855114
4.006250,-6.729724,-2.550094,17.069792,-22.293772,31.484226,-23.521889
4.012500,-24.200853,-2.544507,22.047098,-22.833944,43.313690,-24.264462
4.018750,-40.876816,-2.539379,26.305376,-23.368414,52.801571,-24.984516
4.025000,-56.265263,-2.535054,29.597042,-23.876554,61.732101,-25.674089
4.031250,-69.935356,-2.531248,31.925850,-24.351698,67.159767,-26.401062
4.037500,-81.544106,-2.527985,33.414124,-24.776964,71.317627,-27.105595
4.043750,-90.856552,-2.525773,33.995853,-25.137867,72.860023,-27.754787
4.050000,-97.749733,-2.524849,33.605793,-25.431177,72.294586,-28.328472
4.056250,-102.219109,-2.524426,32.251377,-25.652960,70.240807,-28.813622
4.062500,-104.382965,-2.523865,30.101877,-25.781775,65.552139,-29.188068
4.068750,-104.483246,-2.523834,27.300117,-25.825289,60.711872,-29.428907
4.075000,-102.866219,-2.525673,23.972836,-25.799839,55.914082,-29.537107
4.081250,-99.953590,-2.528922,20.413801,-25.717571,51.408176,-29.516043
4.087500,-96.228928,-2.532225,17.006802,-25.586208,47.540760,-29.366259
4.093750,-92.221985,-2.534937,12.280452,-25.412060,42.522167,-29.090469
4.100000,-86.319756,-2.537725,8.274722,-25.205671,38.062756,-28.704102
4.106250,-80.421562,-2.541332,4.889790,-24.973629,33.981861,-28.237345
4.112500,-74.524834,-2.545638,2.084231,-24.712505,30.159096,-27.687122
4.118750,-68.625191,-2.550329,-0.230119,-24.428064,26.730539,-27.048254
4.125000,-62.723465,-2.555498,-2.248503,-24.134491,23.288195,-26.366585
4.131250,-56.820343,-2.561250,-4.096682,-23.842106,19.727943,-25.675011
4.137500,-50.913181,-2.567210,-5.848407,-23.556477,16.050621,-24.999706
4.143750,-45.000210,-2.572936,-7.549517,-23.279312,12.287648,-24.359833
4.150000,-39.083374,-2.578607,-9.262762,-23.011337,8.469015,-23.770315
4.156250,-33.165737,-2.584639,-8.890132,-22.750872,4.623549,-23.234711
4.162500,-27.246876,-2.590994,-7.870000,-22.495182,2.947272,-22.727615
4.168750,-21.324835,-2.597546,-7.683885,-22.233833,1.812723,-22.331797
4.175000,-15.399064,-2.604234,-6.396068,-21.976002,0.056190,-21.993153
4.181250,-9.469304,-2.610876,-4.354833,-21.731844,-0.430170,-21.717527
4.187500,-3.535191,-2.617298,-1.855648,-21.507376,0.132427,-21.478451
4.193750,2.403862,-2.623370,0.783774,-21.310003,1.562107,-21.283098
4.200000,8.346450,-2.628897,3.234847,-21.147120,4.434303,-21.193398
4.206250,14.292347,-2.633660,5.180076,-21.026323,5.803597,-21.189970
4.212500,20.241022,-2.637352,8.512695,-20.949171,8.620794,-21.214836
4.218750,26.189281,-2.640280,11.674410,-20.905935,10.428907,-21.262714
4.225000,32.134335,-2.642902,14.966477,-20.889931,11.379769,-21.343214
4.231250,38.075081,-2.645355,16.734768,-20.891514,11.329510,-21.448303
4.237500,44.013790,-2.647574,18.821112,-20.902418,10.093413,-21.559740
4.243750,49.949982,-2.649461,20.767384,-20.938843,9.611995,-21.672951
4.250000,55.885075,-2.651026,22.181765,-20.992750,8.250256,-21.791025
4.256250,61.818306,-2.652052,22.771984,-21.045444,6.437975,-21.899565
4.262500,67.747177,-2.653007,22.161768,-21.081738,4.584292,-21.984915
4.268750,73.669876,-2.654521,19.996761,-21.090134,3.023894,-22.033567
4.275000,79.585396,-2.657048,18.133591,-21.063862,2.044354,-22.035795
4.281250,85.499039,-2.660208,14.939693,-20.993204,1.890550,-21.979544
4.287500,91.414078,-2.663732,10.685269,-20.870222,2.746776,-21.841801
4.293750,95.433990,-2.668211,5.576549,-20.707203,4.618512,-21.645237
4.300000,99.179245,-2.673984,-0.163846,-20.512754,7.118056,-21.425655
4.306250,102.123360,-2.680220,-6.187292,-20.288563,10.385389,-21.173084
4.312500,103.779846,-2.685818,-12.207908,-20.042604,14.268323,-20.892635
4.318750,103.718681,-2.690850,-17.982040,-19.786139,18.504614,-20.595070
4.325000,101.592041,-2.696311,-23.307440,-19.536745,22.793247,-20.296551
4.331250,97.162521,-2.702322,-28.021429,-19.313812,26.822195,-20.013010
4.337500,90.315338,-2.707973,-31.982756,-19.143780,30.315836,-19.753849
4.343750,81.053215,-2.712603,-35.110043,-19.052429,33.035622,-19.500114
4.350000,69.494247,-2.716302,-36.435955,-18.960848,34.731903,-19.296570
4.356250,55.872395,-2.719135,-36.528397,-18.964069,36.906513,-19.177706
4.362500,40.528770,-2.720570,-35.260021,-19.071310,38.359848,-19.150654
4.368750,23.889421,-2.720777,-32.574120,-19.278788,39.496754,-19.239603
4.375000,6.440514,-2.720357,-28.556221,-19.577118,40.685555,-19.442995
4.381250,-11.286220,-2.719464,-23.375067,-19.949131,41.760296,-19.682467
4.387500,-28.741325,-2.717516,-17.258717,-20.370979,43.582729,-19.968922
4.393750,-45.391724,-2.714559,-10.523210,-20.822569,44.476768,-20.345875
4.400000,-60.752205,-2.711580,-3.558190,-21.290569,46.228306,-20.802019
4.406250,-74.396294,-2.708969,1.375072,-21.758205,48.278065,-21.304623
4.412500,-85.978867,-2.706039,7.747770,-22.208698,50.315063,-21.830296
4.418750,-95.261101,-2.702685,13.379687,-22.630747,52.113888,-22.360744
4.425000,-102.125595,-2.699687,18.082087,-22.985914,53.538780,-22.863102
4.431250,-106.575165,-2.697569,21.832075,-23.247343,54.592941,-23.294222
4.437500,-108.726479,-2.695937,24.383308,-23.423166,55.118065,-23.643692
4.443750,-108.813843,-2.694511,25.745787,-23.520182,55.047157,-23.902802
4.450000,-107.180801,-2.694007,26.094896,-23.539856,54.477535,-24.061890
4.456250,-104.256493,-2.695085,25.686403,-23.484800,53.569664,-24.115849
4.462500,-100.528160,-2.697203,24.844870,-23.362404,52.499050,-24.066231
4.468750,-96.522156,-2.699693,23.972759,-23.186918,51.478996,-23.924604
4.475000,-90.619019,-2.702784,21.625597,-22.974182,50.766769,-23.710625
4.481250,-84.716301,-2.706777,19.977711,-22.715141,48.947449,-23.384474
4.487500,-78.810387,-2.711124,18.934774,-22.430967,47.881485,-22.986597
4.493750,-72.899155,-2.715329,18.267624,-22.148556,47.101379,-22.553066
4.500000,-66.987152,-2.720218,17.886330,-21.885422,46.376308,-22.110735
4.506250,-61.077633,-2.726583,17.740145,-21.649199,45.511726,-21.679619
4.512500,-55.163734,-2.733561,17.778843,-21.436388,44.321880,-21.273863
4.518750,-49.237652,-2.739695,17.937796,-21.224052,42.607975,-20.905525
4.525000,-43.301151,-2.744693,18.131355,-20.977621,40.134449,-20.599522
4.531250,-37.363266,-2.749637,19.588535,-20.816618,36.575073,-20.389473
4.537500,-31.427277,-2.755065,21.363277,-20.689125,33.217255,-20.212761
4.543750,-25.487411,-2.760399,22.021008,-20.561913,28.481508,-20.096584
4.550000,-19.539410,-2.764792,23.327116,-20.452490,22.844130,-20.029030
4.556250,-13.585619,-2.768227,24.800179,-20.383839,16.598921,-20.010365
4.562500,-7.629826,-2.771076,26.098108,-20.374859,10.671244,-20.116846
4.568750,-1.672595,-2.773407,26.909470,-20.448759,4.982199,-20.338234
4.575000,4.286306,-2.774991,26.941818,-20.642267,-0.248545,-20.621832
4.581250,10.248780,-2.775457,25.949640,-20.952791,-5.086102,-20.948900
4.587500,16.212105,-2.774689,24.863417,-21.324558,-8.819909,-21.342545
4.593750,22.173954,-2.772910,23.038527,-21.799316,-11.308458,-21.799820
4.600000,28.131903,-2.770360,20.504221,-22.382986,-12.562217,-22.303965
4.606250,34.085503,-2.766973,17.279856,-23.111988,-12.736430,-22.849016
4.612500,40.034302,-2.762719,13.481633,-23.914169,-12.150765,-23.432926
4.618750,45.974663,-2.758390,9.504505,-24.781393,-10.990273,-24.032795
4.625000,51.903950,-2.754677,5.227018,-25.698849,-9.544166,-24.631496
4.631250,57.826481,-2.751209,0.863246,-26.635828,-8.157561,-25.215363
4.637500,63.747108,-2.747049,-3.348840,-27.552933,-7.208883,-25.771437
4.643750,69.664398,-2.742357,-7.171209,-28.401981,-7.075601,-26.269609
4.650000,75.569679,-2.738634,-12.289477,-29.129347,-8.132184,-26.668230
4.656250,81.460030,-2.736889,-14.778358,-29.689041,-10.689388,-26.937111
4.662500,87.342781,-2.736821,-16.563919,-30.071962,-13.102387,-27.121021
4.668750,93.224617,-2.737968,-17.656876,-30.256800,-17.035135,-27.199432
4.675000,97.211479,-2.740449,-17.990578,-30.227715,-22.072548,-27.159830
4.681250,100.925392,-2.744344,-17.637142,-29.983171,-27.959549,-26.999798
4.687500,103.836868,-2.749098,-16.754175,-29.541859,-34.438919,-26.727634
4.693750,105.453476,-2.754816,-15.552829,-28.939505,-41.229984,-26.355923
4.700000,105.345833,-2.762262,-14.275143,-28.220934,-47.988026,-25.891386
4.706250,103.174438,-2.771574,-13.343562,-27.382328,-54.342194,-25.331114
4.712500,98.711510,-2.781305,-13.172946,-26.462564,-59.908424,-24.679451
4.718750,91.841064,-2.790066,-13.919301,-25.518436,-66.066246,-24.038000
