Anritsu VNA Frequency[GHz],S21[deg],S21[dB],S11[deg],S11[dB],S22[deg],S22[dB]
1338098174.42,2012_05_27_06:56:14,+40.495,+10.317,+54.742,+10.332,+13.929,+13.742,+14.034,+13.786,10.408191,-15.994
3.006250,33.049301,-1.741903,58.339081,-26.683285,-81.312775,-27.421476
3.012500,33.049301,-1.741903,58.339081,-26.683285,-81.312775,-27.421476
3.018750,33.049301,-1.741903,58.339081,-26.683285,-81.312775,-27.421476
3.025000,33.049301,-1.741903,58.339081,-26.683285,-81.312775,-27.421476
3.031250,33.049301,-1.741903,58.339081,-26.683285,-81.312775,-27.421476
3.037500,33.049301,-1.741903,58.339081,-26.683285,-81.312775,-27.421476
3.043750,33.049301,-1.741903,58.339081,-26.683285,-81.312775,-27.421476
3.050000,33.049301,-1.741903,58.339081,-26.683285,-81.312775,-27.421476
3.056250,33.049301,-1.741903,58.339081,-26.683285,-81.312775,-27.421476
3.062500,33.049301,-1.741903,58.339081,-26.683285,-81.312775,-27.421476
3.068750,33.049301,-1.741903,58.339081,-26.683285,-81.312775,-27.421476
3.075000,33.049301,-1.741903,58.339081,-26.683285,-81.312775,-27.421476
3.081250,33.049301,-1.741903,58.339081,-26.683285,-81.312775,-27.421476
3.087500,33.049301,-1.741903,58.339081,-26.683285,-81.312775,-27.421476
3.093750,33.049301,-1.743640,58.339081,-26.484846,-81.312775,-27.170172
3.100000,38.953709,-1.745649,55.682140,-26.338934,-83.268944,-26.936050
3.106250,44.858147,-1.747701,52.153351,-26.265980,-83.620445,-26.720669
3.112500,50.763088,-1.749751,48.099262,-26.284870,-82.014206,-26.497066
3.118750,56.667034,-1.751993,42.122505,-26.334291,-80.287842,-26.194340
3.125000,62.570026,-1.754386,37.341015,-26.384212,-76.202995,-25.931829
3.131250,68.472801,-1.756878,32.978695,-26.460749,-70.033066,-25.641647
3.137500,74.374573,-1.759726,29.288136,-26.564474,-62.149879,-25.315582
3.143750,80.274559,-1.763093,26.476332,-26.686178,-52.732536,-24.961666
3.150000,86.175331,-1.766749,24.715250,-26.811264,-41.936516,-24.592598
3.156250,92.079689,-1.770184,24.128084,-26.924828,-29.933256,-24.226946
3.162500,96.091408,-1.773342,24.782087,-27.015762,-16.921125,-23.887972
3.168750,99.830124,-1.776693,26.717775,-27.072046,-3.110499,-23.625618
3.175000,102.762199,-1.780286,29.945454,-27.075520,9.437680,-23.381174
3.181250,104.397484,-1.783971,32.721096,-27.013887,22.764837,-23.160860
3.187500,104.310478,-1.787491,36.504375,-26.904736,35.542084,-22.994480
3.193750,102.159973,-1.790759,40.594120,-26.759975,47.276115,-22.899378
3.200000,97.708374,-1.793706,44.422428,-26.588316,57.556446,-22.877703
3.206250,90.833717,-1.796294,47.508942,-26.400888,65.998192,-22.929283
3.212500,81.534363,-1.798664,49.435055,-26.211910,72.282394,-23.062401
3.218750,69.930710,-1.801261,49.890060,-26.031906,76.186104,-23.259151
3.225000,56.260902,-1.803702,50.873108,-25.855053,77.333557,-23.464842
3.231250,40.868301,-1.805589,50.919483,-25.681135,75.902443,-23.688175
3.237500,24.178160,-1.807170,48.537971,-25.510120,73.893616,-23.920273
3.243750,6.678258,-1.809055,45.846275,-25.317472,69.721848,-24.139185
3.250000,-11.098536,-1.811475,42.706203,-25.145439,63.988770,-24.325134
3.256250,-28.601757,-1.814032,38.755901,-25.006054,57.252243,-24.477833
3.262500,-45.296368,-1.816247,34.247707,-24.881685,50.142250,-24.585873
3.268750,-60.691906,-1.818084,29.117893,-24.768555,43.355217,-24.640444
3.275000,-74.364281,-1.820075,23.245319,-24.665850,37.476250,-24.641808
3.281250,-85.973595,-1.822463,16.519402,-24.564234,33.009571,-24.597441
3.287500,-95.281128,-1.825196,8.846911,-24.450771,30.339365,-24.521832
3.293750,-102.162621,-1.828030,0.193961,-24.286566,29.721775,-24.414143
3.300000,-106.618027,-1.830745,-7.264632,-24.119131,31.325958,-24.276443
3.306250,-108.768463,-1.833213,-15.945244,-23.984297,35.125637,-24.135115
3.312500,-108.851692,-1.835422,-24.626936,-23.863171,40.936886,-24.022337
3.318750,-107.209419,-1.837461,-33.018162,-23.763788,48.497787,-23.958298
3.325000,-104.269028,-1.839334,-40.856892,-23.703615,57.468613,-23.953665
3.331250,-100.521622,-1.840832,-47.885170,-23.708048,67.416359,-24.010904
3.337500,-96.500725,-1.841919,-53.926224,-23.836016,77.824982,-24.128551
3.343750,-90.584923,-1.842656,-58.954407,-23.998394,88.153923,-24.292362
3.350000,-84.669724,-1.843048,-63.389366,-24.220016,97.902077,-24.445658
3.356250,-78.755310,-1.843090,-66.829453,-24.544125,106.786034,-24.643457
3.362500,-72.842583,-1.843013,-67.549225,-24.992197,113.855537,-24.891840
3.368750,-66.932106,-1.842679,-67.189728,-25.545189,119.194908,-25.180841
3.375000,-61.021824,-1.841778,-65.634308,-26.176947,122.343216,-25.556286
3.381250,-55.113522,-1.840540,-62.897636,-26.853346,123.052811,-25.889418
3.387500,-49.211269,-1.839727,-59.075512,-27.536287,121.833961,-26.210642
3.393750,-43.315136,-1.839793,-54.326656,-28.181030,118.025200,-26.511723
3.400000,-37.421093,-1.840237,-48.873783,-28.745609,112.066093,-26.785608
3.406250,-31.525446,-1.840536,-43.054482,-29.208975,104.839394,-27.063219
3.412500,-25.630350,-1.841016,-37.194595,-29.546423,96.887459,-27.310139
3.418750,-19.739927,-1.842441,-29.358185,-29.736450,86.750862,-27.505701
3.425000,-13.852539,-1.844836,-23.089413,-29.775469,76.632141,-27.643623
3.431250,-7.962033,-1.847386,-16.531673,-29.678637,66.898460,-27.730026
3.437500,-2.067192,-1.849812,-9.940171,-29.430037,57.961384,-27.768827
3.443750,3.826982,-1.852891,-3.340004,-29.028755,50.494625,-27.707439
3.450000,9.719661,-1.856980,2.749266,-28.519707,42.783169,-27.575634
3.456250,15.616488,-1.861124,8.168392,-27.941294,36.650211,-27.386808
3.462500,21.521503,-1.864641,12.912037,-27.336643,31.867828,-27.143307
3.468750,27.431532,-1.867501,17.068474,-26.752386,28.209902,-26.841204
3.475000,33.341526,-1.870090,20.745224,-26.253149,25.432858,-26.497562
3.481250,39.250999,-1.872559,24.201324,-25.792044,23.244831,-26.126738
3.487500,45.159634,-1.875028,26.167168,-25.397793,21.413010,-25.723303
3.493750,51.066509,-1.877878,28.030956,-25.106359,19.624496,-25.293896
3.500000,56.972557,-1.881153,29.616663,-24.922253,17.560266,-24.850893
3.506250,62.881554,-1.884120,30.820778,-24.830801,14.989347,-24.404646
3.512500,68.794868,-1.886267,31.552343,-24.798159,11.729379,-23.964527
3.518750,74.707993,-1.888238,31.790516,-24.740200,7.644860,-23.535355
3.525000,80.614944,-1.891128,31.661779,-24.723795,2.625755,-23.123062
3.531250,86.517471,-1.895038,31.775169,-24.710892,-3.460239,-22.741882
3.537500,92.422714,-1.899178,31.772436,-24.665503,-8.556059,-22.409864
3.543750,96.438812,-1.903043,31.895260,-24.578163,-14.134088,-22.121891
3.550000,100.184822,-1.907034,32.482441,-24.421438,-19.904057,-21.840733
3.556250,103.124237,-1.911756,31.977182,-24.196995,-25.392893,-21.512505
3.562500,104.768654,-1.916774,32.088013,-23.934490,-30.321909,-21.271709
3.568750,104.697456,-1.920988,32.474895,-23.660591,-33.461651,-21.101597
3.575000,102.570076,-1.923792,32.862194,-23.401644,-35.826321,-21.003933
3.581250,98.143478,-1.925524,32.966881,-23.192516,-37.148766,-20.992559
3.587500,91.291206,-1.926891,32.528145,-23.068781,-37.452618,-21.026180
3.593750,82.013870,-1.927872,31.441179,-23.019409,-36.598438,-21.128294
3.600000,70.436775,-1.927768,29.642490,-23.057182,-34.434757,-21.313616
3.606250,56.797348,-1.926335,28.986725,-23.195368,-31.123358,-21.576136
3.612500,41.430988,-1.924100,28.008724,-23.420153,-26.940237,-21.889206
3.618750,24.761080,-1.921511,27.107437,-23.748079,-22.279474,-22.227781
3.625000,7.282177,-1.918255,26.395128,-24.188910,-17.925785,-22.634850
3.631250,-10.472149,-1.914128,26.485844,-24.705620,-12.066560,-23.071207
3.637500,-27.958879,-1.909699,27.682934,-25.263680,-6.427722,-23.508774
3.643750,-44.649300,-1.905678,30.129499,-25.826368,-1.036088,-23.927988
3.650000,-60.050129,-1.902314,31.958221,-26.348207,4.022890,-24.311996
3.656250,-73.731392,-1.899547,34.729683,-26.755253,8.661432,-24.643330
3.662500,-85.350983,-1.897475,37.622726,-27.091587,12.789803,-24.916939
3.668750,-94.671982,-1.896314,41.562279,-27.336765,16.264736,-25.139566
3.675000,-101.570045,-1.895726,44.870296,-27.462334,19.000164,-25.309635
3.681250,-106.043236,-1.895249,47.279575,-27.465450,20.937113,-25.425936
3.687500,-108.214653,-1.895256,48.553131,-27.359430,21.999971,-25.491371
3.693750,-108.324951,-1.896528,48.542332,-27.170719,22.135725,-25.515017
3.700000,-106.712341,-1.898860,47.252041,-26.904358,21.350285,-25.507690
3.706250,-103.797813,-1.901351,44.848160,-26.578333,19.772751,-25.461969
3.712500,-100.071594,-1.903556,41.302719,-26.231514,17.619205,-25.372242
3.718750,-96.071846,-1.906111,34.913578,-25.890898,15.037983,-25.242826
3.725000,-90.178970,-1.909276,27.600212,-25.572044,12.362057,-25.090590
3.731250,-84.283981,-1.912527,19.090065,-25.319942,10.191463,-24.954208
3.737500,-78.384071,-1.915312,11.320520,-25.157173,8.944165,-24.846008
3.743750,-72.481773,-1.917822,3.036388,-25.069397,9.030844,-24.787874
3.750000,-66.580879,-1.920380,-5.210720,-25.044077,9.045868,-24.694517
3.756250,-60.681149,-1.922953,-13.029947,-25.077499,8.971142,-24.586430
3.762500,-54.780281,-1.925351,-20.000259,-25.148046,10.132201,-24.464027
3.768750,-48.879326,-1.927736,-25.681932,-25.220127,12.281893,-24.377287
3.775000,-42.980103,-1.930461,-29.846205,-25.305662,14.948592,-24.314507
3.781250,-37.081131,-1.933254,-32.386848,-25.390961,17.534229,-24.259743
3.787500,-31.180586,-1.935781,-32.957565,-25.455622,19.680517,-24.206072
3.793750,-25.280109,-1.938404,-31.468172,-25.512577,21.079760,-24.157145
3.800000,-19.381372,-1.941444,-27.941801,-25.511383,21.538765,-24.104757
3.806250,-13.483376,-1.944800,-23.539356,-25.422441,21.071354,-24.012501
3.812500,-7.583890,-1.948349,-17.622517,-25.286829,19.534996,-23.889936
3.818750,-1.683910,-1.952256,-10.778131,-25.121531,16.817156,-23.747280
3.825000,4.216894,-1.956482,-3.610036,-24.940792,13.052872,-23.590862
3.831250,10.121836,-1.960357,5.452001,-24.759180,8.512087,-23.431353
3.837500,16.030819,-1.963703,14.491894,-24.590851,3.514973,-23.306801
3.843750,21.938780,-1.967128,23.552603,-24.431543,-1.600345,-23.169069
3.850000,27.844309,-1.971041,30.829687,-24.275053,-7.524736,-23.002823
3.856250,33.750858,-1.974781,37.880428,-24.131172,-13.062002,-22.847155
3.862500,39.661659,-1.977800,44.169209,-23.998598,-18.192049,-22.709909
3.868750,45.571659,-1.980686,49.261528,-23.864269,-22.892147,-22.588272
3.875000,51.474846,-1.984666,52.754047,-23.705851,-27.189915,-22.471081
3.881250,57.373974,-1.989851,54.229248,-23.529070,-31.156233,-22.342916
3.887500,63.276760,-1.995121,53.237431,-23.335667,-34.974823,-22.208588
3.893750,69.186035,-1.999962,49.704781,-23.107582,-38.900799,-22.072828
3.900000,75.096878,-2.005094,45.715881,-22.834528,-43.065857,-21.928680
3.906250,81.004410,-2.011296,39.863285,-22.516510,-45.771507,-21.773886
3.912500,86.912018,-2.018484,32.679470,-22.155323,-48.886692,-21.603584
3.918750,92.826019,-2.026042,24.715736,-21.758211,-52.122246,-21.405001
3.925000,96.853806,-2.033387,16.437557,-21.351749,-55.236240,-21.151133
3.931250,100.616447,-2.040332,8.297683,-20.960842,-58.293541,-20.932068
3.937500,103.580017,-2.046837,0.851639,-20.605839,-59.093235,-20.743622
3.943750,105.251884,-2.052653,-5.454365,-20.309711,-58.708626,-20.593456
3.950000,105.205933,-2.057313,-10.281978,-20.094404,-56.677959,-20.495754
3.956250,103.101219,-2.060222,-13.406150,-19.978201,-52.645618,-20.465902
3.962500,98.698029,-2.061426,-14.682299,-19.970581,-46.360840,-20.515982
3.968750,91.870811,-2.061188,-14.042827,-20.069464,-37.683399,-20.654491
3.975000,82.616913,-2.059598,-13.393524,-20.242937,-26.619902,-20.892290
3.981250,71.057137,-2.056715,-11.200316,-20.537487,-13.330659,-21.251160
3.987500,57.427216,-2.052735,-6.858171,-20.939167,0.589226,-21.655617
3.993750,42.065533,-2.047930,-1.578181,-21.404438,15.761467,-22.161835
4.000000,25.398853,-2.042521,3.991730,-21.929146,31.405685,-22.777357
4.006250,7.918993,-2.036434,9.499542,-22.497210,46.660095,-23.532255
4.012500,-9.843360,-2.030267,14.677351,-23.080910,60.433083,-24.284130
4.018750,-27.344358,-2.024814,19.275944,-23.647511,73.432846,-25.009003
4.025000,-44.049797,-2.020331,23.007566,-24.181108,83.690681,-25.745502
4.031250,-59.463100,-2.016365,27.735603,-24.671730,92.111938,-26.495405
4.037500,-73.155357,-2.012950,30.092220,-25.098116,97.820831,-27.205734
4.043750,-84.789032,-2.010862,32.119686,-25.447506,101.101013,-27.847492
4.050000,-94.125526,-2.010182,33.673077,-25.719501,102.348534,-28.403639
4.056250,-101.036766,-2.009861,34.685001,-25.904377,102.090050,-28.865000
4.062500,-105.520485,-2.009305,35.231022,-25.984074,99.125397,-29.198545
4.068750,-107.704636,-2.009522,35.263611,-25.975763,95.856110,-29.390844
4.075000,-107.830948,-2.011743,34.800392,-25.896650,92.339539,-29.449724
4.081250,-106.234047,-2.015178,34.022610,-25.760496,88.805008,-29.378925
4.087500,-103.330101,-2.018405,33.184414,-25.575943,83.413841,-29.179693
4.093750,-99.612289,-2.020956,32.587841,-25.351606,77.896828,-28.858253
4.100000,-95.622215,-2.023738,30.651430,-25.102011,72.112999,-28.435221
4.106250,-89.741615,-2.027393,29.371731,-24.832890,65.964630,-27.949623
4.112500,-83.860855,-2.031627,28.655729,-24.536478,59.542686,-27.358480
4.118750,-77.976852,-2.036078,28.243219,-24.229151,53.008179,-26.697611
4.125000,-72.091400,-2.041114,27.838379,-23.926588,46.103767,-26.008146
4.131250,-66.204826,-2.046762,27.268007,-23.638050,38.980316,-25.319639
4.137500,-60.313087,-2.052448,26.417751,-23.366957,31.837814,-24.654783
4.143750,-54.415291,-2.057840,25.200146,-23.112770,24.889204,-24.030817
4.150000,-48.514580,-2.063236,23.530096,-22.874628,18.324203,-23.460291
4.156250,-42.613663,-2.069000,23.500580,-22.648493,12.317621,-22.943117
4.162500,-36.711246,-2.075117,23.706207,-22.422653,7.009671,-22.500828
4.168750,-30.805365,-2.081331,22.733759,-22.186935,4.097408,-22.122663
4.175000,-24.895430,-2.087641,22.438341,-21.960381,1.030845,-21.813908
4.181250,-18.982027,-2.093851,22.625498,-21.747581,-0.483706,-21.566929
4.187500,-13.063947,-2.099748,23.103237,-21.553127,-0.567041,-21.322371
4.193750,-7.141356,-2.105232,23.648235,-21.383024,0.851104,-21.189371
4.200000,-1.215160,-2.110100,24.028744,-21.244486,1.830763,-21.139999
4.206250,4.714436,-2.114022,24.030422,-21.144739,3.062298,-21.152525
4.212500,10.646595,-2.116863,23.489592,-21.080727,5.573752,-21.183466
4.218750,16.577417,-2.119019,24.469069,-21.041199,7.134869,-21.237642
4.225000,22.504358,-2.120869,23.560869,-21.021873,7.738186,-21.315016
4.231250,28.427376,-2.122607,22.743322,-21.011099,7.234683,-21.401548
4.237500,34.348072,-2.124060,21.808586,-21.008371,5.454680,-21.474581
4.243750,40.266605,-2.125329,20.424654,-21.030300,4.315568,-21.543722
4.250000,46.183949,-2.126256,18.427229,-21.062078,2.196724,-21.607826
4.256250,52.098942,-2.126750,15.672583,-21.086109,-0.375562,-21.650396
4.262500,58.010025,-2.127346,11.926167,-21.087645,-2.987436,-21.660507
4.268750,63.913380,-2.128769,6.988774,-21.056116,-5.283478,-21.627483
4.275000,69.810547,-2.131400,0.680467,-20.984447,-6.948163,-21.544924
4.281250,75.707466,-2.134641,-4.993856,-20.860525,-7.710537,-21.400448
4.287500,81.606537,-2.138310,-11.562828,-20.681507,-7.369481,-21.165401
4.293750,87.504875,-2.143098,-18.769522,-20.471006,-6.025730,-20.910242
4.300000,93.402565,-2.149304,-26.247128,-20.230709,-3.941850,-20.637150
4.306250,97.412552,-2.155695,-33.550144,-19.963772,-0.927127,-20.343699
4.312500,101.161346,-2.161182,-40.360714,-19.681288,2.813087,-20.041216
4.318750,104.110893,-2.166212,-46.408394,-19.397980,7.081386,-19.741287
4.325000,105.761642,-2.171760,-51.489948,-19.135273,11.436301,-19.461830
4.331250,105.688805,-2.177629,-55.458195,-18.916466,15.639988,-19.217297
4.337500,103.558533,-2.182841,-58.211880,-18.792999,19.421850,-19.010376
4.343750,99.134506,-2.186849,-59.773876,-18.662991,22.561995,-18.783567
4.350000,92.290970,-2.189953,-59.139202,-18.608315,24.562847,-18.661774
4.356250,83.025291,-2.191936,-57.203743,-18.662151,27.123713,-18.624817
4.362500,71.460121,-2.192351,-53.760952,-18.823162,28.986225,-18.683603
4.368750,57.829731,-2.191544,-48.902901,-19.082909,30.506941,-18.865261
4.375000,42.468536,-2.190337,-42.832798,-19.427631,31.919737,-19.107279
4.381250,25.804058,-2.188626,-35.821060,-19.836086,33.289646,-19.393541
4.387500,8.333012,-2.185813,-28.194069,-20.281397,35.419094,-19.731869
4.393750,-9.414074,-2.182047,-20.368916,-20.747236,36.624928,-20.150194
4.400000,-26.897551,-2.178638,-12.803014,-21.221098,38.464901,-20.623728
4.406250,-43.584354,-2.175675,-3.701255,-21.684967,40.521370,-21.126465
4.412500,-58.976261,-2.172262,3.351334,-22.125147,42.502987,-21.639727
4.418750,-72.645454,-2.168597,10.197413,-22.535736,44.196766,-22.149633
4.425000,-84.256699,-2.165544,16.666872,-22.854721,45.523640,-22.607962
4.431250,-93.574142,-2.163524,22.580837,-23.081926,46.486378,-22.987793
4.437500,-100.470100,-2.161878,27.552191,-23.229223,46.858192,-23.285143
4.443750,-104.942375,-2.160396,31.535519,-23.304285,46.640263,-23.493311
4.450000,-107.116821,-2.159981,34.598106,-23.309013,45.962303,-23.604845
4.456250,-107.231560,-2.161084,36.868271,-23.248318,44.991844,-23.618351
4.462500,-105.621063,-2.162945,38.546715,-23.132324,43.912655,-23.539804
4.468750,-102.708115,-2.165112,39.922760,-22.981155,42.947987,-23.391699
4.475000,-98.988533,-2.168109,39.479355,-22.793043,42.396851,-23.158588
4.481250,-94.996048,-2.171928,39.387810,-22.561569,40.978844,-22.828491
4.487500,-89.103554,-2.175736,39.305897,-22.319311,40.227955,-22.447186
4.493750,-83.206032,-2.179316,39.041458,-22.088079,39.843212,-22.044638
4.500000,-77.310112,-2.183836,38.528999,-21.878929,39.607273,-21.642033
4.506250,-71.417465,-2.189957,37.744774,-21.692268,39.309593,-21.254120
4.512500,-65.519539,-2.196536,36.681072,-21.514778,38.730335,-20.890369
4.518750,-59.608570,-2.202044,35.335514,-21.287212,37.620655,-20.560589
4.525000,-53.688957,-2.206609,33.738384,-21.107264,35.660805,-20.300922
4.531250,-47.770363,-2.211481,32.972416,-20.974672,32.398682,-20.097597
4.537500,-41.853764,-2.216983,32.533859,-20.844791,29.196159,-19.930269
4.543750,-35.930962,-2.222235,31.021803,-20.708538,24.559935,-19.808708
4.550000,-29.999525,-2.226505,30.144617,-20.592976,18.806293,-19.708271
4.556250,-24.062656,-2.229843,29.620567,-20.520432,12.351941,-19.691799
4.562500,-18.123755,-2.232717,29.232313,-20.510134,5.896599,-19.774389
4.568750,-12.183729,-2.235023,28.757645,-20.587837,-0.587925,-19.952869
4.575000,-6.240725,-2.236566,27.974232,-20.812946,-6.920133,-20.172916
4.581250,-0.294162,-2.236830,26.694309,-21.099400,-12.760695,-20.448263
4.587500,5.653326,-2.235813,23.638250,-21.470709,-17.613829,-20.791088
4.593750,11.599042,-2.233862,21.695837,-21.946642,-21.295591,-21.193125
4.600000,17.540981,-2.231068,18.992743,-22.530193,-23.757233,-21.634420
4.606250,23.479084,-2.227220,15.396115,-23.281397,-25.142509,-22.126188
4.612500,29.412340,-2.222430,11.799817,-24.070477,-25.712460,-22.658751
4.618750,35.335869,-2.217626,7.622129,-24.929405,-25.542217,-23.209696
4.625000,41.247105,-2.213633,3.172854,-25.837494,-24.908539,-23.763477
4.631250,47.151951,-2.209772,-1.261109,-26.761431,-24.131876,-24.306473
4.637500,53.055538,-2.204987,-5.415986,-27.658545,-23.575727,-24.821535
4.643750,58.954010,-2.199960,-9.043395,-28.476404,-23.603666,-25.273001
4.650000,64.838303,-2.196220,-13.836712,-29.154390,-24.567202,-25.613281
4.656250,70.708069,-2.194511,-15.929168,-29.665712,-26.849241,-25.850845
4.662500,76.572113,-2.194427,-17.371370,-30.003128,-29.018223,-26.006435
4.668750,82.435074,-2.195601,-18.026867,-30.136877,-32.460915,-26.053606
4.675000,88.297180,-2.198304,-17.916174,-30.055067,-36.943363,-25.984505
4.681250,94.160324,-2.202366,-17.168837,-29.761028,-42.260059,-25.800133
4.687500,98.133247,-2.207158,-15.987925,-29.279104,-48.190022,-25.511917
4.693750,101.836472,-2.212905,-14.614713,-28.648212,-54.465675,-25.131344
4.700000,104.733925,-2.220635,-13.340926,-27.896425,-60.743042,-24.660791
4.706250,106.336754,-2.230102,-12.665406,-27.026577,-66.656860,-24.093182
4.712500,106.228981,-2.239424,-12.820132,-26.080025,-71.763702,-23.483431
4.718750,104.073441,-2.247469,-14.154799,-25.134800,-77.474533,-22.885900
