Anritsu VNA Frequency[GHz],S21[deg],S21[dB],S11[deg],S11[dB],S22[deg],S22[dB]
1338051713.79,2012_05_26_18:01:53,+67.477,+196.26,+183.91,+196.57,+202.37,+204.43,+198.48,+200.02,179.501541,-5.492
3.006250,48.853302,-2.554111,73.295280,-27.811316,-74.170319,-28.732651
3.012500,48.853302,-2.554111,73.295280,-27.811316,-74.170319,-28.732651
3.018750,48.853302,-2.554111,73.295280,-27.811316,-74.170319,-28.732651
3.025000,48.853302,-2.554111,73.295280,-27.811316,-74.170319,-28.732651
3.031250,48.853302,-2.554111,73.295280,-27.811316,-74.170319,-28.732651
3.037500,48.853302,-2.554111,73.295280,-27.811316,-74.170319,-28.732651
3.043750,48.853302,-2.554111,73.295280,-27.811316,-74.170319,-28.732651
3.050000,48.853302,-2.554111,73.295280,-27.811316,-74.170319,-28.732651
3.056250,48.853302,-2.554111,73.295280,-27.811316,-74.170319,-28.732651
3.062500,48.853302,-2.554111,73.295280,-27.811316,-74.170319,-28.732651
3.068750,48.853302,-2.554111,73.295280,-27.811316,-74.170319,-28.732651
3.075000,48.853302,-2.554111,73.295280,-27.811316,-74.170319,-28.732651
3.081250,48.853302,-2.554111,73.295280,-27.811316,-74.170319,-28.732651
3.087500,48.853302,-2.554111,73.295280,-27.811316,-74.170319,-28.732651
3.093750,48.853302,-2.556482,73.295280,-27.613976,-74.170319,-28.591272
3.100000,54.793217,-2.559283,69.231331,-27.430462,-74.642082,-28.418856
3.106250,60.732346,-2.562249,64.248398,-27.282444,-74.317665,-28.215778
3.112500,66.672554,-2.565323,57.002937,-27.188831,-72.921181,-27.973070
3.118750,72.612938,-2.568521,49.654617,-27.173885,-70.235191,-27.667414
3.125000,78.552414,-2.571856,42.510929,-27.143560,-66.170128,-27.317295
3.131250,84.490929,-2.575294,35.822277,-27.129162,-60.805733,-26.934473
3.137500,90.428940,-2.579018,29.472048,-27.145077,-53.868034,-26.507982
3.143750,96.365379,-2.583277,23.739004,-27.192661,-45.362362,-26.046043
3.150000,100.407677,-2.587907,18.906628,-27.262341,-37.290771,-25.564552
3.156250,104.179558,-2.592468,15.226301,-27.342377,-28.169617,-25.084972
3.162500,107.147995,-2.596775,12.891157,-27.418098,-18.705990,-24.631550
3.168750,108.819626,-2.601068,12.045121,-27.474283,-9.583244,-24.233852
3.175000,108.765762,-2.605510,12.789227,-27.492645,-1.425486,-23.932604
3.181250,106.646484,-2.610101,13.401369,-27.456310,5.472990,-23.650307
3.187500,102.226715,-2.614595,15.675304,-27.375036,10.755152,-23.414944
3.193750,95.384712,-2.618858,18.909437,-27.252468,13.935624,-23.254469
3.200000,86.120216,-2.622900,22.475748,-27.092127,15.056673,-23.183310
3.206250,74.554337,-2.626617,25.876751,-26.901314,14.151554,-23.197739
3.212500,60.923340,-2.629986,28.673479,-26.690601,11.366297,-23.297720
3.218750,45.566509,-2.633448,30.492704,-26.473064,6.998148,-23.504480
3.225000,28.910866,-2.636886,33.224792,-26.253597,1.329237,-23.737782
3.231250,11.450679,-2.639930,35.336212,-26.030859,-5.688784,-23.988209
3.237500,-6.281329,-2.642555,35.274582,-25.809671,-13.204084,-24.263533
3.243750,-23.742453,-2.645191,35.004631,-25.586330,-20.966112,-24.549025
3.250000,-40.401535,-2.648315,34.348106,-25.353052,-26.905457,-24.822346
3.256250,-55.763577,-2.651778,32.965019,-25.152462,-32.549423,-25.067562
3.262500,-69.398254,-2.654946,30.641638,-24.981077,-37.327789,-25.277945
3.268750,-80.965378,-2.657731,27.381390,-24.831451,-40.706341,-25.433699
3.275000,-90.230598,-2.660446,23.023983,-24.701939,-42.209267,-25.531212
3.281250,-97.074837,-2.663508,17.408083,-24.585880,-41.525246,-25.566854
3.287500,-101.496567,-2.667083,10.399730,-24.473654,-38.499916,-25.544350
3.293750,-103.614624,-2.670871,4.084524,-24.348133,-33.154018,-25.465525
3.300000,-103.664856,-2.674589,-2.926717,-24.167051,-25.636707,-25.330225
3.306250,-101.987801,-2.678098,-10.440144,-24.021637,-16.219450,-25.152128
3.312500,-99.011024,-2.681433,-18.211132,-23.890251,-5.331939,-24.954556
3.318750,-95.228195,-2.684777,-25.574596,-23.766069,6.482395,-24.762703
3.325000,-91.171478,-2.688028,-32.266190,-23.656853,18.637733,-24.594393
3.331250,-85.218414,-2.691053,-38.070457,-23.575706,32.707764,-24.460583
3.337500,-79.263824,-2.693632,-42.822552,-23.544914,46.716900,-24.369055
3.343750,-73.308029,-2.695776,-46.427967,-23.606855,60.574482,-24.321600
3.350000,-67.352608,-2.697516,-48.829762,-23.722105,72.309883,-24.303875
3.356250,-61.397030,-2.698921,-50.988537,-23.876312,83.471886,-24.278509
3.362500,-55.442566,-2.700064,-50.197662,-24.126049,93.158501,-24.329210
3.368750,-49.489410,-2.700864,-48.291195,-24.484922,100.656693,-24.440651
3.375000,-43.536709,-2.701152,-45.214298,-24.942402,105.707611,-24.617798
3.381250,-37.585491,-2.700836,-41.021065,-25.476387,107.929390,-24.871799
3.387500,-31.638439,-2.700449,-35.865208,-26.058035,107.348335,-25.134920
3.393750,-25.697308,-2.700587,-29.973175,-26.653076,103.899704,-25.413780
3.400000,-19.759731,-2.701129,-23.609375,-27.221281,97.592888,-25.668747
3.406250,-13.822883,-2.701535,-17.102211,-27.733154,88.994102,-25.954260
3.412500,-7.886342,-2.701918,-10.828116,-28.166925,79.275200,-26.257851
3.418750,-1.953804,-2.702852,-4.803799,-28.498072,68.838776,-26.542719
3.425000,3.974798,-2.704687,0.971146,-28.710972,58.631699,-26.792645
3.431250,9.903680,-2.706944,6.216990,-28.801226,47.487259,-27.000448
3.437500,15.835994,-2.709051,10.707901,-28.771452,37.765823,-27.169662
3.443750,21.768639,-2.711557,14.366875,-28.600231,29.966698,-27.267946
3.450000,27.698959,-2.714986,17.118786,-28.303526,22.696426,-27.284298
3.456250,33.629921,-2.718999,18.818348,-27.911432,17.654545,-27.231085
3.462500,39.568020,-2.722680,19.566015,-27.457438,14.476424,-27.112978
3.468750,45.512218,-2.725779,19.602612,-26.976641,12.822843,-26.928385
3.475000,51.457188,-2.728590,19.234474,-26.508133,12.339388,-26.683573
3.481250,57.400650,-2.731493,18.808689,-26.093557,12.629986,-26.392687
3.487500,63.342949,-2.734606,17.021269,-25.696394,13.280457,-26.058062
3.493750,69.284691,-2.738063,15.946330,-25.352749,13.891062,-25.680513
3.500000,75.226654,-2.741858,15.238664,-25.088699,14.040812,-25.270182
3.506250,81.170372,-2.745680,14.846578,-24.908604,13.359138,-24.839521
3.512500,87.117432,-2.748875,14.743083,-24.803141,11.557514,-24.401140
3.518750,93.066116,-2.751658,14.898887,-24.743708,8.429505,-23.963640
3.525000,97.116035,-2.755045,15.291064,-24.668959,3.838484,-23.534603
3.531250,100.887962,-2.759492,15.845767,-24.598690,-0.150543,-23.125326
3.537500,103.854324,-2.764480,17.532946,-24.542284,-4.959349,-22.750338
3.543750,105.528526,-2.769256,19.671843,-24.461187,-10.112647,-22.431900
3.550000,105.482079,-2.773884,22.408997,-24.343975,-15.220534,-22.156685
3.556250,103.370064,-2.778959,24.080618,-24.170959,-20.105083,-21.887268
3.562500,98.956825,-2.784460,26.450815,-23.950745,-24.284241,-21.626013
3.568750,92.125610,-2.789661,28.975637,-23.708473,-27.864283,-21.453350
3.575000,82.879944,-2.793758,31.214685,-23.469593,-30.910439,-21.367088
3.581250,71.336632,-2.796693,32.773693,-23.264246,-33.417645,-21.385754
3.587500,57.728920,-2.798972,33.296715,-23.126123,-35.718849,-21.497648
3.593750,42.395203,-2.800864,32.530224,-23.080795,-36.737766,-21.660572
3.600000,25.765409,-2.802002,32.542866,-23.118675,-38.101860,-21.909794
3.606250,8.333308,-2.801936,31.848289,-23.254105,-39.707203,-22.246281
3.612500,-9.371127,-2.800722,30.753374,-23.492907,-41.566669,-22.652285
3.618750,-26.806610,-2.798962,29.674665,-23.829378,-43.737148,-23.093851
3.625000,-43.440426,-2.796647,28.915524,-24.283857,-46.404041,-23.578678
3.631250,-58.778866,-2.793556,28.778763,-24.839371,-47.696789,-24.098137
3.637500,-72.395767,-2.789870,29.679029,-25.461115,-48.901550,-24.618078
3.643750,-83.955383,-2.786326,29.923733,-26.111383,-49.603050,-25.112862
3.650000,-93.221664,-2.783331,31.199091,-26.749720,-49.526924,-25.561773
3.656250,-100.070000,-2.780942,32.932034,-27.325464,-48.483208,-25.945686
3.662500,-104.498596,-2.779144,34.467590,-27.781643,-46.343311,-26.249422
3.668750,-106.629097,-2.778142,37.063107,-28.147367,-43.084293,-26.470490
3.675000,-106.697357,-2.777987,38.596333,-28.390280,-38.788071,-26.612816
3.681250,-105.041916,-2.778346,39.141361,-28.489029,-33.590096,-26.677580
3.687500,-102.089340,-2.779142,38.577507,-28.441414,-27.686152,-26.667055
3.693750,-98.334084,-2.781038,36.824188,-28.262547,-21.352770,-26.588755
3.700000,-94.308853,-2.784235,33.868206,-27.989296,-14.903425,-26.456488
3.706250,-88.386871,-2.788020,29.833857,-27.633356,-8.641672,-26.283541
3.712500,-82.458939,-2.791724,25.146509,-27.199806,-2.793063,-26.069719
3.718750,-76.527817,-2.795533,17.911600,-26.742693,2.456851,-25.817257
3.725000,-70.597466,-2.799924,9.995854,-26.298855,6.905542,-25.527086
3.731250,-64.666138,-2.804664,1.243997,-25.893965,10.562324,-25.228157
3.737500,-58.729462,-2.809048,-6.363416,-25.569937,13.777525,-24.967340
3.743750,-52.788021,-2.812951,-14.282518,-25.344877,16.578548,-24.753815
3.750000,-46.844887,-2.816606,-21.924683,-25.212460,19.235676,-24.588953
3.756250,-40.902790,-2.820055,-28.811924,-25.164759,20.468904,-24.423771
3.762500,-34.959480,-2.823174,-34.571781,-25.189432,22.253935,-24.254219
3.768750,-29.015858,-2.826052,-38.846745,-25.258436,24.460606,-24.098608
3.775000,-23.073275,-2.829033,-41.373043,-25.344692,25.489723,-24.008610
3.781250,-17.131453,-2.832037,-42.088921,-25.453951,26.463192,-23.953434
3.787500,-11.188951,-2.834641,-40.919979,-25.564238,27.015713,-23.919086
3.793750,-5.246249,-2.837097,-39.632587,-25.660673,26.904423,-23.901310
3.800000,0.694647,-2.839770,-36.659580,-25.750982,25.961435,-23.898888
3.806250,6.633174,-2.842772,-32.532665,-25.757380,24.154646,-23.889837
3.812500,12.571736,-2.845934,-27.721601,-25.691442,21.566715,-23.852190
3.818750,18.510210,-2.849389,-23.260313,-25.577459,18.128044,-23.791748
3.825000,24.447519,-2.853289,-17.532820,-25.430084,13.907252,-23.712160
3.831250,30.387062,-2.857311,-12.345885,-25.262386,9.145650,-23.616821
3.837500,36.329395,-2.861001,-7.553705,-25.087919,4.177349,-23.514685
3.843750,42.273144,-2.864619,-2.957238,-24.918238,-0.637840,-23.429497
3.850000,48.215557,-2.868586,1.717971,-24.750334,-4.823050,-23.319229
3.856250,54.157314,-2.872694,4.847055,-24.586060,-9.629891,-23.182285
3.862500,60.101685,-2.876391,8.222339,-24.433233,-13.407267,-23.044619
3.868750,66.047295,-2.879822,11.520184,-24.291422,-16.312201,-22.914345
3.875000,71.988754,-2.883856,14.453324,-24.150070,-18.477531,-22.791212
3.881250,77.925827,-2.889145,16.758116,-23.979460,-20.069206,-22.666597
3.887500,83.864166,-2.894890,18.118216,-23.781597,-21.308147,-22.531580
3.893750,89.808792,-2.900205,17.964077,-23.576481,-22.514662,-22.391626
3.900000,93.862114,-2.905327,18.419231,-23.339952,-24.042002,-22.249222
3.906250,97.640106,-2.911197,17.967508,-23.062019,-26.168430,-22.102369
3.912500,100.609589,-2.918201,16.902712,-22.741116,-29.197050,-21.947704
3.918750,102.284355,-2.925902,15.514211,-22.380009,-33.430817,-21.779467
3.925000,102.241287,-2.933639,14.026791,-21.990660,-37.276115,-21.585529
3.931250,100.140320,-2.941071,12.602318,-21.594294,-42.643097,-21.361687
3.937500,95.742889,-2.948145,11.395508,-21.213062,-47.311092,-21.165127
3.943750,88.926239,-2.954863,10.566164,-20.868185,-52.305408,-20.999208
3.950000,79.691208,-2.960970,10.224012,-20.579987,-56.686428,-20.870005
3.956250,68.160744,-2.965807,10.402440,-20.367229,-59.718552,-20.788662
3.962500,54.570503,-2.969011,11.081662,-20.243582,-60.776031,-20.767380
3.968750,39.258125,-2.970817,12.221066,-20.215158,-61.233715,-20.815859
3.975000,22.646755,-2.971388,14.031336,-20.274601,-59.085987,-20.942734
3.981250,5.227766,-2.970784,16.693026,-20.389748,-54.645901,-21.171856
3.987500,-12.466905,-2.969100,19.914095,-20.623495,-48.327816,-21.460894
3.993750,-29.892498,-2.966457,23.291901,-20.944910,-40.338474,-21.820578
4.000000,-46.517689,-2.963062,26.975824,-21.328520,-31.690281,-22.270948
4.006250,-61.850140,-2.958927,30.621017,-21.766531,-22.886311,-22.815966
4.012500,-75.464767,-2.954192,33.981674,-22.243389,-14.474685,-23.478022
4.018750,-87.022354,-2.949515,36.878487,-22.737089,-7.070642,-24.159637
4.025000,-96.287506,-2.945381,39.150661,-23.223801,-1.880990,-24.813509
4.031250,-103.136475,-2.941823,38.713142,-23.693409,2.950946,-25.484678
4.037500,-107.566452,-2.938648,39.186539,-24.136023,6.989691,-26.169846
4.043750,-109.699585,-2.936265,38.648003,-24.535494,9.125371,-26.832052
4.050000,-109.772812,-2.934988,37.106148,-24.883093,9.901287,-27.446455
4.056250,-108.123268,-2.934350,34.609818,-25.175848,9.879535,-27.995491
4.062500,-105.174759,-2.933624,31.327326,-25.396444,7.784995,-28.462223
4.068750,-101.422684,-2.933228,27.529514,-25.534851,5.932259,-28.819220
4.075000,-97.404831,-2.934421,23.374142,-25.603374,4.439866,-29.053911
4.081250,-91.497360,-2.937268,19.144186,-25.612417,3.358613,-29.164793
4.087500,-85.586357,-2.940593,15.226162,-25.568361,2.812404,-29.149639
4.093750,-79.666061,-2.943325,10.155055,-25.474697,2.979680,-29.006886
4.100000,-73.743584,-2.945972,5.974212,-25.337130,4.034100,-28.742966
4.106250,-67.825218,-2.949427,2.558121,-25.162046,3.968677,-28.376425
4.112500,-61.910175,-2.953817,-0.182183,-24.952501,4.294229,-27.935085
4.118750,-55.992916,-2.958763,-2.325011,-24.706825,4.799560,-27.388271
4.125000,-50.072330,-2.964119,-4.030507,-24.433878,5.192986,-26.768503
4.131250,-44.149353,-2.970012,-5.485792,-24.145668,4.962420,-26.114304
4.137500,-38.223118,-2.976225,-6.820213,-23.851030,3.892855,-25.455059
4.143750,-32.291672,-2.982366,-8.118486,-23.554647,1.872066,-24.812784
4.150000,-26.355968,-2.988443,-9.462917,-23.259621,1.010969,-24.204826
4.156250,-20.418049,-2.994752,-8.775522,-22.968224,-0.066503,-23.640512
4.162500,-14.478696,-3.001421,-7.506950,-22.681400,-0.830249,-23.105145
4.168750,-8.536505,-3.008244,-7.152110,-22.400164,-0.851892,-22.674858
4.175000,-2.590665,-3.015230,-5.723260,-22.116997,-1.859651,-22.303061
4.181250,3.359066,-3.022228,-3.534411,-21.844374,-1.479352,-21.998667
4.187500,9.313307,-3.028935,-0.942932,-21.593487,-0.182471,-21.759342
4.193750,15.272633,-3.035281,1.734844,-21.372742,1.755199,-21.539450
4.200000,21.235865,-3.041160,4.180166,-21.190094,4.130844,-21.405455
4.206250,27.201914,-3.046303,6.079754,-21.052958,7.432915,-21.373745
4.212500,33.170876,-3.050401,9.324647,-20.966778,8.688247,-21.431074
4.218750,39.140678,-3.053640,12.348184,-20.926537,10.645843,-21.493805
4.225000,45.107964,-3.056381,15.490630,-20.922228,11.224137,-21.590010
4.231250,51.071075,-3.058948,17.127441,-20.944967,10.488394,-21.722349
4.237500,57.031624,-3.061283,19.112106,-20.982132,8.307568,-21.877497
4.243750,62.989822,-3.063209,21.050184,-21.039730,6.713876,-22.041218
4.250000,68.947159,-3.064744,22.480347,-21.121855,4.185643,-22.213268
4.256250,74.902122,-3.065771,23.117083,-21.210836,1.142818,-22.384558
4.262500,80.853546,-3.066608,22.625015,-21.289690,-1.919899,-22.539902
4.268750,86.799065,-3.067780,20.657726,-21.344530,-4.571718,-22.663013
4.275000,92.736900,-3.069895,19.083670,-21.367367,-6.451141,-22.741072
4.281250,96.776245,-3.072789,16.276379,-21.350294,-7.258362,-22.762360
4.287500,100.542755,-3.076070,12.517793,-21.283232,-6.758286,-22.709213
4.293750,103.503365,-3.080096,8.057900,-21.165442,-4.846344,-22.562212
4.300000,105.163773,-3.085508,3.094962,-21.007790,-1.738244,-22.372856
4.306250,105.100914,-3.091846,-2.102328,-20.813988,2.350127,-22.140100
4.312500,102.980682,-3.097921,-7.253937,-20.589125,7.400591,-21.862274
4.318750,98.566658,-3.103384,-12.131076,-20.341068,13.124280,-21.547035
4.325000,91.729424,-3.109190,-16.557127,-20.083567,19.154652,-21.208958
4.331250,82.467262,-3.115804,-20.406836,-19.833651,25.089581,-20.865257
4.337500,70.907288,-3.122524,-23.577610,-19.610241,30.545549,-20.530653
4.343750,57.291222,-3.128460,-26.015495,-19.449961,35.162399,-20.212349
4.350000,41.957794,-3.133522,-25.533672,-19.312853,38.625706,-19.898046
4.356250,25.330717,-3.137864,-24.895365,-19.220257,42.588844,-19.661564
4.362500,7.901666,-3.141029,-22.752728,-19.217386,45.403976,-19.509665
4.368750,-9.796200,-3.142981,-19.059444,-19.310265,47.548103,-19.460333
4.375000,-27.221457,-3.144041,-13.921315,-19.496769,49.381290,-19.568672
4.381250,-43.844681,-3.144530,-7.555213,-19.767176,51.210232,-19.735184
4.387500,-59.171005,-3.144055,-0.240604,-20.104219,52.757301,-19.963696
4.393750,-72.771820,-3.142284,7.668114,-20.488518,55.083012,-20.249264
4.400000,-84.312447,-3.140054,15.743354,-20.905106,56.624611,-20.657089
4.406250,-93.558586,-3.137985,21.653318,-21.341644,58.811050,-21.141747
4.412500,-100.385757,-3.135589,28.799377,-21.781622,61.161163,-21.672356
4.418750,-104.791519,-3.132505,34.963696,-22.208698,63.413490,-22.224661
4.425000,-106.899628,-3.129290,39.891766,-22.603851,65.371124,-22.774609
4.431250,-106.951981,-3.126682,43.498100,-22.924692,66.946976,-23.277721
4.437500,-105.286049,-3.124582,45.683769,-23.164371,68.079033,-23.705757
4.443750,-102.325958,-3.122626,46.377201,-23.328079,68.614479,-24.046713
4.450000,-98.564857,-3.121340,45.742332,-23.415867,68.561211,-24.288038
4.456250,-94.538788,-3.121643,44.065002,-23.426407,68.038376,-24.419891
4.462500,-88.622253,-3.123285,41.712311,-23.362232,67.196030,-24.438023
4.468750,-82.703003,-3.125494,39.142296,-23.230513,66.222794,-24.344725
4.475000,-76.779816,-3.128163,34.961143,-23.047874,65.346367,-24.156893
4.481250,-70.856682,-3.131672,31.339739,-22.822016,64.864326,-23.874542
4.487500,-64.932449,-3.135926,28.361498,-22.551437,63.379868,-23.486507
4.493750,-59.004463,-3.140366,25.931749,-22.261841,62.594585,-23.035282
4.500000,-53.074226,-3.145416,23.952044,-21.977064,62.154037,-22.555698
4.506250,-47.144207,-3.151862,22.414747,-21.712105,61.825047,-22.074717
4.512500,-41.211082,-3.159220,21.325825,-21.472326,61.391388,-21.613379
4.518750,-35.267056,-3.166105,20.673059,-21.251314,60.631527,-21.188452
4.525000,-29.310928,-3.171768,20.416925,-21.012674,59.309944,-20.815813
4.531250,-23.350315,-3.176929,20.448132,-20.800999,57.146923,-20.533979
4.537500,-17.391533,-3.182444,22.049639,-20.654367,53.717625,-20.330240
4.543750,-11.431014,-3.188135,22.424717,-20.537672,50.308514,-20.185415
4.550000,-5.463920,-3.193076,23.573572,-20.434032,45.503365,-20.114105
4.556250,0.509870,-3.196986,25.002829,-20.365105,39.608227,-20.067295
4.562500,6.486934,-3.200153,26.294115,-20.351784,32.950371,-20.144762
4.568750,12.465028,-3.202746,27.117657,-20.415514,26.597992,-20.345831
4.575000,18.444376,-3.204721,27.180443,-20.584551,20.283230,-20.698656
4.581250,24.426777,-3.205649,26.247559,-20.945282,13.844895,-21.053848
4.587500,30.410868,-3.205317,26.719435,-21.327436,8.080259,-21.483961
4.593750,36.393856,-3.203885,25.210497,-21.820192,3.373629,-21.994099
4.600000,42.373791,-3.201597,23.486765,-22.433910,-0.174499,-22.570955
4.606250,48.348320,-3.198612,21.575047,-23.168034,-2.575353,-23.195953
4.612500,54.318195,-3.194887,19.446600,-24.020815,-3.972072,-23.864113
4.618750,60.281040,-3.190931,17.302303,-24.943361,-4.551642,-24.555922
4.625000,66.233902,-3.187408,15.172281,-25.911961,-4.460156,-25.247972
4.631250,72.179245,-3.184284,13.054341,-26.897621,-3.949870,-25.921654
4.637500,78.121933,-3.180630,11.033476,-27.862925,-3.330284,-26.564714
4.643750,84.062332,-3.176250,7.327586,-28.762575,-2.939339,-27.155998
4.650000,89.993057,-3.172384,3.663727,-29.547014,-3.155468,-27.652657
4.656250,95.908669,-3.170395,1.755665,-30.165829,-4.337444,-28.018581
4.662500,99.918549,-3.170333,-0.248560,-30.586304,-6.796336,-28.252863
4.668750,103.652863,-3.171546,-2.415277,-30.802366,-8.950995,-28.379614
4.675000,106.582039,-3.173945,-4.677046,-30.798306,-12.365733,-28.381468
4.681250,108.213264,-3.177786,-6.938686,-30.567835,-16.762129,-28.250183
4.687500,108.121017,-3.182682,-9.191485,-30.123777,-21.934397,-27.989517
4.693750,105.965851,-3.188493,-11.470123,-29.497971,-27.668779,-27.611740
4.700000,101.509529,-3.195734,-13.810572,-28.737682,-33.695240,-27.128805
4.706250,94.629684,-3.204911,-16.322281,-27.879623,-39.702927,-26.549070
4.712500,85.333641,-3.215030,-19.388214,-26.925081,-45.361904,-25.865471
4.718750,73.750343,-3.224577,-22.951408,-25.932037,-50.236729,-25.137419
