Anritsu VNA Frequency[GHz],S21[deg],S21[dB],S11[deg],S11[dB],S22[deg],S22[dB]
1338113206.34,2012_05_27_11:06:46,+40.699,+10.300,+55.191,+10.315,+13.920,+13.731,+14.024,+13.775,10.393542,-15.895
3.006250,34.296921,-1.754536,59.452827,-26.661667,-79.841499,-27.437128
3.012500,34.296921,-1.754536,59.452827,-26.661667,-79.841499,-27.437128
3.018750,34.296921,-1.754536,59.452827,-26.661667,-79.841499,-27.437128
3.025000,34.296921,-1.754536,59.452827,-26.661667,-79.841499,-27.437128
3.031250,34.296921,-1.754536,59.452827,-26.661667,-79.841499,-27.437128
3.037500,34.296921,-1.754536,59.452827,-26.661667,-79.841499,-27.437128
3.043750,34.296921,-1.754536,59.452827,-26.661667,-79.841499,-27.437128
3.050000,34.296921,-1.754536,59.452827,-26.661667,-79.841499,-27.437128
3.056250,34.296921,-1.754536,59.452827,-26.661667,-79.841499,-27.437128
3.062500,34.296921,-1.754536,59.452827,-26.661667,-79.841499,-27.437128
3.068750,34.296921,-1.754536,59.452827,-26.661667,-79.841499,-27.437128
3.075000,34.296921,-1.754536,59.452827,-26.661667,-79.841499,-27.437128
3.081250,34.296921,-1.754536,59.452827,-26.661667,-79.841499,-27.437128
3.087500,34.296921,-1.754536,59.452827,-26.661667,-79.841499,-27.437128
3.093750,34.296921,-1.756272,59.452827,-26.461473,-79.841499,-27.187237
3.100000,40.204323,-1.758296,56.770512,-26.311062,-81.856506,-26.954857
3.106250,46.111824,-1.760291,53.204281,-26.232655,-82.252785,-26.741737
3.112500,52.019875,-1.762322,49.117874,-26.245853,-80.676712,-26.520008
3.118750,57.926929,-1.764534,43.115242,-26.291519,-78.967247,-26.219805
3.125000,63.832939,-1.766860,38.320251,-26.337809,-74.920784,-25.958660
3.131250,69.738312,-1.769285,33.930424,-26.411034,-68.759171,-25.670536
3.137500,75.642769,-1.772014,30.215485,-26.511965,-60.875050,-25.345701
3.143750,81.545464,-1.775275,27.381357,-26.632053,-51.455761,-24.992496
3.150000,87.449013,-1.778860,25.604401,-26.756870,-40.656120,-24.623339
3.156250,93.355690,-1.782215,25.010431,-26.871981,-28.648159,-24.256817
3.162500,97.369774,-1.785289,25.661034,-26.964579,-15.632713,-23.916111
3.168750,101.110878,-1.788468,27.576124,-27.026609,-3.712566,-23.650297
3.175000,104.045174,-1.791934,30.799067,-27.037037,8.571924,-23.405079
3.181250,105.682739,-1.795481,33.571384,-26.982264,21.092827,-23.182259
3.187500,105.597717,-1.798931,37.357445,-26.880053,32.575863,-23.013542
3.193750,103.449181,-1.802129,41.457001,-26.742722,42.592575,-22.915018
3.200000,98.999481,-1.805008,45.295341,-26.578335,50.811253,-22.890375
3.206250,92.126869,-1.807524,48.392021,-26.397535,56.948845,-22.939680
3.212500,82.829559,-1.809883,50.328571,-26.213947,60.810966,-23.070992
3.218750,71.228020,-1.812467,50.790302,-26.038122,62.295261,-23.266495
3.225000,57.560486,-1.814934,51.780128,-25.864086,61.144997,-23.471430
3.231250,42.169979,-1.816905,51.833687,-25.692059,57.649403,-23.694666
3.237500,25.481718,-1.818600,49.462288,-25.521912,53.919350,-23.927431
3.243750,7.984064,-1.820525,46.778976,-25.330673,48.456455,-24.147158
3.250000,-9.790457,-1.823075,43.650650,-25.157619,41.927551,-24.334713
3.256250,-27.291368,-1.825799,39.719707,-25.017572,34.927971,-24.489138
3.262500,-43.983810,-1.828156,35.225998,-24.892773,28.104658,-24.599232
3.268750,-59.376972,-1.830198,30.111765,-24.779255,22.135899,-24.656021
3.275000,-73.046913,-1.832321,24.255754,-24.675697,17.569019,-24.659403
3.281250,-84.653702,-1.834837,17.546846,-24.573215,14.841883,-24.616381
3.287500,-93.958656,-1.837755,9.895783,-24.459192,14.252018,-24.541428
3.293750,-100.837509,-1.840746,1.265319,-24.295391,15.953926,-24.435242
3.300000,-105.290314,-1.843657,-6.168154,-24.126675,19.989845,-24.298840
3.306250,-107.437866,-1.846292,-14.832273,-23.990782,26.222269,-24.157963
3.312500,-107.518135,-1.848651,-23.492388,-23.868660,34.345177,-24.044594
3.318750,-105.872688,-1.850904,-31.865343,-23.768013,43.977077,-23.979897
3.325000,-102.928665,-1.852981,-39.688431,-23.706615,54.674885,-23.974442
3.331250,-99.178116,-1.854698,-46.702293,-23.709385,65.918968,-24.031166
3.337500,-95.153572,-1.856003,-52.724480,-23.844782,77.132431,-24.148245
3.343750,-89.234184,-1.856927,-57.779308,-24.004536,87.733192,-24.311781
3.350000,-83.315483,-1.857464,-62.219704,-24.227276,97.476807,-24.466122
3.356250,-77.397346,-1.857662,-65.660553,-24.555237,106.078217,-24.663704
3.362500,-71.481216,-1.857746,-66.394501,-25.009048,112.337540,-24.913305
3.368750,-65.567169,-1.857502,-66.060272,-25.569950,116.376480,-25.202925
3.375000,-59.653770,-1.856651,-64.534782,-26.211140,117.796013,-25.578196
3.381250,-53.742085,-1.855403,-61.829563,-26.897839,116.414322,-25.913626
3.387500,-47.836613,-1.854529,-58.039242,-27.591360,112.893532,-26.236412
3.393750,-41.937626,-1.854469,-53.324783,-28.247044,106.651550,-26.539585
3.400000,-36.041039,-1.854736,-47.901058,-28.821732,98.251297,-26.815128
3.406250,-30.143215,-1.854840,-42.105534,-29.294233,88.701553,-27.094454
3.412500,-24.245771,-1.855080,-36.262398,-29.639311,78.665138,-27.343048
3.418750,-18.353115,-1.856193,-28.435904,-29.835203,66.782242,-27.539951
3.425000,-12.463533,-1.858367,-22.171448,-29.877586,55.344578,-27.679008
3.431250,-6.571145,-1.860655,-15.613288,-29.781647,44.783661,-27.766134
3.437500,-0.674690,-1.862844,-9.021151,-29.531820,35.556057,-27.804863
3.443750,5.221234,-1.865689,-2.410533,-29.126114,28.340109,-27.743824
3.450000,11.115647,-1.869500,3.692866,-28.610302,21.424232,-27.611866
3.456250,17.014151,-1.873539,9.127644,-28.024023,16.583506,-27.422398
3.462500,22.921202,-1.876985,13.888467,-27.410730,13.525036,-27.178358
3.468750,28.833338,-1.879812,18.057291,-26.816730,11.935896,-26.876253
3.475000,34.745632,-1.882418,21.742014,-26.308262,11.465981,-26.531012
3.481250,40.657604,-1.884876,25.203417,-25.837154,11.720774,-26.158415
3.487500,46.568832,-1.887442,27.173061,-25.434616,12.329023,-25.753407
3.493750,52.478741,-1.890412,29.036171,-25.136442,12.862018,-25.322815
3.500000,58.387699,-1.893867,30.620543,-24.947884,12.884554,-24.878487
3.506250,64.299583,-1.897064,31.823406,-24.853966,12.061536,-24.430944
3.512500,70.215897,-1.899457,32.551521,-24.821167,10.122725,-23.989344
3.518750,76.132271,-1.901650,32.777435,-24.754822,6.863780,-23.558950
3.525000,82.042519,-1.904709,32.682674,-24.740900,2.132801,-23.145815
3.531250,87.948257,-1.908904,32.811131,-24.729565,-2.046497,-22.764647
3.537500,93.856514,-1.913358,32.816761,-24.684721,-7.134328,-22.431250
3.543750,97.875237,-1.917446,32.956509,-24.597965,-12.704127,-22.141626
3.550000,101.623718,-1.921669,33.563339,-24.441801,-18.470987,-21.860300
3.556250,104.565758,-1.926603,33.078907,-24.216969,-23.962435,-21.533276
3.562500,106.212158,-1.931797,33.210278,-23.953697,-28.869799,-21.291355
3.568750,106.142662,-1.936164,33.615852,-23.678736,-32.012253,-21.120382
3.575000,104.016647,-1.939098,34.018200,-23.418518,-34.372387,-21.021420
3.581250,99.591759,-1.940944,34.133327,-23.208101,-35.683346,-21.008223
3.587500,92.741188,-1.942375,33.706532,-23.082279,-35.963589,-21.040823
3.593750,83.464966,-1.943362,32.621788,-23.032459,-35.091660,-21.141104
3.600000,71.888985,-1.943294,30.823990,-23.068859,-32.908058,-21.324198
3.606250,58.250557,-1.941840,30.159586,-23.205803,-29.572865,-21.583920
3.612500,42.885223,-1.939510,29.177664,-23.429266,-25.360855,-21.893930
3.618750,26.216587,-1.936793,28.286257,-23.755991,-20.669209,-22.229408
3.625000,8.738608,-1.933429,27.592636,-24.197445,-16.279146,-22.632141
3.631250,-9.014408,-1.929254,27.709326,-24.716137,-10.394710,-23.064922
3.637500,-26.499323,-1.924699,28.938013,-25.276684,-4.735556,-23.499636
3.643750,-43.187958,-1.920544,31.416271,-25.841719,0.674273,-23.915728
3.650000,-58.586781,-1.917024,33.282169,-26.366631,5.747810,-24.296417
3.656250,-72.265556,-1.914123,36.097481,-26.775625,10.395884,-24.625288
3.662500,-83.882790,-1.911970,39.034725,-27.115170,14.518926,-24.896893
3.668750,-93.200752,-1.910673,43.015915,-27.362808,17.983784,-25.118105
3.675000,-100.095886,-1.910021,46.365158,-27.490648,20.701609,-25.287523
3.681250,-104.565544,-1.909472,48.809544,-27.495693,22.617830,-25.403788
3.687500,-106.733246,-1.909419,50.108425,-27.390976,23.655754,-25.469835
3.693750,-106.839386,-1.910595,50.111580,-27.202618,23.763292,-25.494934
3.700000,-105.222862,-1.912905,48.827583,-26.935452,22.946693,-25.490332
3.706250,-102.303986,-1.915428,46.405018,-26.608152,21.338373,-25.448269
3.712500,-98.573586,-1.917670,42.831219,-26.259512,19.156887,-25.362404
3.718750,-94.569885,-1.920204,36.401802,-25.916321,16.552477,-25.238068
3.725000,-88.672813,-1.923425,29.041119,-25.594904,13.857113,-25.091183
3.731250,-82.774025,-1.926708,20.477465,-25.339563,11.671596,-24.959408
3.737500,-76.870544,-1.929511,12.651607,-25.174093,10.414547,-24.856066
3.743750,-70.964867,-1.932084,4.306923,-25.083715,10.492884,-24.802799
3.750000,-65.060677,-1.934741,-3.996615,-25.056513,10.506395,-24.715021
3.756250,-59.157623,-1.937344,-11.867781,-25.088644,10.434164,-24.612171
3.762500,-53.253906,-1.939795,-18.882816,-25.158714,11.601957,-24.495127
3.768750,-47.350376,-1.942198,-24.606462,-25.231600,13.748823,-24.412033
3.775000,-41.448383,-1.944975,-28.799942,-25.316870,16.422495,-24.352503
3.781250,-35.546703,-1.947809,-31.362364,-25.403263,19.017887,-24.300232
3.787500,-29.643709,-1.950387,-31.933588,-25.470083,21.172674,-24.248341
3.793750,-23.740515,-1.953055,-30.431767,-25.532188,22.576899,-24.200335
3.800000,-17.839342,-1.956136,-28.779354,-25.532946,23.035135,-24.148546
3.806250,-11.938280,-1.959569,-24.620516,-25.447319,22.565413,-24.057287
3.812500,-6.035941,-1.963149,-19.476986,-25.315100,21.029341,-23.934254
3.818750,-0.133039,-1.967134,-13.890963,-25.152975,18.316227,-23.789944
3.825000,5.770600,-1.971400,-8.396173,-24.975452,14.555177,-23.631641
3.831250,11.678376,-1.975389,-1.342590,-24.796797,10.012648,-23.470259
3.837500,17.589981,-1.978802,5.453856,-24.631119,5.010860,-23.342041
3.843750,23.501320,-1.982310,12.149221,-24.473907,-0.102706,-23.203577
3.850000,29.409609,-1.986335,17.054768,-24.319118,-6.026462,-23.035126
3.856250,35.318699,-1.990180,21.848486,-24.176006,-11.561067,-22.876982
3.862500,41.231831,-1.993259,26.109568,-24.042988,-16.689371,-22.737843
3.868750,47.144329,-1.996186,29.506454,-23.906744,-21.389128,-22.614826
3.875000,53.049911,-2.000168,31.720421,-23.745420,-25.685369,-22.496931
3.881250,58.951145,-2.005348,32.392715,-23.564899,-29.648226,-22.368137
3.887500,64.855621,-2.010660,31.133469,-23.366982,-33.460793,-22.233320
3.893750,70.766464,-2.015477,27.869387,-23.133842,-37.380280,-22.097658
3.900000,76.679054,-2.020544,24.676620,-22.855738,-41.537800,-21.953279
3.906250,82.588333,-2.026615,20.103647,-22.531984,-44.236599,-21.798405
3.912500,88.497597,-2.033684,14.621841,-22.164642,-47.344067,-21.628475
3.918750,94.413376,-2.041171,8.696264,-21.760588,-50.572556,-21.430075
3.925000,98.442932,-2.048394,2.696973,-21.347727,-53.675781,-21.176497
3.931250,102.207649,-2.055219,-3.038438,-20.951311,-56.723557,-20.957121
3.937500,105.173431,-2.061610,-8.075409,-20.591703,-57.511749,-20.768274
3.943750,106.847588,-2.067335,-12.090036,-20.291786,-57.122150,-20.617737
3.950000,106.804398,-2.071961,-14.862274,-20.073740,-55.085812,-20.519770
3.956250,104.702530,-2.074903,-16.267567,-19.955473,-51.047756,-20.489697
3.962500,100.302277,-2.076114,-16.245081,-19.946894,-44.761402,-20.539558
3.968750,93.478165,-2.075890,-14.793875,-20.045238,-36.087143,-20.677683
3.975000,84.227272,-2.074370,-13.863129,-20.216263,-25.028246,-20.915277
3.981250,72.670769,-2.071603,-9.759775,-20.510729,-11.750388,-21.282352
3.987500,59.043785,-2.067715,-5.405584,-20.912138,2.145848,-21.689568
3.993750,43.684826,-2.063036,-0.116913,-21.376354,17.305046,-22.199905
4.000000,27.020351,-2.057699,5.468149,-21.899233,32.926846,-22.821239
4.006250,9.542846,-2.051761,10.993539,-22.464231,48.152653,-23.584032
4.012500,-8.217536,-2.045651,16.189581,-23.043827,61.912502,-24.345846
4.018750,-25.716551,-2.040277,20.807899,-23.605232,74.878952,-25.083496
4.025000,-42.420601,-2.035808,24.559265,-24.133064,85.107552,-25.830990
4.031250,-57.832634,-2.031819,29.311428,-24.617638,93.507462,-26.593460
4.037500,-71.523537,-2.028372,31.693844,-25.038273,99.200928,-27.316444
4.043750,-83.155739,-2.026191,33.748169,-25.382517,102.474815,-27.969923
4.050000,-92.490898,-2.025407,35.329998,-25.650345,103.724045,-28.536846
4.056250,-99.400818,-2.025003,36.369625,-25.832373,103.476562,-29.007448
4.062500,-103.882660,-2.024370,36.943726,-25.910957,100.530243,-29.348459
4.068750,-106.064728,-2.024469,36.997318,-25.903084,97.285072,-29.546066
4.075000,-106.188599,-2.026531,36.548874,-25.825899,93.800049,-29.607809
4.081250,-104.589264,-2.029916,35.779877,-25.692875,90.301247,-29.537781
4.087500,-101.682983,-2.033122,34.944485,-25.512913,84.948570,-29.337297
4.093750,-97.962288,-2.035708,34.345169,-25.294527,79.468475,-29.012178
4.100000,-93.969200,-2.038516,32.402378,-25.052437,73.719765,-28.583738
4.106250,-88.084969,-2.042255,31.112095,-24.791203,67.599442,-28.090809
4.112500,-82.201256,-2.046503,30.375248,-24.498400,61.196487,-27.491735
4.118750,-76.314514,-2.051059,29.912886,-24.197727,54.677643,-26.821993
4.125000,-70.425934,-2.056222,29.485449,-23.900944,47.783363,-26.122858
4.131250,-64.536308,-2.062004,28.892504,-23.617275,40.661549,-25.424520
4.137500,-58.642017,-2.067835,28.020868,-23.349913,33.510513,-24.750420
4.143750,-52.741558,-2.073363,26.784046,-23.098181,26.546968,-24.118391
4.150000,-46.838245,-2.078853,25.097454,-22.860910,19.962172,-23.541735
4.156250,-40.934734,-2.084719,25.054861,-22.634560,13.930210,-23.020481
4.162500,-35.029804,-2.090883,25.247654,-22.407892,8.598020,-22.566059
4.168750,-29.121477,-2.097157,24.260702,-22.170856,5.659301,-22.183393
4.175000,-23.209146,-2.103498,23.960243,-21.941879,2.568399,-21.869961
4.181250,-17.292999,-2.109740,24.140907,-21.725706,1.034145,-21.617939
4.187500,-11.372456,-2.115684,24.610939,-21.527327,0.934255,-21.368006
4.193750,-5.447070,-2.121219,25.146215,-21.352783,2.318894,-21.228956
4.200000,0.481868,-2.126136,25.517237,-21.209860,3.285247,-21.173460
4.206250,6.414183,-2.130136,25.508196,-21.105534,4.503403,-21.180092
4.212500,12.349304,-2.133035,24.954767,-21.037289,7.006843,-21.205322
4.218750,18.283316,-2.135206,25.920185,-20.993860,8.556425,-21.253700
4.225000,24.213356,-2.137129,24.996300,-20.971348,9.152197,-21.325773
4.231250,30.139589,-2.138901,24.162483,-20.958555,8.648439,-21.407476
4.237500,36.063259,-2.140438,23.210732,-20.954559,6.873647,-21.476152
4.243750,41.984722,-2.141722,21.804262,-20.976212,5.748258,-21.541306
4.250000,47.904888,-2.142680,19.786081,-21.008333,3.651142,-21.602173
4.256250,53.822769,-2.143229,17.011415,-21.033384,1.105465,-21.642384
4.262500,59.736622,-2.143828,13.247118,-21.036655,-1.474389,-21.650856
4.268750,65.643166,-2.145211,8.296079,-21.007652,-3.733902,-21.617283
4.275000,71.543022,-2.147761,1.977922,-20.939264,-5.359666,-21.534878
4.281250,77.442375,-2.150948,-3.702118,-20.819138,-6.081460,-21.390997
4.287500,83.343758,-2.154499,-10.273740,-20.644268,-5.698339,-21.157112
4.293750,89.244720,-2.159219,-17.479210,-20.437466,-4.309612,-20.902971
4.300000,95.145042,-2.165311,-24.946888,-20.200756,-2.187910,-20.631475
4.306250,99.157135,-2.171604,-32.236416,-19.937208,0.861929,-20.339897
4.312500,102.907738,-2.177001,-39.028584,-19.657770,4.632814,-20.037842
4.318750,105.859726,-2.181923,-45.054264,-19.376900,8.859137,-19.738708
4.325000,107.512802,-2.187315,-50.111492,-19.115835,13.237170,-19.460321
4.331250,107.442032,-2.193084,-54.055462,-18.897425,17.455006,-19.217161
4.337500,105.313820,-2.198180,-56.788883,-18.768713,21.240726,-19.012182
4.343750,100.891731,-2.202086,-58.330215,-18.642984,24.371351,-18.788525
4.350000,94.050003,-2.205036,-57.680664,-18.587944,26.379141,-18.669226
4.356250,84.786194,-2.206923,-55.737160,-18.639656,28.925394,-18.634697
4.362500,73.222855,-2.207225,-52.294960,-18.797493,30.771168,-18.695612
4.368750,59.594284,-2.206305,-47.445129,-19.053610,32.269070,-18.879387
4.375000,44.234642,-2.204986,-41.391006,-19.394894,33.664780,-19.125357
4.381250,27.571491,-2.203244,-34.405025,-19.799990,35.015453,-19.416101
4.387500,10.101535,-2.200342,-26.810524,-20.242786,37.119720,-19.757982
4.393750,-7.644358,-2.196615,-19.019753,-20.706322,38.300816,-20.179554
4.400000,-25.126949,-2.193208,-11.490945,-21.178303,40.127350,-20.656391
4.406250,-41.812855,-2.190294,-2.426852,-21.640535,42.175724,-21.162123
4.412500,-57.204311,-2.187023,4.587008,-22.079725,44.154697,-21.678120
4.418750,-70.872871,-2.183522,11.398428,-22.489977,45.851868,-22.190981
4.425000,-82.483582,-2.180687,17.833727,-22.809885,47.182587,-22.652756
4.431250,-91.800323,-2.178924,23.723301,-23.038784,48.159954,-23.035364
4.437500,-98.695564,-2.177557,28.676065,-23.188812,48.550667,-23.335512
4.443750,-103.166664,-2.176358,32.645092,-23.267162,48.352764,-23.546171
4.450000,-105.339882,-2.176219,35.695328,-23.275593,47.694405,-23.659706
4.456250,-105.452934,-2.177606,37.955929,-23.218813,46.744854,-23.674675
4.462500,-103.840424,-2.179682,39.627937,-23.106842,45.684711,-23.597208
4.468750,-100.925217,-2.182049,41.000069,-22.959131,44.736107,-23.449266
4.475000,-97.202576,-2.185228,40.557404,-22.774206,44.189499,-23.216978
4.481250,-93.206604,-2.189196,40.462475,-22.545664,42.774052,-22.886374
4.487500,-87.310982,-2.193166,40.380272,-22.305290,42.020500,-22.503702
4.493750,-81.409302,-2.196820,40.118591,-22.074505,41.625168,-22.098778
4.500000,-75.509117,-2.201292,39.610863,-21.864449,41.370716,-21.693266
4.506250,-69.612076,-2.207358,38.831139,-21.675732,41.046902,-21.301796
4.512500,-63.710136,-2.213855,37.774158,-21.496099,40.437317,-20.934122
4.518750,-57.795750,-2.219254,36.438877,-21.271776,39.296196,-20.599577
4.525000,-51.872662,-2.223724,34.849148,-21.084881,37.309914,-20.333733
4.531250,-45.950542,-2.228411,34.100155,-20.946426,34.030457,-20.125957
4.537500,-40.030735,-2.233709,33.677151,-20.812840,30.818615,-19.953074
4.543750,-34.105919,-2.238800,32.175236,-20.672684,26.171505,-19.826385
4.550000,-28.172684,-2.242858,31.318689,-20.552370,20.421055,-19.721333
4.556250,-22.234091,-2.246036,30.814665,-20.474573,13.974475,-19.698658
4.562500,-16.294058,-2.248661,30.445126,-20.458498,7.536494,-19.774376
4.568750,-10.353087,-2.250801,29.985626,-20.530231,1.087595,-19.946739
4.575000,-4.409616,-2.252137,29.209812,-20.746670,-5.193040,-20.162176
4.581250,1.537335,-2.252313,27.926174,-21.029148,-10.986820,-20.432575
4.587500,7.485159,-2.251231,24.880785,-21.396290,-15.789856,-20.769762
4.593750,13.431623,-2.249276,22.938780,-21.868055,-19.418936,-21.166384
4.600000,19.374403,-2.246530,20.226048,-22.447906,-21.826368,-21.602112
4.606250,25.313549,-2.242784,16.622290,-23.204903,-23.156994,-22.088533
4.612500,31.248371,-2.238146,13.059185,-23.997433,-23.683643,-22.616449
4.618750,37.173752,-2.233556,8.880249,-24.862658,-23.477119,-23.163164
4.625000,43.087048,-2.229777,4.437870,-25.781153,-22.817871,-23.713503
4.631250,48.994244,-2.226218,0.018958,-26.719513,-22.030031,-24.253632
4.637500,54.900303,-2.221815,-4.111878,-27.634418,-21.476383,-24.766687
4.643750,60.801949,-2.217135,-7.706048,-28.472733,-21.523624,-25.217936
4.650000,66.690063,-2.213734,-12.456831,-29.173330,-22.520164,-25.559837
4.656250,72.563766,-2.212339,-14.503207,-29.708145,-24.842037,-25.799021
4.662500,78.431435,-2.212535,-15.889835,-30.068249,-27.064333,-25.957788
4.668750,84.298416,-2.213947,-16.488623,-30.223217,-30.566820,-26.009422
4.675000,90.164474,-2.216846,-16.321613,-30.160240,-35.108547,-25.945875
4.681250,94.136848,-2.221076,-15.522144,-29.881863,-40.481445,-25.767630
4.687500,97.840157,-2.225967,-14.292109,-29.411516,-46.459797,-25.486086
4.693750,100.741280,-2.231769,-12.878941,-28.786758,-52.774784,-25.112997
4.700000,102.344666,-2.239495,-11.579060,-28.036053,-59.082680,-24.650782
4.706250,102.225655,-2.248897,-10.873979,-27.164373,-65.014175,-24.092039
4.712500,100.054985,-2.258237,-11.011684,-26.212946,-70.134911,-23.487822
4.718750,95.599327,-2.266252,-12.335560,-25.257462,-75.851959,-22.896212
