Anritsu VNA Frequency[GHz],S21[deg],S21[dB],S11[deg],S11[dB],S22[deg],S22[dB]
1338049417.87,2012_05_26_17:23:37,+76.738,+214.70,+207.76,+214.98,+220.94,+222.72,+216.74,+218.04,193.247009,-5.432
3.006250,52.519409,-2.641581,59.883835,-28.047729,-71.264763,-28.935469
3.012500,52.519409,-2.641581,59.883835,-28.047729,-71.264763,-28.935469
3.018750,52.519409,-2.641581,59.883835,-28.047729,-71.264763,-28.935469
3.025000,52.519409,-2.641581,59.883835,-28.047729,-71.264763,-28.935469
3.031250,52.519409,-2.641581,59.883835,-28.047729,-71.264763,-28.935469
3.037500,52.519409,-2.641581,59.883835,-28.047729,-71.264763,-28.935469
3.043750,52.519409,-2.641581,59.883835,-28.047729,-71.264763,-28.935469
3.050000,52.519409,-2.641581,59.883835,-28.047729,-71.264763,-28.935469
3.056250,52.519409,-2.641581,59.883835,-28.047729,-71.264763,-28.935469
3.062500,52.519409,-2.641581,59.883835,-28.047729,-71.264763,-28.935469
3.068750,52.519409,-2.641581,59.883835,-28.047729,-71.264763,-28.935469
3.075000,52.519409,-2.641581,59.883835,-28.047729,-71.264763,-28.935469
3.081250,52.519409,-2.641581,59.883835,-28.047729,-71.264763,-28.935469
3.087500,52.519409,-2.641581,59.883835,-28.047729,-71.264763,-28.935469
3.093750,52.519409,-2.644096,59.883835,-27.851028,-71.264763,-28.822193
3.100000,58.466469,-2.647069,53.430317,-27.661667,-71.842384,-28.668911
3.106250,64.412849,-2.650272,46.370388,-27.498440,-71.659210,-28.476772
3.112500,70.360603,-2.653527,37.466942,-27.381012,-70.450317,-28.238607
3.118750,76.308884,-2.656825,28.963009,-27.334503,-67.985718,-27.936644
3.125000,82.256569,-2.660283,21.124216,-27.284374,-64.147667,-27.579994
3.131250,88.203781,-2.663807,14.365277,-27.243965,-58.975956,-27.185999
3.137500,94.149948,-2.667590,8.498842,-27.231703,-52.265663,-26.746845
3.143750,98.200188,-2.671891,3.753902,-27.251659,-43.979340,-26.270159
3.150000,101.977394,-2.676499,0.361116,-27.296661,-36.102459,-25.771980
3.156250,104.951523,-2.681037,-1.511676,-27.356243,-27.145876,-25.274403
3.162500,106.630074,-2.685303,-1.768959,-27.416603,-17.811125,-24.801756
3.168750,106.584625,-2.689487,-0.381631,-27.462809,-8.773880,-24.381836
3.175000,104.472771,-2.693848,2.629335,-27.476448,-0.668247,-24.056267
3.181250,100.058487,-2.698340,5.388059,-27.438118,6.110579,-23.764408
3.187500,93.221954,-2.702703,9.623786,-27.358793,11.372593,-23.513615
3.193750,83.962837,-2.706912,14.543517,-27.240835,14.539228,-23.331917
3.200000,72.402496,-2.710933,19.395401,-27.086329,15.656595,-23.241116
3.206250,58.778179,-2.714625,23.610390,-26.901691,14.760378,-23.236629
3.212500,43.429489,-2.718107,26.702637,-26.696890,11.973384,-23.316944
3.218750,26.782219,-2.721614,30.449686,-26.484228,7.600508,-23.499077
3.225000,9.328166,-2.725171,33.220341,-26.270252,1.973590,-23.726419
3.231250,-8.397637,-2.728421,35.366974,-26.053827,-5.032694,-23.965506
3.237500,-25.849043,-2.731279,35.348495,-25.838776,-12.518586,-24.230724
3.243750,-42.496555,-2.734137,35.122467,-25.623646,-20.217695,-24.510042
3.250000,-57.849930,-2.737528,34.510956,-25.398893,-27.946312,-24.782122
3.256250,-71.479439,-2.741259,33.222321,-25.199209,-33.706989,-25.028658
3.262500,-83.041267,-2.744793,30.979090,-25.030197,-39.085987,-25.240047
3.268750,-92.298248,-2.747888,27.786650,-24.882746,-43.513035,-25.404642
3.275000,-99.131599,-2.750858,23.507303,-24.754114,-46.471886,-25.513113
3.281250,-103.543907,-2.754182,17.981552,-24.638083,-47.561378,-25.560545
3.287500,-105.655502,-2.757962,11.075910,-24.525015,-46.530987,-25.548805
3.293750,-105.700592,-2.761960,4.872652,-24.400331,-43.295517,-25.479214
3.300000,-104.018234,-2.765872,-2.018573,-24.223978,-37.892941,-25.350979
3.306250,-101.035484,-2.769529,-9.297980,-24.067444,-30.489344,-25.175621
3.312500,-97.245445,-2.772961,-16.868153,-23.925806,-21.403795,-24.974583
3.318750,-93.181267,-2.776420,-24.020712,-23.789295,-11.084846,-24.772425
3.325000,-87.221870,-2.779775,-30.482737,-23.664234,-0.048810,-24.588266
3.331250,-81.260384,-2.782875,-36.042229,-23.561558,13.329336,-24.433338
3.337500,-75.296944,-2.785484,-40.548492,-23.501291,27.113998,-24.316795
3.343750,-69.332207,-2.787657,-43.908344,-23.514959,41.220497,-24.242371
3.350000,-63.367432,-2.789468,-46.071430,-23.634125,53.661049,-24.200926
3.356250,-57.402420,-2.790921,-48.040634,-23.758169,65.950706,-24.158257
3.362500,-51.438454,-2.792120,-47.054291,-23.973110,77.251747,-24.178524
3.368750,-45.475933,-2.792970,-44.990589,-24.302391,86.611885,-24.265289
3.375000,-39.513664,-2.793308,-41.807411,-24.739016,93.726265,-24.417727
3.381250,-33.552891,-2.793084,-37.556259,-25.262846,98.121284,-24.650364
3.387500,-27.596216,-2.792752,-32.391487,-25.846367,99.625580,-24.908150
3.393750,-21.645193,-2.792825,-26.536661,-26.455364,98.200020,-25.184799
3.400000,-15.698587,-2.793343,-20.252499,-27.050028,93.690239,-25.449327
3.406250,-9.753029,-2.793749,-13.860033,-27.597918,86.488365,-25.732725
3.412500,-3.808066,-2.794082,-7.720651,-28.075542,77.774483,-26.045485
3.418750,2.133342,-2.794896,-1.857135,-28.456783,67.857407,-26.346169
3.425000,8.070113,-2.796631,3.741898,-28.723419,57.644012,-26.616085
3.431250,14.006609,-2.798771,8.808486,-28.866568,48.130596,-26.846111
3.437500,19.946039,-2.800776,13.123447,-28.887802,38.169197,-27.037985
3.443750,25.886150,-2.803084,16.589956,-28.766405,30.137760,-27.167105
3.450000,31.823599,-2.806314,19.178373,-28.510771,22.675722,-27.211786
3.456250,37.761353,-2.810203,20.742739,-28.148741,17.505358,-27.184624
3.462500,43.705746,-2.813839,21.370937,-27.700140,14.242870,-27.090933
3.468750,49.656410,-2.816848,21.114798,-27.225086,12.541177,-26.929335
3.475000,55.608421,-2.819620,20.665249,-26.747484,12.043482,-26.704838
3.481250,61.558895,-2.822520,20.164740,-26.313416,12.348236,-26.431097
3.487500,67.508209,-2.825687,18.233368,-25.895605,13.041714,-26.112123
3.493750,73.457603,-2.829250,17.083231,-25.519690,13.719415,-25.747644
3.500000,79.407112,-2.833153,16.301826,-25.217752,13.960953,-25.347013
3.506250,85.358864,-2.837129,15.822094,-24.998829,13.386648,-24.922356
3.512500,91.314087,-2.840554,15.615365,-24.859362,11.700958,-24.487291
3.518750,95.376526,-2.843611,15.654288,-24.777277,8.688419,-24.050842
3.525000,99.162163,-2.847220,15.919559,-24.707895,4.210476,-23.620825
3.531250,102.137321,-2.851905,16.339725,-24.595514,0.336495,-23.207664
3.537500,103.814415,-2.857203,17.956129,-24.531878,-4.352919,-22.825172
3.543750,103.771744,-2.862285,20.016363,-24.450230,-9.378168,-22.494560
3.550000,101.668251,-2.867224,22.697098,-24.337311,-14.336367,-22.216621
3.556250,97.262276,-2.872513,24.315584,-24.174259,-19.042004,-21.946875
3.562500,90.432846,-2.878266,26.677612,-23.963129,-23.060101,-21.685383
3.568750,81.184967,-2.883735,29.237467,-23.727301,-26.345964,-21.500475
3.575000,69.642273,-2.888168,31.533739,-23.492199,-29.091593,-21.404531
3.581250,56.040108,-2.891413,33.167141,-23.286810,-31.251682,-21.411835
3.587500,40.713825,-2.893951,33.772457,-23.144676,-33.134640,-21.530357
3.593750,24.088688,-2.896089,33.071785,-23.093159,-33.657063,-21.693794
3.600000,6.658545,-2.897479,33.110783,-23.130478,-34.544456,-21.943821
3.606250,-11.041897,-2.897615,32.453400,-23.262056,-35.643299,-22.284521
3.612500,-28.468548,-2.896613,31.385588,-23.498751,-36.980968,-22.700169
3.618750,-45.093269,-2.894997,30.310698,-23.835608,-38.636803,-23.157701
3.625000,-60.424706,-2.892840,29.555845,-24.288778,-40.785019,-23.654194
3.631250,-74.033516,-2.889875,29.395870,-24.848385,-41.597271,-24.189037
3.637500,-85.580154,-2.886280,28.348228,-25.480305,-42.398808,-24.726801
3.643750,-94.831848,-2.882717,28.258768,-26.146578,-42.769455,-25.240519
3.650000,-101.667984,-2.879703,28.666565,-26.807163,-42.437241,-25.708002
3.656250,-106.086037,-2.877299,29.047787,-27.413317,-41.217911,-26.109428
3.662500,-108.205322,-2.875411,28.829008,-27.903267,-38.985744,-26.428236
3.668750,-108.262688,-2.874322,29.441956,-28.294958,-35.707119,-26.658733
3.675000,-106.598000,-2.874055,28.731764,-28.565981,-31.458403,-26.804634
3.681250,-103.636116,-2.874371,26.939203,-28.690113,-26.374825,-26.868025
3.687500,-99.868660,-2.875169,24.076063,-28.661697,-20.642984,-26.850969
3.693750,-95.830055,-2.877000,20.173883,-28.492693,-14.520604,-26.760273
3.700000,-89.899239,-2.880188,15.319814,-28.217022,-8.311712,-26.609604
3.706250,-83.966057,-2.884067,9.688979,-27.867804,-2.311352,-26.414070
3.712500,-78.026688,-2.887909,3.798264,-27.425106,3.249320,-26.178526
3.718750,-72.083374,-2.891860,-4.110294,-26.949757,8.204526,-25.903728
3.725000,-66.140366,-2.896388,-12.224246,-26.484303,12.365232,-25.592749
3.731250,-60.196838,-2.901337,-20.687550,-26.055771,15.704807,-25.262646
3.737500,-54.248745,-2.906067,-27.505816,-25.704536,18.567442,-24.972149
3.743750,-48.295525,-2.910274,-34.206558,-25.455460,21.043293,-24.731049
3.750000,-42.341312,-2.914239,-40.269951,-25.305334,23.354301,-24.547523
3.756250,-36.387299,-2.917979,-45.272778,-25.245773,24.170588,-24.374861
3.762500,-30.433197,-2.921360,-48.930218,-25.265324,25.587210,-24.204952
3.768750,-24.478987,-2.924492,-50.994411,-25.336899,27.402071,-24.036547
3.775000,-18.526722,-2.927667,-51.292168,-25.431610,27.991486,-23.944004
3.781250,-12.576056,-2.930880,-49.848339,-25.546392,28.573698,-23.892653
3.787500,-6.624560,-2.933719,-46.750469,-25.666983,28.737652,-23.865873
3.793750,-0.673340,-2.936294,-43.849022,-25.773281,28.251053,-23.857588
3.800000,5.275810,-2.938992,-39.650230,-25.865026,26.959192,-23.866245
3.806250,11.222130,-2.942040,-34.810062,-25.889999,24.825830,-23.874723
3.812500,17.168011,-2.945274,-29.739794,-25.830595,21.950449,-23.855240
3.818750,23.113808,-2.948744,-23.336538,-25.714645,18.306898,-23.811695
3.825000,29.058670,-2.952601,-17.544132,-25.558477,13.943416,-23.746622
3.831250,35.004944,-2.956672,-12.284751,-25.375948,9.089151,-23.663544
3.837500,40.953953,-2.960410,-7.420956,-25.181471,4.078594,-23.568964
3.843750,46.904774,-2.964065,-2.765280,-24.989107,-0.729592,-23.481440
3.850000,52.854813,-2.967976,1.940139,-24.800243,-4.905187,-23.382923
3.856250,58.803997,-2.972126,5.083319,-24.614969,-9.687379,-23.248957
3.862500,64.755554,-2.975892,8.463409,-24.443356,-13.373610,-23.108332
3.868750,70.708763,-2.979330,11.743813,-24.288101,-16.179981,-22.972021
3.875000,76.658485,-2.983335,14.638464,-24.142027,-18.254763,-22.842379
3.881250,82.603584,-2.988515,16.893694,-23.979006,-19.767221,-22.712837
3.887500,88.549721,-2.994233,18.249037,-23.776955,-20.934631,-22.574457
3.893750,94.501686,-2.999534,18.132729,-23.579279,-22.060278,-22.428865
3.900000,98.562920,-3.004542,18.584366,-23.357306,-23.504545,-22.281582
3.906250,102.348885,-3.010266,18.167580,-23.097250,-25.557917,-22.131393
3.912500,105.326027,-3.017140,17.186794,-22.795748,-28.510990,-21.974953
3.918750,107.007965,-3.024773,15.934391,-22.453007,-32.658154,-21.806326
3.925000,106.971375,-3.032508,14.640312,-22.078867,-38.292297,-21.615217
3.931250,104.877098,-3.039952,13.468689,-21.692097,-43.795765,-21.390497
3.937500,100.486519,-3.047054,12.559253,-21.313654,-49.035065,-21.185217
3.943750,93.676437,-3.053925,12.058481,-20.964725,-55.109577,-21.009586
3.950000,84.447929,-3.060272,12.066594,-20.665249,-60.975235,-20.867390
3.956250,72.923767,-3.065408,12.608592,-20.433794,-67.697083,-20.769247
3.962500,59.340538,-3.068956,13.646888,-20.284962,-72.931488,-20.727064
3.968750,44.035393,-3.071105,15.123781,-20.226786,-76.587097,-20.751162
3.975000,27.432087,-3.072044,17.232252,-20.255062,-78.666069,-20.850771
3.981250,10.020956,-3.071869,20.141115,-20.345509,-79.261162,-21.043541
3.987500,-7.665313,-3.070549,23.615406,-20.534021,-78.545517,-21.309526
3.993750,-25.081989,-3.068220,27.130280,-20.820942,-76.418770,-21.635668
4.000000,-41.697926,-3.065085,30.848854,-21.173700,-73.598915,-22.050549
4.006250,-57.021255,-3.061188,34.464287,-21.583538,-70.319229,-22.559181
4.012500,-70.626076,-3.056594,37.710926,-22.037699,-66.845032,-23.170813
4.018750,-82.173340,-3.051888,40.404945,-22.516205,-63.512295,-23.849876
4.025000,-91.427895,-3.047661,42.396088,-22.995506,-61.316563,-24.497627
4.031250,-98.266716,-3.043956,41.628082,-23.462456,-60.151787,-25.149727
4.037500,-102.686867,-3.040598,41.723316,-23.909908,-56.802986,-25.826994
4.043750,-104.810173,-3.037952,40.764244,-24.321327,-54.564686,-26.492487
4.050000,-104.873474,-3.036374,38.785370,-24.686369,-52.849865,-27.119719
4.056250,-103.214493,-3.035468,35.851681,-25.001265,-51.135639,-27.689514
4.062500,-100.257057,-3.034535,32.136578,-25.252279,-50.791595,-28.184565
4.068750,-96.495911,-3.033831,27.936895,-25.422911,-49.640083,-28.579451
4.075000,-92.468666,-3.034665,23.450247,-25.523195,-47.696346,-28.856617
4.081250,-86.552315,-3.037202,18.942413,-25.563450,-45.079414,-29.011482
4.087500,-80.633324,-3.040392,14.804126,-25.549772,-41.868702,-29.041225
4.093750,-74.705681,-3.043015,9.571259,-25.484652,-38.090294,-28.943167
4.100000,-68.775291,-3.045478,5.288281,-25.373346,-33.756683,-28.721556
4.106250,-62.848885,-3.048711,1.826846,-25.220724,-28.883617,-28.391127
4.112500,-56.926327,-3.052965,-0.914058,-25.031208,-25.636169,-27.981611
4.118750,-51.002274,-3.057858,-3.022470,-24.803312,-22.554523,-27.470667
4.125000,-45.074642,-3.063156,-4.642972,-24.542429,-19.939966,-26.874800
4.131250,-39.144730,-3.068881,-5.973770,-24.260437,-18.471720,-26.235487
4.137500,-33.211811,-3.074990,-7.167544,-23.967424,-16.312542,-25.583998
4.143750,-27.274054,-3.081168,-8.322155,-23.668989,-14.995673,-24.943663
4.150000,-21.332020,-3.087271,-9.528468,-23.368834,-14.106675,-24.332890
4.156250,-15.387833,-3.093586,-8.714740,-23.070164,-13.211469,-23.762470
4.162500,-9.441985,-3.100290,-7.338078,-22.774628,-11.878789,-23.224470
4.168750,-3.493297,-3.107270,-6.892920,-22.485588,-9.754066,-22.771450
4.175000,2.458890,-3.114425,-5.410284,-22.196323,-6.900986,-22.391735
4.181250,8.415318,-3.121622,-3.148574,-21.914204,-4.403734,-22.075399
4.187500,14.376325,-3.128590,-0.500890,-21.653265,-0.739687,-21.826084
4.193750,20.342615,-3.135254,2.210611,-21.422777,3.683201,-21.617762
4.200000,26.313051,-3.141487,4.670172,-21.230808,8.499167,-21.454872
4.206250,32.286560,-3.147015,6.567330,-21.085043,14.071525,-21.406178
4.212500,38.263172,-3.151563,9.790901,-20.992241,19.555838,-21.465466
4.218750,44.241215,-3.155201,12.770572,-20.949570,24.176752,-21.531946
4.225000,50.217506,-3.158317,15.854800,-20.946756,27.304878,-21.628939
4.231250,56.189571,-3.161138,17.438450,-20.974415,29.084787,-21.765169
4.237500,62.159153,-3.163712,19.379395,-21.019756,29.269371,-21.929911
4.243750,68.126663,-3.165838,21.301722,-21.083298,29.788546,-22.108641
4.250000,74.093147,-3.167555,22.740788,-21.173668,29.034710,-22.297003
4.256250,80.057716,-3.168696,23.389229,-21.274315,27.328432,-22.487913
4.262500,86.018394,-3.169593,22.937748,-21.367683,25.093313,-22.666981
4.268750,91.973251,-3.170689,21.045315,-21.438713,22.731596,-22.816732
4.275000,96.025688,-3.172664,19.584581,-21.478800,20.600098,-22.923096
4.281250,99.800636,-3.175458,16.930317,-21.480068,19.015413,-22.973915
4.287500,102.769554,-3.178630,13.368119,-21.432699,18.258175,-22.952894
4.293750,104.440247,-3.182541,9.157454,-21.332335,18.513283,-22.835606
4.300000,104.383232,-3.187784,4.502116,-21.188251,19.735229,-22.660940
4.306250,102.261192,-3.194048,-0.359421,-21.005598,21.681749,-22.441118
4.312500,97.844124,-3.200275,-5.157856,-20.788866,24.487165,-22.171072
4.318750,91.011589,-3.205946,-9.671022,-20.544769,27.995960,-21.856503
4.325000,81.756737,-3.211825,-13.730405,-20.285624,31.957998,-21.510763
4.331250,70.197983,-3.218585,-17.225954,-20.027697,36.074860,-21.151489
4.337500,56.577511,-3.225659,-20.069237,-19.788267,40.049870,-20.794472
4.343750,41.241695,-3.232083,-22.219633,-19.595093,43.592102,-20.451038
4.350000,24.616373,-3.237564,-21.508289,-19.458946,46.437714,-20.108934
4.356250,7.190326,-3.242331,-20.709232,-19.335445,48.222206,-19.831690
4.362500,-10.505243,-3.246058,-18.423944,-19.297148,50.672886,-19.636673
4.368750,-27.922739,-3.248527,-14.685002,-19.355301,52.449562,-19.540577
4.375000,-44.533791,-3.250014,-9.588221,-19.509966,53.936138,-19.584385
4.381250,-59.849461,-3.250852,-3.343975,-19.754089,55.516018,-19.727629
4.387500,-73.441643,-3.250713,3.777056,-20.072138,56.778923,-19.927336
4.393750,-84.966843,-3.249291,11.437519,-20.444735,58.876820,-20.170326
4.400000,-94.193901,-3.247175,19.230673,-20.855913,60.082119,-20.539185
4.406250,-101.004883,-3.245063,24.836514,-21.293171,62.144047,-20.995028
4.412500,-105.397102,-3.242693,31.659931,-21.740580,64.410233,-21.503750
4.418750,-107.489761,-3.239569,37.501991,-22.179611,66.610542,-22.040213
4.425000,-107.521431,-3.236177,42.115063,-22.593502,68.540642,-22.581888
4.431250,-105.837700,-3.233238,45.395119,-22.941469,70.088760,-23.089056
4.437500,-102.864265,-3.230853,47.308296,-23.207211,71.220772,-23.527159
4.443750,-99.089333,-3.228615,47.778919,-23.394260,71.787704,-23.882999
4.450000,-95.046356,-3.226986,46.954567,-23.502871,71.769867,-24.144167
4.456250,-89.117157,-3.226930,45.119385,-23.531029,71.275757,-24.299889
4.462500,-83.193436,-3.228366,42.642555,-23.479763,70.449493,-24.344414
4.468750,-77.267654,-3.230496,38.081604,-23.354801,69.477592,-24.277399
4.475000,-71.337746,-3.232996,33.557388,-23.171228,68.580383,-24.111132
4.481250,-65.407539,-3.236340,29.065569,-22.943312,68.027245,-23.859325
4.487500,-59.477173,-3.240591,24.713955,-22.667124,66.384811,-23.498672
4.493750,-53.543472,-3.245134,20.528257,-22.364424,65.477081,-23.066755
4.500000,-47.606888,-3.250296,16.464933,-22.061903,64.882187,-22.600384
4.506250,-41.670238,-3.256827,12.597745,-21.777813,64.353943,-22.127930
4.512500,-35.730793,-3.264349,9.042967,-21.520842,63.683765,-21.671318
4.518750,-29.780426,-3.271577,5.909886,-21.289194,62.665985,-21.248339
4.525000,-23.817612,-3.277551,3.284495,-21.060148,61.089256,-20.873552
4.531250,-17.849010,-3.282926,1.195935,-20.820652,58.711155,-20.575821
4.537500,-11.881925,-3.288612,1.091459,-20.663057,55.176220,-20.372187
4.543750,-5.913785,-3.294489,0.105533,-20.548191,51.739918,-20.220619
4.550000,0.060469,-3.299785,0.375817,-20.448277,46.926846,-20.142197
4.556250,6.041693,-3.304033,1.528473,-20.379486,41.131069,-20.109617
4.562500,12.026640,-3.307498,3.111038,-20.363098,34.620045,-20.165232
4.568750,18.013367,-3.310395,4.763587,-20.421377,28.602549,-20.353416
4.575000,24.000696,-3.312611,6.148701,-20.581066,22.722357,-20.735615
4.581250,29.991186,-3.313833,6.969288,-20.909645,17.271154,-21.101315
4.587500,35.983673,-3.313770,9.271937,-21.287004,12.110467,-21.545790
4.593750,41.975506,-3.312524,10.057396,-21.763908,8.189286,-22.079727
4.600000,47.964233,-3.310391,10.685366,-22.356226,5.561308,-22.690420
4.606250,53.948006,-3.307527,11.080338,-23.059755,4.179139,-23.357304
4.612500,59.926689,-3.303915,11.119729,-23.877813,3.870969,-24.098795
4.618750,65.898842,-3.299936,10.793112,-24.768995,4.335687,-24.844818
4.625000,71.861519,-3.296324,10.140628,-25.704317,5.437845,-25.591726
4.631250,77.816345,-3.293100,9.063324,-26.657072,6.859714,-26.317822
4.637500,83.768364,-3.289391,7.576449,-27.592754,8.254586,-27.008604
4.643750,89.718201,-3.284869,3.861635,-28.469467,9.258636,-27.645025
4.650000,95.659081,-3.280664,1.814808,-29.240812,9.468146,-28.184145
4.656250,99.689873,-3.278293,-0.350060,-29.858593,8.488269,-28.589106
4.662500,103.435524,-3.277920,-2.552977,-30.283543,6.042801,-28.842970
4.668750,106.372360,-3.278924,-4.825554,-30.510317,3.792592,-28.977859
4.675000,108.011551,-3.281114,-7.148119,-30.526585,0.067796,-28.980974
4.681250,107.925453,-3.284706,-9.400593,-30.323759,-4.777491,-28.842461
4.687500,105.774490,-3.289428,-11.555076,-29.911291,-10.494052,-28.565168
4.693750,101.323502,-3.295214,-13.643028,-29.317499,-16.840002,-28.161833
4.700000,94.449722,-3.302352,-15.707586,-28.585907,-23.519327,-27.646502
4.706250,85.152504,-3.311449,-17.837776,-27.767666,-30.196707,-27.032347
4.712500,73.559273,-3.321715,-20.378588,-26.851194,-36.515804,-26.320406
4.718750,59.915043,-3.331568,-23.434401,-25.891584,-42.056377,-25.539545
