Anritsu VNA Frequency[GHz],S21[deg],S21[dB],S11[deg],S11[dB],S22[deg],S22[dB]
1338114187.25,2012_05_27_11:23:07,+40.731,+10.279,+55.227,+10.296,+13.919,+13.730,+14.024,+13.775,10.386198,-15.721
3.006250,34.272133,-1.756537,59.491589,-26.669069,-79.900940,-27.433104
3.012500,34.272133,-1.756537,59.491589,-26.669069,-79.900940,-27.433104
3.018750,34.272133,-1.756537,59.491589,-26.669069,-79.900940,-27.433104
3.025000,34.272133,-1.756537,59.491589,-26.669069,-79.900940,-27.433104
3.031250,34.272133,-1.756537,59.491589,-26.669069,-79.900940,-27.433104
3.037500,34.272133,-1.756537,59.491589,-26.669069,-79.900940,-27.433104
3.043750,34.272133,-1.756537,59.491589,-26.669069,-79.900940,-27.433104
3.050000,34.272133,-1.756537,59.491589,-26.669069,-79.900940,-27.433104
3.056250,34.272133,-1.756537,59.491589,-26.669069,-79.900940,-27.433104
3.062500,34.272133,-1.756537,59.491589,-26.669069,-79.900940,-27.433104
3.068750,34.272133,-1.756537,59.491589,-26.669069,-79.900940,-27.433104
3.075000,34.272133,-1.756537,59.491589,-26.669069,-79.900940,-27.433104
3.081250,34.272133,-1.756537,59.491589,-26.669069,-79.900940,-27.433104
3.087500,34.272133,-1.756537,59.491589,-26.669069,-79.900940,-27.433104
3.093750,34.272133,-1.758154,59.491589,-26.466873,-79.900940,-27.183506
3.100000,40.178539,-1.760067,56.805534,-26.314014,-81.913254,-26.951550
3.106250,46.084999,-1.761993,53.236324,-26.232370,-82.305687,-26.739004
3.112500,51.992176,-1.763948,49.146301,-26.242197,-80.727394,-26.517706
3.118750,57.898453,-1.766103,43.134235,-26.284716,-79.019913,-26.218515
3.125000,63.803860,-1.768404,38.331379,-26.327435,-74.966278,-25.958080
3.131250,69.708740,-1.770795,33.935696,-26.397522,-68.805878,-25.670666
3.137500,75.612686,-1.773540,30.212778,-26.495672,-60.923359,-25.346939
3.143750,81.515343,-1.776854,27.369993,-26.613773,-51.502213,-24.994946
3.150000,87.418869,-1.780473,25.588305,-26.737228,-40.699501,-24.626972
3.156250,93.325684,-1.783908,24.985771,-26.851780,-28.689512,-24.261402
3.162500,97.340065,-1.787080,25.630192,-26.943756,-15.672005,-23.922033
3.168750,101.081413,-1.790374,27.538326,-27.006311,-3.753036,-23.656437
3.175000,104.016113,-1.794001,30.754072,-27.017176,8.530794,-23.412111
3.181250,105.653931,-1.797673,33.519260,-26.963663,21.050173,-23.189781
3.187500,105.569496,-1.801213,37.302498,-26.862926,32.531551,-23.021246
3.193750,103.421486,-1.804505,41.396904,-26.727335,42.542881,-22.922884
3.200000,98.972473,-1.807508,45.232349,-26.564713,50.756222,-22.897820
3.206250,92.100327,-1.810121,48.325645,-26.385714,56.890343,-22.946718
3.212500,82.803642,-1.812608,50.260235,-26.204042,60.746384,-23.077015
3.218750,71.202713,-1.815259,50.722076,-26.029543,62.220673,-23.271858
3.225000,57.535767,-1.817799,51.712463,-25.856632,61.066067,-23.476009
3.231250,42.145821,-1.819802,51.767998,-25.685257,57.564926,-23.698183
3.237500,25.458187,-1.821532,49.399044,-25.515556,53.827755,-23.930210
3.243750,7.961051,-1.823518,46.718369,-25.325056,48.359684,-24.149271
3.250000,-9.813184,-1.826077,43.594311,-25.152716,41.829048,-24.336086
3.256250,-27.314022,-1.828757,39.667099,-25.012730,34.828339,-24.490055
3.262500,-44.006397,-1.831085,35.177723,-24.887835,28.004965,-24.599489
3.268750,-59.399582,-1.833057,30.066671,-24.774000,22.039198,-24.656115
3.275000,-73.069702,-1.835128,24.212320,-24.670351,17.477489,-24.659317
3.281250,-84.677086,-1.837562,17.505507,-24.567638,14.757932,-24.616480
3.287500,-93.982620,-1.840325,9.853292,-24.453268,14.177506,-24.541443
3.293750,-100.862274,-1.843169,1.222104,-24.289192,15.890362,-24.435268
3.300000,-105.315765,-1.845888,-6.210669,-24.119942,19.938852,-24.298595
3.306250,-107.464294,-1.848328,-14.877145,-23.983950,26.181986,-24.157789
3.312500,-107.545357,-1.850527,-23.539890,-23.861807,34.317650,-24.044359
3.318750,-105.900864,-1.852577,-31.916157,-23.760633,43.965843,-23.979202
3.325000,-102.957954,-1.854442,-39.740822,-23.698805,54.677589,-23.973154
3.331250,-99.207993,-1.855965,-46.759148,-23.701805,65.934975,-24.029066
3.337500,-95.184319,-1.857117,-52.780766,-23.839205,77.158295,-24.145464
3.343750,-89.265404,-1.857929,-57.862457,-23.998720,87.769302,-24.308096
3.350000,-83.347046,-1.858383,-62.302570,-24.222229,97.522362,-24.462328
3.356250,-77.429420,-1.858469,-65.752235,-24.551195,106.130066,-24.659225
3.362500,-71.513756,-1.858509,-66.497948,-25.006630,112.393143,-24.908276
3.368750,-65.599930,-1.858294,-66.180733,-25.569542,116.432343,-25.197855
3.375000,-59.686768,-1.857512,-64.673882,-26.212570,117.853455,-25.573536
3.381250,-53.775520,-1.856344,-61.990246,-26.901199,116.470589,-25.909868
3.387500,-47.870316,-1.855572,-58.220940,-27.596485,112.941757,-26.233456
3.393750,-41.971535,-1.855590,-53.527325,-28.253601,106.693283,-26.538080
3.400000,-36.075214,-1.856012,-48.124695,-28.829983,98.288063,-26.814959
3.406250,-30.177450,-1.856237,-42.347427,-29.303631,88.727699,-27.096056
3.412500,-24.280216,-1.856643,-36.519550,-29.649591,78.679108,-27.346445
3.418750,-18.387638,-1.857874,-28.704847,-29.846060,66.784492,-27.544945
3.425000,-12.498157,-1.860119,-22.446678,-29.888628,55.333675,-27.685698
3.431250,-6.605592,-1.862505,-15.891455,-29.792620,44.759415,-27.773956
3.437500,-0.708756,-1.864768,-9.293634,-29.542418,35.516880,-27.814091
3.443750,5.187574,-1.867674,-2.677093,-29.136003,28.287994,-27.753767
3.450000,11.082638,-1.871532,3.439981,-28.619736,21.360104,-27.622269
3.456250,16.981714,-1.875589,8.892780,-28.032343,16.507851,-27.433064
3.462500,22.889616,-1.879020,13.675294,-27.418020,13.438698,-27.188492
3.468750,28.802505,-1.881836,17.867964,-26.823065,11.839112,-26.885859
3.475000,34.715771,-1.884391,21.579239,-26.314018,11.360186,-26.540165
3.481250,40.628464,-1.886855,25.070000,-25.841949,11.606134,-26.167030
3.487500,46.540428,-1.889345,27.064856,-25.438700,12.211607,-25.760836
3.493750,52.450863,-1.892257,28.952486,-25.140226,12.741393,-25.329262
3.500000,58.360622,-1.895592,30.558950,-24.951811,12.760845,-24.884163
3.506250,64.273033,-1.898745,31.779560,-24.858381,11.938299,-24.435835
3.512500,70.189873,-1.901029,32.522808,-24.825777,10.000507,-23.993706
3.518750,76.106834,-1.903109,32.753082,-24.757885,6.745684,-23.562672
3.525000,82.017448,-1.906068,32.687447,-24.745113,2.018324,-23.149055
3.531250,87.923515,-1.910103,32.815701,-24.734180,-2.156276,-22.767464
3.537500,93.831970,-1.914421,32.825993,-24.689991,-7.238217,-22.433790
3.543750,97.851349,-1.918401,32.966599,-24.603224,-12.799818,-22.144203
3.550000,101.600067,-1.922546,33.574921,-24.446787,-18.562620,-21.862894
3.556250,104.542419,-1.927390,33.092175,-24.222275,-24.049486,-21.535759
3.562500,106.189468,-1.932540,33.222530,-23.959538,-28.952423,-21.293600
3.568750,106.120445,-1.936886,33.625893,-23.684631,-32.088150,-21.123007
3.575000,103.994812,-1.939861,34.024265,-23.424520,-34.443275,-21.023846
3.581250,99.570305,-1.941769,34.136578,-23.213930,-35.749802,-21.011150
3.587500,92.719986,-1.943279,33.701557,-23.089008,-36.030216,-21.043629
3.593750,83.444313,-1.944331,32.611439,-23.038870,-35.156319,-21.143976
3.600000,71.868454,-1.944426,30.809361,-23.075432,-32.971737,-21.327137
3.606250,58.230400,-1.943102,30.143621,-23.213013,-29.634281,-21.586910
3.612500,42.865116,-1.940924,29.155489,-23.436525,-25.421717,-21.897457
3.618750,26.196510,-1.938368,28.255741,-23.763359,-20.729870,-22.232979
3.625000,8.718865,-1.935150,27.557808,-24.205130,-16.337473,-22.635807
3.631250,-9.034296,-1.931056,27.670952,-24.723824,-10.451742,-23.068771
3.637500,-26.519363,-1.926574,28.895741,-25.284306,-4.791632,-23.503475
3.643750,-43.208321,-1.922442,31.371410,-25.849174,0.619967,-23.919611
3.650000,-58.607487,-1.918949,33.236958,-26.373608,5.697836,-24.300484
3.656250,-72.287079,-1.916048,36.051056,-26.781786,10.347740,-24.629152
3.662500,-83.904839,-1.913814,38.984756,-27.120754,14.476574,-24.900787
3.668750,-93.223602,-1.912496,42.967285,-27.367563,17.944210,-25.121962
3.675000,-100.119774,-1.911730,46.316128,-27.494286,20.667526,-25.291187
3.681250,-104.590591,-1.911119,48.760841,-27.498259,22.588417,-25.407217
3.687500,-106.759445,-1.910947,50.058285,-27.392378,23.631161,-25.472763
3.693750,-106.866920,-1.912028,50.060398,-27.202869,23.743799,-25.497334
3.700000,-105.251686,-1.914218,48.772633,-26.935081,22.931896,-25.491993
3.706250,-102.334290,-1.916582,46.349041,-26.606987,21.326019,-25.449051
3.712500,-98.605202,-1.918712,42.773746,-26.257601,19.148813,-25.362272
3.718750,-94.602348,-1.921169,36.343006,-25.913866,16.547297,-25.236963
3.725000,-88.706375,-1.924293,28.979584,-25.592299,13.850787,-25.089058
3.731250,-82.808144,-1.927440,20.412693,-25.337656,11.667246,-24.956446
3.737500,-76.905136,-1.930167,12.581371,-25.172089,10.410132,-24.851921
3.743750,-71.000069,-1.932610,4.236817,-25.082195,10.489535,-24.797827
3.750000,-65.096001,-1.935170,-4.069420,-25.055748,10.496637,-24.709166
3.756250,-59.193024,-1.937692,-11.940563,-25.088741,10.419332,-24.605993
3.762500,-53.289276,-1.940034,-18.956156,-25.159960,11.580361,-24.488041
3.768750,-47.385498,-1.942369,-24.674425,-25.232916,13.722863,-24.404999
3.775000,-41.483559,-1.945061,-28.862663,-25.319460,16.387877,-24.345654
3.781250,-35.581844,-1.947824,-31.418919,-25.406685,18.973108,-24.294001
3.787500,-29.678715,-1.950391,-31.986578,-25.473776,21.115145,-24.242830
3.793750,-23.775587,-1.953002,-30.475075,-25.537075,22.508142,-24.195755
3.800000,-17.874344,-1.956067,-28.818966,-25.538288,22.956728,-24.145033
3.806250,-11.973871,-1.959445,-24.650442,-25.453070,22.473286,-24.055027
3.812500,-6.071733,-1.963027,-19.500990,-25.321003,20.927250,-23.933098
3.818750,-0.169074,-1.966997,-13.908337,-25.159307,18.203764,-23.790071
3.825000,5.734245,-1.971316,-8.410284,-24.982260,14.435492,-23.632994
3.831250,11.641603,-1.975327,-1.354349,-24.804129,9.884801,-23.472458
3.837500,17.553083,-1.978756,5.442546,-24.638948,4.879468,-23.345381
3.843750,23.464012,-1.982292,12.135932,-24.482271,-0.240245,-23.206818
3.850000,29.372042,-1.986311,17.039148,-24.327808,-6.164172,-23.038778
3.856250,35.280991,-1.990192,21.828852,-24.185179,-11.699483,-22.880573
3.862500,41.194260,-1.993310,26.084417,-24.052477,-16.826942,-22.740877
3.868750,47.106731,-1.996269,29.476017,-23.916695,-21.525280,-22.617222
3.875000,53.012375,-2.000279,31.684368,-23.755795,-25.819420,-22.498436
3.881250,58.913616,-2.005497,32.354610,-23.575319,-29.779335,-22.368599
3.887500,64.818436,-2.010841,31.091648,-23.377525,-33.587200,-22.232723
3.893750,70.729630,-2.015727,27.825552,-23.144461,-37.503422,-22.096075
3.900000,76.642380,-2.020849,24.631666,-22.866243,-41.657951,-21.950695
3.906250,82.551918,-2.026991,20.060514,-22.542393,-44.352844,-21.794855
3.912500,88.461334,-2.034145,14.581260,-22.174231,-47.455978,-21.624176
3.918750,94.377289,-2.041696,8.659949,-21.769970,-50.680244,-21.425352
3.925000,98.407219,-2.049053,2.662643,-21.356682,-53.781731,-21.171717
3.931250,102.172165,-2.056028,-3.066877,-20.959898,-56.820248,-20.952366
3.937500,105.138138,-2.062550,-8.099669,-20.599859,-57.604084,-20.763720
3.943750,106.812599,-2.068406,-12.109569,-20.299572,-57.206928,-20.613977
3.950000,106.769470,-2.073170,-14.878200,-20.081287,-55.164421,-20.516748
3.956250,104.667854,-2.076234,-16.280685,-19.962925,-51.119919,-20.487696
3.962500,100.267990,-2.077581,-16.257494,-19.954470,-44.825268,-20.538679
3.968750,93.443970,-2.077486,-14.808094,-20.053131,-36.142223,-20.678623
3.975000,84.193497,-2.076080,-13.880413,-20.224030,-25.076752,-20.917398
3.981250,72.637146,-2.073373,-9.776017,-20.518602,-11.795453,-21.284500
3.987500,59.010597,-2.069541,-5.428896,-20.920269,2.111568,-21.692867
3.993750,43.651955,-2.064905,-0.144817,-21.384424,17.272184,-22.204346
4.000000,26.987556,-2.059610,5.434816,-21.907236,32.898273,-22.825596
4.006250,9.510325,-2.053662,10.954026,-22.472067,48.125126,-23.590069
4.012500,-8.249640,-2.047521,16.145332,-23.051147,61.878471,-24.351709
4.018750,-25.748610,-2.042078,20.758844,-23.611759,74.843727,-25.088690
4.025000,-42.452446,-2.037571,24.507442,-24.138548,85.069290,-25.836178
4.031250,-57.864243,-2.033524,29.253330,-24.622032,93.462395,-26.598396
4.037500,-71.554970,-2.030031,31.632402,-25.041531,99.147675,-27.321386
4.043750,-83.187370,-2.027800,33.685291,-25.384552,102.410912,-27.975086
4.050000,-92.522522,-2.026937,35.266136,-25.651041,103.648903,-28.542458
4.056250,-99.432419,-2.026479,36.305271,-25.831734,103.388710,-29.013483
4.062500,-103.914391,-2.025743,36.880363,-25.908890,100.430603,-29.355099
4.068750,-106.096619,-2.025778,36.935329,-25.899912,97.173508,-29.553350
4.075000,-106.221237,-2.027758,36.489307,-25.821705,93.676918,-29.615578
4.081250,-104.622040,-2.031083,35.722210,-25.687876,90.168983,-29.545963
4.087500,-101.716309,-2.034211,34.888706,-25.507195,84.809624,-29.345776
4.093750,-97.996254,-2.036716,34.292309,-25.288727,79.324402,-29.020824
4.100000,-94.003670,-2.039464,32.353199,-25.046661,73.571701,-28.592579
4.106250,-88.120461,-2.043108,31.065786,-24.785688,67.451843,-28.099876
4.112500,-82.237755,-2.047288,30.332397,-24.497637,61.048149,-27.500158
4.118750,-76.351799,-2.051793,29.895910,-24.198433,54.536407,-26.829943
4.125000,-70.464401,-2.056903,29.462032,-23.903219,47.646271,-26.130203
4.131250,-64.575722,-2.062621,28.865507,-23.621027,40.531990,-25.431200
4.137500,-58.682594,-2.068445,27.990761,-23.355125,33.389992,-24.756247
4.143750,-52.783356,-2.073925,26.750057,-23.104401,26.436274,-24.123386
4.150000,-46.881031,-2.079363,25.060452,-22.868067,19.861050,-23.545374
4.156250,-40.978661,-2.085194,25.016665,-22.642179,13.838379,-23.023512
4.162500,-35.074726,-2.091332,25.208864,-22.416334,8.518098,-22.569395
4.168750,-29.167416,-2.097558,24.224205,-22.179081,5.584779,-22.186827
4.175000,-23.256174,-2.103852,23.921959,-21.949945,2.502718,-21.873339
4.181250,-17.340858,-2.110043,24.105534,-21.733284,0.973429,-21.622444
4.187500,-11.420929,-2.115851,24.579020,-21.534079,0.877032,-21.371660
4.193750,-5.496353,-2.121266,25.118275,-21.358534,2.271460,-21.233210
4.200000,0.432211,-2.126090,25.492687,-21.214441,3.240368,-21.178667
4.206250,6.364205,-2.129962,25.487953,-21.109276,4.463107,-21.186373
4.212500,12.298817,-2.132738,24.940636,-21.039888,6.968122,-21.212061
4.218750,18.232517,-2.134754,25.911758,-20.995535,8.522492,-21.260912
4.225000,24.162626,-2.136533,24.992945,-20.972141,9.122471,-21.333490
4.231250,30.088711,-2.138188,24.163090,-20.958298,8.621376,-21.415422
4.237500,36.012363,-2.139597,23.215435,-20.953585,6.850273,-21.484529
4.243750,41.934013,-2.140795,21.813206,-20.974672,5.726615,-21.549904
4.250000,47.854168,-2.141665,19.798975,-21.006260,3.631557,-21.610880
4.256250,53.772495,-2.142126,17.026360,-21.030979,1.087343,-21.651297
4.262500,59.686440,-2.142617,13.263178,-21.034163,-1.492708,-21.660059
4.268750,65.593300,-2.143939,8.313231,-21.005219,-3.752633,-21.626638
4.275000,71.493500,-2.146421,1.994931,-20.936735,-5.379595,-21.544397
4.281250,77.392853,-2.149533,-3.685815,-20.816538,-6.102919,-21.400652
4.287500,83.294403,-2.153065,-10.257408,-20.641764,-5.723828,-21.166300
4.293750,89.195412,-2.157737,-17.464159,-20.435272,-4.336594,-20.912193
4.300000,95.095490,-2.163790,-24.934654,-20.198711,-2.220053,-20.640491
4.306250,99.107574,-2.170032,-32.224609,-19.935499,0.826378,-20.348593
4.312500,102.858032,-2.175401,-39.018810,-19.656288,4.593208,-20.046074
4.318750,105.809624,-2.180290,-45.046249,-19.375729,8.815773,-19.746479
4.325000,107.462402,-2.185711,-50.105309,-19.114922,13.189917,-19.467440
4.331250,107.391205,-2.191510,-54.050541,-18.896841,17.405123,-19.223555
4.337500,105.262390,-2.196622,-56.783546,-18.768208,21.188459,-19.017725
4.343750,100.839821,-2.200560,-58.324154,-18.642897,24.318478,-18.793741
4.350000,93.997681,-2.203606,-57.676884,-18.588047,26.323961,-18.673368
4.356250,84.733490,-2.205563,-55.730751,-18.640017,28.870869,-18.638063
4.362500,73.169960,-2.205949,-52.287777,-18.798038,30.715136,-18.698606
4.368750,59.540943,-2.205144,-47.435966,-19.054243,32.212494,-18.881081
4.375000,44.181332,-2.203931,-41.378559,-19.395687,33.611801,-19.126360
4.381250,27.518286,-2.202299,-34.389038,-19.800846,34.963627,-19.416269
4.387500,10.048483,-2.199496,-26.790615,-20.243376,37.068546,-19.756979
4.393750,-7.697225,-2.195882,-18.997213,-20.706957,38.254009,-20.177603
4.400000,-25.179314,-2.192576,-11.464717,-21.178722,40.080666,-20.653467
4.406250,-41.864788,-2.189734,-2.397574,-21.640879,42.130856,-21.157974
4.412500,-57.255695,-2.186567,4.621323,-22.080046,44.112926,-21.672869
4.418750,-70.923798,-2.183111,11.435817,-22.490412,45.811218,-22.184328
4.425000,-82.534073,-2.180337,17.875080,-22.810452,47.142029,-22.645016
4.431250,-91.850311,-2.178612,23.766554,-23.039522,48.117981,-23.026815
4.437500,-98.745056,-2.177269,28.720922,-23.189720,48.507652,-23.326014
4.443750,-103.215736,-2.176123,32.692013,-23.268452,48.307617,-23.535767
4.450000,-105.389069,-2.175983,35.743065,-23.277325,47.646561,-23.648808
4.456250,-105.502083,-2.177372,38.004845,-23.221172,46.692734,-23.663424
4.462500,-103.889771,-2.179484,39.677593,-23.109867,45.628132,-23.585558
4.468750,-100.974838,-2.181866,41.048840,-22.962811,44.674248,-23.437325
4.475000,-97.252747,-2.185041,40.604801,-22.778708,44.124126,-23.205555
4.481250,-93.257507,-2.189016,40.508465,-22.550985,42.704876,-22.875296
4.487500,-87.362534,-2.192997,40.423779,-22.311132,41.947430,-22.493027
4.493750,-81.462044,-2.196688,40.159740,-22.080902,41.549717,-22.088882
4.500000,-75.562599,-2.201231,39.648357,-21.871229,41.294788,-21.684208
4.506250,-69.666519,-2.207349,38.864887,-21.682827,40.971329,-21.293943
4.512500,-63.765579,-2.213912,37.803265,-21.503321,40.362949,-20.927341
4.518750,-57.852024,-2.219430,36.462078,-21.279026,39.224079,-20.593836
4.525000,-51.929516,-2.224023,34.866234,-21.092180,37.240845,-20.329342
4.531250,-46.008251,-2.228837,34.111317,-20.953360,33.970238,-20.123034
4.537500,-40.088806,-2.234267,33.683628,-20.819584,30.761471,-19.951450
4.543750,-34.164291,-2.239491,32.175312,-20.678799,26.121452,-19.825808
4.550000,-28.231030,-2.243698,31.311207,-20.557669,20.379526,-19.722546
4.556250,-22.292387,-2.247001,30.800644,-20.479153,13.937082,-19.701424
4.562500,-16.352224,-2.249766,30.424759,-20.462418,7.506669,-19.778883
4.568750,-10.410841,-2.252018,29.960800,-20.533319,1.063449,-19.952627
4.575000,-4.466647,-2.253410,29.180588,-20.749596,-5.212316,-20.169857
4.581250,1.480852,-2.253631,27.889881,-21.032763,-10.999567,-20.441555
4.587500,7.429465,-2.252590,24.841255,-21.399849,-15.798868,-20.780079
4.593750,13.376837,-2.250564,22.895874,-21.872349,-19.427191,-21.178179
4.600000,19.320374,-2.247803,20.183123,-22.452789,-21.834808,-21.615610
4.606250,25.260509,-2.243980,16.569265,-23.209999,-23.165905,-22.103176
4.612500,31.196171,-2.239227,12.998107,-24.004019,-23.694893,-22.632021
4.618750,37.122337,-2.234509,8.817264,-24.870827,-23.490499,-23.179630
4.625000,43.036297,-2.230592,4.367620,-25.790674,-22.834509,-23.730545
4.631250,48.944519,-2.226901,-0.059146,-26.729841,-22.048811,-24.271049
4.637500,54.851208,-2.222339,-4.199110,-27.644882,-21.499466,-24.784206
4.643750,60.753197,-2.217521,-7.803684,-28.482813,-21.550428,-25.235260
4.650000,66.641724,-2.213985,-12.566436,-29.182529,-22.549549,-25.576754
4.656250,72.515541,-2.212491,-14.623787,-29.715664,-24.874537,-25.814945
4.662500,78.383217,-2.212591,-16.021662,-30.073685,-27.099134,-25.972864
4.668750,84.249771,-2.213964,-16.629890,-30.226160,-30.603262,-26.023439
4.675000,90.115723,-2.216827,-16.472473,-30.160450,-35.145611,-25.958555
4.681250,94.087303,-2.221026,-15.680972,-29.879108,-40.518604,-25.778986
4.687500,97.789986,-2.225903,-14.456552,-29.405895,-46.496395,-25.495811
4.693750,100.690300,-2.231731,-13.046122,-28.778419,-52.810444,-25.121265
4.700000,102.292809,-2.239508,-11.746436,-28.025059,-59.115063,-24.657793
4.706250,102.172966,-2.248954,-11.038506,-27.151283,-65.043610,-24.097330
4.712500,100.001640,-2.258349,-11.173853,-26.198729,-70.164932,-23.491089
4.718750,95.545380,-2.266442,-12.493564,-25.242203,-75.876122,-22.898586
