Anritsu VNA Frequency[GHz],S21[deg],S21[dB],S11[deg],S11[dB],S22[deg],S22[dB]
1338090007.19,2012_05_27_04:40:07,+40.603,+10.265,+54.977,+10.275,+13.920,+13.730,+14.025,+13.776,10.377262,-16.387
3.006250,33.174656,-1.747873,58.504036,-26.677523,-81.158806,-27.451580
3.012500,33.174656,-1.747873,58.504036,-26.677523,-81.158806,-27.451580
3.018750,33.174656,-1.747873,58.504036,-26.677523,-81.158806,-27.451580
3.025000,33.174656,-1.747873,58.504036,-26.677523,-81.158806,-27.451580
3.031250,33.174656,-1.747873,58.504036,-26.677523,-81.158806,-27.451580
3.037500,33.174656,-1.747873,58.504036,-26.677523,-81.158806,-27.451580
3.043750,33.174656,-1.747873,58.504036,-26.677523,-81.158806,-27.451580
3.050000,33.174656,-1.747873,58.504036,-26.677523,-81.158806,-27.451580
3.056250,33.174656,-1.747873,58.504036,-26.677523,-81.158806,-27.451580
3.062500,33.174656,-1.747873,58.504036,-26.677523,-81.158806,-27.451580
3.068750,33.174656,-1.747873,58.504036,-26.677523,-81.158806,-27.451580
3.075000,33.174656,-1.747873,58.504036,-26.677523,-81.158806,-27.451580
3.081250,33.174656,-1.747873,58.504036,-26.677523,-81.158806,-27.451580
3.087500,33.174656,-1.747873,58.504036,-26.677523,-81.158806,-27.451580
3.093750,33.174656,-1.749726,58.504036,-26.478735,-81.158806,-27.198139
3.100000,39.079288,-1.751929,55.841522,-26.331551,-83.110855,-26.962065
3.106250,44.984261,-1.754110,52.303017,-26.257000,-83.461899,-26.745771
3.112500,50.889984,-1.756312,48.241608,-26.274895,-81.854080,-26.521013
3.118750,56.795013,-1.758734,42.258331,-26.322922,-80.129128,-26.215591
3.125000,62.698971,-1.761263,37.472157,-26.371674,-76.037750,-25.951979
3.131250,68.602806,-1.763870,33.103546,-26.447290,-69.872284,-25.660990
3.137500,74.505615,-1.766791,29.406559,-26.550501,-61.989483,-25.333963
3.143750,80.406845,-1.770215,26.586897,-26.671930,-52.573032,-24.979473
3.150000,86.308937,-1.773882,24.819920,-26.796631,-41.778519,-24.609806
3.156250,92.214256,-1.777310,24.229658,-26.910496,-29.775579,-24.243420
3.162500,96.226967,-1.780420,24.880852,-27.000267,-16.762777,-23.903788
3.168750,99.966072,-1.783623,26.793749,-27.059141,-2.950358,-23.640841
3.175000,102.898781,-1.787072,30.013767,-27.065302,9.603271,-23.396166
3.181250,104.534447,-1.790613,32.783230,-27.006449,22.933561,-23.175079
3.187500,104.447617,-1.793968,36.561111,-26.899487,35.717010,-23.008278
3.193750,102.297218,-1.797099,40.647301,-26.757393,47.456539,-22.912182
3.200000,97.845467,-1.799855,44.472424,-26.588118,57.746365,-22.889755
3.206250,90.970970,-1.802303,47.555466,-26.402657,66.195175,-22.940384
3.212500,81.671799,-1.804574,49.479847,-26.215137,72.487335,-23.072878
3.218750,70.068245,-1.807082,49.932266,-26.035995,76.400932,-23.268818
3.225000,56.399002,-1.809479,50.912247,-25.859528,77.559822,-23.473885
3.231250,41.006695,-1.811368,50.957230,-25.685717,76.135208,-23.696461
3.237500,24.316853,-1.812961,48.575993,-25.514366,74.132355,-23.928322
3.243750,6.817337,-1.814850,45.880531,-25.321030,69.966324,-24.146664
3.250000,-10.958994,-1.817337,42.737793,-25.148399,64.239059,-24.332815
3.256250,-28.461748,-1.819982,38.791893,-25.007843,57.507580,-24.485577
3.262500,-45.156013,-1.822265,34.281910,-24.882336,50.401077,-24.593887
3.268750,-60.551418,-1.824186,29.153730,-24.768032,43.615479,-24.649115
3.275000,-74.223541,-1.826237,23.281799,-24.664272,37.735912,-24.651297
3.281250,-85.832901,-1.828665,16.556774,-24.561962,33.269192,-24.607904
3.287500,-95.140419,-1.831458,8.887777,-24.447861,30.596935,-24.533447
3.293750,-102.022369,-1.834346,0.237430,-24.282988,29.976980,-24.426834
3.300000,-106.478241,-1.837100,-7.216479,-24.115280,31.577183,-24.290079
3.306250,-108.629250,-1.839581,-15.890343,-23.980064,35.370155,-24.149874
3.312500,-108.712868,-1.841837,-24.566307,-23.858820,41.176857,-24.037958
3.318750,-107.070915,-1.843942,-32.952774,-23.758972,48.732475,-23.974867
3.325000,-104.130539,-1.845922,-40.785221,-23.698570,57.697792,-23.970808
3.331250,-100.383156,-1.847541,-47.806221,-23.702330,67.641190,-24.028625
3.337500,-96.362183,-1.848763,-53.834705,-23.831041,78.045654,-24.146729
3.343750,-90.446083,-1.849638,-58.873291,-23.994814,88.371696,-24.310572
3.350000,-84.530113,-1.850189,-63.309002,-24.216251,98.114601,-24.463493
3.356250,-78.614746,-1.850426,-66.747368,-24.540684,106.991806,-24.661030
3.362500,-72.701355,-1.850518,-67.470245,-24.989510,114.056503,-24.909075
3.368750,-66.789734,-1.850348,-67.121750,-25.544407,119.394318,-25.197233
3.375000,-60.878227,-1.849599,-65.579720,-26.178326,122.541016,-25.571682
3.381250,-54.968864,-1.848493,-62.858353,-26.857389,123.256317,-25.904621
3.387500,-49.065647,-1.847738,-59.053394,-27.543278,122.037636,-26.225100
3.393750,-43.168507,-1.847824,-54.324589,-28.191418,118.232216,-26.525331
3.400000,-37.273735,-1.848235,-48.890614,-28.759258,112.278450,-26.798548
3.406250,-31.377903,-1.848444,-43.087307,-29.225851,105.058517,-27.075405
3.412500,-25.482492,-1.848792,-37.241791,-29.566357,97.119476,-27.321857
3.418750,-19.592207,-1.850027,-29.418402,-29.759289,86.998260,-27.516993
3.425000,-13.705005,-1.852231,-23.156872,-29.800312,76.897133,-27.654613
3.431250,-7.815071,-1.854539,-16.605206,-29.705620,67.182190,-27.740656
3.437500,-1.920946,-1.856718,-10.016621,-29.458393,58.265045,-27.778755
3.443750,3.972395,-1.859542,-3.415186,-29.057482,50.815971,-27.717484
3.450000,9.864321,-1.863325,2.679515,-28.548304,43.124504,-27.585627
3.456250,15.760087,-1.867236,8.105042,-27.969223,37.008064,-27.396717
3.462500,21.664377,-1.870490,12.858896,-27.363636,32.238571,-27.152727
3.468750,27.573734,-1.873120,17.023933,-26.777897,28.592363,-26.850204
3.475000,33.483379,-1.875513,20.710644,-26.277063,25.820677,-26.506178
3.481250,39.392586,-1.877769,24.173622,-25.814030,23.635891,-26.135197
3.487500,45.301582,-1.880042,26.144875,-25.417940,21.803953,-25.731117
3.493750,51.209045,-1.882716,28.013508,-25.124578,20.008427,-25.301558
3.500000,57.115955,-1.885850,29.604631,-24.939289,17.933462,-24.858332
3.506250,63.026066,-1.888676,30.810461,-24.846989,15.348094,-24.411930
3.512500,68.940613,-1.890706,31.541389,-24.814390,12.070189,-23.971609
3.518750,74.855515,-1.892562,31.769640,-24.755583,7.965946,-23.542223
3.525000,80.764343,-1.895318,31.653885,-24.737291,2.923900,-23.129934
3.531250,86.668976,-1.899126,31.770212,-24.724068,-3.182338,-22.749397
3.537500,92.576248,-1.903237,31.767927,-24.677990,-8.298396,-22.417213
3.543750,96.594482,-1.907086,31.889782,-24.589964,-13.890486,-22.129383
3.550000,100.342216,-1.911047,32.480263,-24.431839,-19.677826,-21.848785
3.556250,103.282883,-1.915791,31.980528,-24.205782,-25.178101,-21.521536
3.562500,104.928726,-1.920818,32.097004,-23.941263,-30.124041,-21.280798
3.568750,104.858795,-1.925084,32.489964,-23.665064,-33.269684,-21.110983
3.575000,102.732040,-1.927970,32.881187,-23.403574,-35.639030,-21.013504
3.581250,98.305840,-1.929814,32.991405,-23.191916,-36.963024,-21.001671
3.587500,91.453812,-1.931307,32.556725,-23.066267,-37.264179,-21.035225
3.593750,82.176102,-1.932391,31.469616,-23.015390,-36.405014,-21.137028
3.600000,70.598503,-1.932438,29.676809,-23.051405,-34.237179,-21.321716
3.606250,56.958435,-1.931127,29.021769,-23.188999,-30.917980,-21.583282
3.612500,41.591156,-1.928988,28.044090,-23.413027,-26.723854,-21.895308
3.618750,24.920382,-1.926471,27.147833,-23.741171,-22.051016,-22.233137
3.625000,7.440424,-1.923278,26.443920,-24.183359,-17.683008,-22.638432
3.631250,-10.314889,-1.919239,26.542585,-24.702141,-11.812045,-23.073751
3.637500,-27.802340,-1.914880,27.751898,-25.262690,-6.159586,-23.510384
3.643750,-44.493561,-1.910896,30.210236,-25.828022,-0.756085,-23.928843
3.650000,-59.894955,-1.907564,32.053669,-26.353046,4.310716,-24.312000
3.656250,-73.576553,-1.904800,34.842094,-26.762907,8.957059,-24.642921
3.662500,-85.196472,-1.902725,37.753448,-27.102156,13.090364,-24.916500
3.668750,-94.517632,-1.901583,41.711914,-27.349691,16.567787,-25.139172
3.675000,-101.415802,-1.901040,45.037254,-27.477415,19.301361,-25.309603
3.681250,-105.888763,-1.900611,47.462605,-27.482182,21.234697,-25.426210
3.687500,-108.059921,-1.900646,48.749229,-27.377045,22.291077,-25.492256
3.693750,-108.169693,-1.901961,48.749683,-27.188368,22.417904,-25.516665
3.700000,-106.556694,-1.904356,47.466270,-26.921461,21.621002,-25.509869
3.706250,-103.641350,-1.906961,45.060722,-26.594133,20.031921,-25.464907
3.712500,-99.914444,-1.909345,41.511429,-26.245609,17.864969,-25.375603
3.718750,-95.914055,-1.912028,35.113144,-25.902838,15.270971,-25.246881
3.725000,-90.020538,-1.915327,27.789639,-25.581610,12.579240,-25.094940
3.731250,-84.124977,-1.918753,19.265282,-25.327282,10.399910,-24.958481
3.737500,-78.224236,-1.921644,11.478604,-25.162296,9.139898,-24.849770
3.743750,-72.321320,-1.924323,3.176773,-25.072227,9.214417,-24.790359
3.750000,-66.420029,-1.927050,-5.088759,-25.045235,9.222181,-24.696087
3.756250,-60.519901,-1.929768,-12.923408,-25.077360,9.139431,-24.587137
3.762500,-54.618736,-1.932274,-19.908684,-25.146997,10.295321,-24.463926
3.768750,-48.717754,-1.934768,-25.601463,-25.218229,12.437253,-24.375778
3.775000,-42.818336,-1.937578,-29.771168,-25.302889,15.097981,-24.311501
3.781250,-36.919212,-1.940386,-32.318790,-25.388157,17.682129,-24.255161
3.787500,-31.018789,-1.942915,-32.889175,-25.452868,19.826773,-24.200191
3.793750,-25.118208,-1.945534,-31.393723,-25.510759,21.224619,-24.150171
3.800000,-19.219646,-1.948548,-27.859421,-25.509384,21.681801,-24.096743
3.806250,-13.321699,-1.951854,-23.447231,-25.420757,21.213736,-24.004351
3.812500,-7.421836,-1.955306,-17.518604,-25.285515,19.676947,-23.881472
3.818750,-1.521510,-1.959112,-10.660867,-25.120682,16.959267,-23.738789
3.825000,4.379818,-1.963227,-3.476801,-24.940304,13.196163,-23.582766
3.831250,10.285161,-1.966977,5.601487,-24.759026,8.657048,-23.424114
3.837500,16.194420,-1.970134,14.656219,-24.591068,3.660736,-23.300259
3.843750,22.103062,-1.973470,23.731222,-24.431913,-1.449974,-23.164204
3.850000,28.009228,-1.977305,31.019682,-24.275675,-7.372496,-22.999706
3.856250,33.916321,-1.980929,38.079430,-24.132101,-12.906569,-22.845694
3.862500,39.827602,-1.983817,44.373920,-23.999470,-18.032824,-22.717926
3.868750,45.738056,-1.986638,49.469429,-23.864923,-22.737299,-22.597319
3.875000,51.641537,-1.990547,52.959545,-23.706251,-27.032808,-22.481379
3.881250,57.541031,-1.995665,54.429272,-23.528883,-30.997068,-22.354450
3.887500,63.443962,-2.000931,53.432804,-23.334890,-34.812939,-22.221384
3.893750,69.353050,-2.005751,49.891792,-23.106043,-38.735943,-22.086786
3.900000,75.263443,-2.010838,45.893875,-22.832300,-42.897778,-21.943304
3.906250,81.170692,-2.017036,40.029282,-22.513334,-45.600746,-21.789022
3.912500,87.078018,-2.024207,32.834373,-22.150993,-48.713516,-21.619558
3.918750,92.991608,-2.031813,24.859205,-21.752337,-51.946430,-21.421608
3.925000,97.019012,-2.039196,16.569742,-21.344452,-55.056484,-21.168621
3.931250,100.781403,-2.046185,8.420238,-20.952435,-58.113533,-20.949499
3.937500,103.744743,-2.052735,0.965876,-20.596287,-58.910240,-20.761082
3.943750,105.416473,-2.058604,-5.347082,-20.299202,-58.526443,-20.611084
3.950000,105.370598,-2.063312,-10.181508,-20.082895,-56.495647,-20.513449
3.956250,103.266052,-2.066311,-13.310764,-19.965782,-52.463066,-20.483562
3.962500,98.863068,-2.067609,-14.591944,-19.957624,-46.179409,-20.533606
3.968750,92.036324,-2.067437,-13.956609,-20.056202,-37.503166,-20.672117
3.975000,82.782814,-2.065945,-13.312696,-20.228966,-26.440094,-20.909920
3.981250,71.223785,-2.063127,-11.122851,-20.523796,-13.157078,-21.268972
3.987500,57.594692,-2.059191,-6.786387,-20.925621,0.748357,-21.673220
3.993750,42.233501,-2.054419,-1.508209,-21.391369,15.916757,-22.179863
4.000000,25.567009,-2.048987,4.055381,-21.916405,31.549416,-22.795303
4.006250,8.087650,-2.042888,9.559835,-22.484562,46.788017,-23.550434
4.012500,-9.674451,-2.036658,14.733599,-23.068510,60.551418,-24.302496
4.018750,-27.175083,-2.031166,19.329338,-23.635256,73.525902,-25.027555
4.025000,-43.880352,-2.026551,23.059582,-24.168926,83.759827,-25.764021
4.031250,-59.293709,-2.022433,27.787956,-24.659752,92.157898,-26.514215
4.037500,-72.985893,-2.018861,30.146034,-25.086107,97.844139,-27.224684
4.043750,-84.619583,-2.016645,32.176468,-25.435635,101.102737,-27.866291
4.050000,-93.956215,-2.015765,33.732536,-25.707541,102.330643,-28.422424
4.056250,-100.867523,-2.015258,34.749081,-25.892254,102.054573,-28.883711
4.062500,-105.351151,-2.014587,35.299580,-25.971899,99.077545,-29.217363
4.068750,-107.535248,-2.014716,35.337891,-25.963585,95.799271,-29.409542
4.075000,-107.661629,-2.016817,34.878437,-25.884377,92.278305,-29.468164
4.081250,-106.064102,-2.020210,34.103874,-25.748074,88.744865,-29.397495
4.087500,-103.160042,-2.023400,33.268711,-25.563404,83.360344,-29.198736
4.093750,-99.441765,-2.025976,32.674660,-25.338833,77.853943,-28.877420
4.100000,-95.450966,-2.028820,30.739130,-25.089443,72.083717,-28.454901
4.106250,-89.569778,-2.032549,29.461695,-24.820724,65.951271,-27.969212
4.112500,-83.688515,-2.036827,28.747572,-24.524342,59.546413,-27.378445
4.118750,-77.804092,-2.041372,28.335018,-24.217152,53.030769,-26.718132
4.125000,-71.918175,-2.046492,27.930853,-23.914631,46.145348,-26.028784
4.131250,-66.030716,-2.052243,27.362385,-23.626095,39.039932,-25.340212
4.137500,-60.138718,-2.058008,26.514286,-23.355244,31.912712,-24.675119
4.143750,-54.240391,-2.063448,25.301323,-23.101065,24.977610,-24.050848
4.150000,-48.339180,-2.068911,23.636219,-22.862654,18.422310,-23.479845
4.156250,-42.437744,-2.074703,23.615528,-22.636307,12.420131,-22.962107
4.162500,-36.534935,-2.080854,23.828060,-22.409891,7.119160,-22.517962
4.168750,-30.628599,-2.087111,22.867662,-22.173809,4.215547,-22.139355
4.175000,-24.718290,-2.093459,22.577450,-21.946413,1.150398,-21.829088
4.181250,-18.803982,-2.099686,22.776527,-21.732807,-0.361700,-21.580692
4.187500,-12.885260,-2.105602,23.261587,-21.537382,-0.443021,-21.334415
4.193750,-6.961887,-2.111120,23.815247,-21.366068,0.968158,-21.199781
4.200000,-1.034756,-2.116043,24.205751,-21.226080,1.951926,-21.149044
4.206250,4.895785,-2.120039,24.216284,-21.124983,3.182407,-21.160074
4.212500,10.828848,-2.122917,23.681589,-21.059523,5.694981,-21.189537
4.218750,16.760626,-2.125088,24.667290,-21.018784,7.256248,-21.242657
4.225000,22.688463,-2.126925,23.762051,-20.998438,7.858766,-21.319143
4.231250,28.612432,-2.128691,22.947538,-20.987009,7.355863,-21.405083
4.237500,34.533958,-2.130191,22.013065,-20.984255,5.578567,-21.477613
4.243750,40.453014,-2.131411,20.628279,-21.006342,4.442019,-21.546196
4.250000,46.370625,-2.132252,18.627254,-21.038467,2.328786,-21.610058
4.256250,52.286026,-2.132677,15.867036,-21.063263,-0.236583,-21.652697
4.262500,58.197083,-2.133186,12.113997,-21.065960,-2.841644,-21.663010
4.268750,64.100655,-2.134502,7.168782,-21.035912,-5.129115,-21.630388
4.275000,69.997566,-2.137002,0.852049,-20.966021,-6.786318,-21.548380
4.281250,75.893883,-2.140067,-4.830743,-20.843849,-7.539340,-21.404396
4.287500,81.792320,-2.143586,-11.410147,-20.666868,-7.188721,-21.170212
4.293750,87.689957,-2.148234,-18.628008,-20.458258,-5.836398,-20.915920
4.300000,93.587181,-2.154317,-26.113314,-20.219625,-3.745902,-20.643919
4.306250,97.596581,-2.160593,-33.424160,-19.954355,-0.725552,-20.351557
4.312500,101.344582,-2.165965,-40.241913,-19.673365,3.019307,-20.048609
4.318750,104.293770,-2.170912,-46.293621,-19.391102,7.224599,-19.748680
4.325000,105.944176,-2.176390,-51.378094,-19.129116,11.586967,-19.469477
4.331250,105.870872,-2.182214,-55.347336,-18.910774,15.796004,-19.225504
4.337500,103.740532,-2.187398,-58.101379,-18.786049,19.581341,-19.019329
4.343750,99.316826,-2.191389,-59.657341,-18.657444,22.721056,-18.793299
4.350000,92.473557,-2.194451,-59.019329,-18.602634,24.732698,-18.672710
4.356250,83.208351,-2.196434,-57.077923,-18.655878,27.290636,-18.636909
4.362500,71.643585,-2.196863,-53.630116,-18.816074,29.155209,-18.696604
4.368750,58.013744,-2.196085,-48.764061,-19.074860,30.675888,-18.878548
4.375000,42.653217,-2.194917,-42.684711,-19.418644,32.093716,-19.121672
4.381250,25.989220,-2.193276,-35.666435,-19.826033,33.466106,-19.409245
4.387500,8.518535,-2.190464,-28.033434,-20.270401,35.599018,-19.748405
4.393750,-9.228152,-2.186787,-20.200565,-20.735367,36.808357,-20.167105
4.400000,-26.711485,-2.183475,-12.629532,-21.208281,38.652641,-20.640749
4.406250,-43.398251,-2.180649,-3.523582,-21.671219,40.714367,-21.143297
4.412500,-58.790291,-2.177395,3.530940,-22.110678,42.701920,-21.655895
4.418750,-72.459900,-2.173861,10.376984,-22.520403,44.402317,-22.165270
4.425000,-84.071716,-2.171044,16.843115,-22.838943,45.733059,-22.622807
4.431250,-93.389526,-2.169285,22.753584,-23.065920,46.701260,-23.001785
4.437500,-100.285683,-2.167855,27.719826,-23.213207,47.077663,-23.298182
4.443750,-104.758194,-2.166661,31.696053,-23.288458,46.863361,-23.505028
4.450000,-106.933044,-2.166521,34.749016,-23.293539,46.187874,-23.615349
4.456250,-107.047829,-2.167889,37.007572,-23.233345,45.220600,-23.627651
4.462500,-105.437149,-2.169982,38.674294,-23.118046,44.143257,-23.548170
4.468750,-102.523819,-2.172344,40.037544,-22.967421,43.178967,-23.399199
4.475000,-98.803200,-2.175522,39.582146,-22.780109,42.626617,-23.165291
4.481250,-94.809647,-2.179459,39.477764,-22.549522,41.210564,-22.834597
4.487500,-88.916069,-2.183378,39.382790,-22.308027,40.457569,-22.453201
4.493750,-83.017334,-2.187011,39.109417,-22.077286,40.071095,-22.050688
4.500000,-77.119743,-2.191513,38.589447,-21.868425,39.833447,-21.648359
4.506250,-71.225403,-2.197604,37.799351,-21.681845,39.534615,-21.260824
4.512500,-65.325836,-2.204110,36.732838,-21.504509,38.954006,-20.897600
4.518750,-59.413395,-2.209486,35.388100,-21.278374,37.843601,-20.568386
4.525000,-53.492687,-2.213949,33.788956,-21.097507,35.883221,-20.309700
4.531250,-47.573158,-2.218702,33.024261,-20.964323,32.618778,-20.106844
4.537500,-41.655575,-2.224074,32.592697,-20.834351,29.421200,-19.939693
4.543750,-35.732262,-2.229240,31.084818,-20.697886,24.786518,-19.818888
4.550000,-29.800514,-2.233423,30.213831,-20.581974,19.037231,-19.719976
4.556250,-23.863508,-2.236713,29.695597,-20.508968,12.583293,-19.704157
4.562500,-17.924990,-2.239478,29.315456,-20.498016,6.129438,-19.787020
4.568750,-11.985433,-2.241755,28.847996,-20.574804,-0.351931,-19.965380
4.575000,-6.043141,-2.243245,28.065992,-20.798100,-6.680283,-20.186075
4.581250,-0.097277,-2.243516,26.788385,-21.083481,-12.519427,-20.461813
4.587500,5.849466,-2.242474,23.737955,-21.454014,-17.373226,-20.804375
4.593750,11.794469,-2.240490,21.795294,-21.928362,-21.056362,-21.206545
4.600000,17.735672,-2.237707,19.088785,-22.510666,-23.520998,-21.647524
4.606250,23.673384,-2.233845,15.491056,-23.260582,-24.910810,-22.139082
4.612500,29.606440,-2.229023,11.902537,-24.048660,-25.491201,-22.671024
4.618750,35.529812,-2.224265,7.722401,-24.906893,-25.331816,-23.221266
4.625000,41.440891,-2.220243,3.271691,-25.814632,-24.708683,-23.774393
4.631250,47.346241,-2.216366,-1.160412,-26.738693,-23.945957,-24.316746
4.637500,53.250153,-2.211614,-5.311276,-27.636395,-23.403090,-24.831236
4.643750,59.149200,-2.206610,-8.933293,-28.455387,-23.445511,-25.282297
4.650000,65.034386,-2.202895,-13.718127,-29.135208,-24.422319,-25.622328
4.656250,70.905167,-2.201284,-15.801712,-29.648792,-26.716373,-25.860004
4.662500,76.770058,-2.201230,-17.232719,-29.988752,-28.901182,-26.015732
4.668750,82.633980,-2.202484,-17.874599,-30.125277,-32.355495,-26.063272
4.675000,88.497398,-2.205247,-17.752129,-30.046436,-36.847099,-25.994745
4.681250,94.361198,-2.209391,-16.993731,-29.755322,-42.170856,-25.811146
4.687500,98.334793,-2.214247,-15.801441,-29.276220,-48.105732,-25.523851
4.693750,102.038849,-2.220051,-14.418390,-28.647747,-54.382988,-25.144541
4.700000,104.936806,-2.227869,-13.138165,-27.897934,-60.659668,-24.675209
4.706250,106.540031,-2.237361,-12.454276,-27.029716,-66.570366,-24.108410
4.712500,106.432640,-2.246736,-12.605169,-26.084890,-71.671356,-23.499361
4.718750,104.277351,-2.254820,-13.939848,-25.140579,-77.375893,-22.902815
