Anritsu VNA Frequency[GHz],S21[deg],S21[dB],S11[deg],S11[dB],S22[deg],S22[dB]
1338077910.8,2012_05_27_01:18:30,+40.854,+10.350,+55.538,+10.360,+13.960,+13.773,+14.065,+13.818,10.450204,-17.796
3.006250,33.922134,-1.748137,59.193539,-26.637779,-80.234756,-27.455811
3.012500,33.922134,-1.748137,59.193539,-26.637779,-80.234756,-27.455811
3.018750,33.922134,-1.748137,59.193539,-26.637779,-80.234756,-27.455811
3.025000,33.922134,-1.748137,59.193539,-26.637779,-80.234756,-27.455811
3.031250,33.922134,-1.748137,59.193539,-26.637779,-80.234756,-27.455811
3.037500,33.922134,-1.748137,59.193539,-26.637779,-80.234756,-27.455811
3.043750,33.922134,-1.748137,59.193539,-26.637779,-80.234756,-27.455811
3.050000,33.922134,-1.748137,59.193539,-26.637779,-80.234756,-27.455811
3.056250,33.922134,-1.748137,59.193539,-26.637779,-80.234756,-27.455811
3.062500,33.922134,-1.748137,59.193539,-26.637779,-80.234756,-27.455811
3.068750,33.922134,-1.748137,59.193539,-26.637779,-80.234756,-27.455811
3.075000,33.922134,-1.748137,59.193539,-26.637779,-80.234756,-27.455811
3.081250,33.922134,-1.748137,59.193539,-26.637779,-80.234756,-27.455811
3.087500,33.922134,-1.748137,59.193539,-26.637779,-80.234756,-27.455811
3.093750,33.922134,-1.749935,59.193539,-26.436726,-80.234756,-27.205643
3.100000,39.829174,-1.752051,56.518631,-26.284679,-82.248314,-26.973398
3.106250,45.736301,-1.754221,52.960938,-26.204247,-82.644714,-26.759935
3.112500,51.643723,-1.756450,48.883709,-26.216087,-81.063522,-26.538797
3.118750,57.550346,-1.758869,42.885784,-26.260744,-79.348068,-26.239376
3.125000,63.456005,-1.761421,38.090046,-26.305748,-75.311394,-25.977667
3.131250,69.361206,-1.764086,33.707272,-26.377516,-69.149872,-25.689972
3.137500,75.265228,-1.767101,29.990341,-26.477501,-61.269577,-25.365715
3.143750,81.167435,-1.770672,27.154112,-26.597694,-51.852905,-25.012945
3.150000,87.070610,-1.774525,25.374968,-26.723190,-41.057045,-24.644209
3.156250,92.976929,-1.778151,24.775217,-26.839817,-29.054590,-24.278111
3.162500,96.990593,-1.781513,25.415354,-26.933907,-16.045370,-23.938015
3.168750,100.731064,-1.785005,27.321701,-26.998680,-2.241323,-23.672859
3.175000,103.665009,-1.788745,30.533546,-27.010885,10.305514,-23.426672
3.181250,105.302010,-1.792578,33.291088,-26.958687,23.630922,-23.203835
3.187500,105.216698,-1.796186,37.066917,-26.859221,36.405869,-23.035017
3.193750,103.068001,-1.799559,41.153584,-26.724588,48.144222,-22.936020
3.200000,98.618118,-1.802595,44.980354,-26.562395,58.426857,-22.910151
3.206250,91.745293,-1.805242,48.065952,-26.383307,66.868378,-22.957844
3.212500,82.447884,-1.807673,49.991772,-26.200872,73.155884,-23.087059
3.218750,70.846306,-1.810351,50.445587,-26.025742,77.066063,-23.280499
3.225000,57.178738,-1.812844,51.429943,-25.851475,78.228058,-23.483036
3.231250,41.788212,-1.814782,51.481709,-25.678556,76.804909,-23.703899
3.237500,25.100061,-1.816418,49.110058,-25.506828,74.803719,-23.934196
3.243750,7.602389,-1.818316,46.426800,-25.314093,70.643066,-24.151663
3.250000,-10.172112,-1.820773,43.293419,-25.140295,64.924370,-24.336590
3.256250,-27.673040,-1.823379,39.366768,-24.998272,58.199768,-24.488516
3.262500,-44.365479,-1.825636,34.876831,-24.871578,51.100548,-24.596619
3.268750,-59.758762,-1.827549,29.765266,-24.756247,44.325714,-24.651867
3.275000,-73.428741,-1.829594,23.909409,-24.651701,38.455387,-24.654230
3.281250,-85.035965,-1.832061,17.202040,-24.548595,33.997471,-24.611265
3.287500,-94.341042,-1.834856,9.549578,-24.434355,31.337433,-24.536629
3.293750,-101.220238,-1.837777,0.919209,-24.270576,30.729660,-24.431227
3.300000,-105.673203,-1.840598,-6.512634,-24.101896,32.335297,-24.295609
3.306250,-107.821213,-1.843211,-15.174209,-23.967159,36.132023,-24.156734
3.312500,-107.901711,-1.845570,-23.833927,-23.846449,41.946102,-24.046007
3.318750,-106.256714,-1.847810,-32.206985,-23.747297,49.508583,-23.983828
3.325000,-103.313362,-1.849880,-40.029739,-23.686825,58.478130,-23.981373
3.331250,-99.563416,-1.851598,-47.041752,-23.691290,68.422112,-24.041119
3.337500,-95.539818,-1.852915,-53.065311,-23.822140,78.827423,-24.161396
3.343750,-89.621277,-1.853911,-58.097141,-23.983742,89.155418,-24.327143
3.350000,-83.703522,-1.854527,-62.534946,-24.205502,97.005760,-24.483253
3.356250,-77.786697,-1.854801,-65.968498,-24.530378,105.609566,-24.683401
3.362500,-71.871925,-1.854918,-66.688347,-24.980223,111.865585,-24.934164
3.368750,-65.959671,-1.854765,-66.337547,-25.535774,115.905792,-25.224627
3.375000,-60.047844,-1.854020,-64.790970,-26.170555,117.332054,-25.599745
3.381250,-54.138279,-1.852880,-62.065613,-26.850626,115.973869,-25.934959
3.387500,-48.235107,-1.852099,-58.255230,-27.537432,112.455521,-26.257265
3.393750,-42.338203,-1.852133,-53.517948,-28.186575,106.224243,-26.559021
3.400000,-36.443661,-1.852507,-48.072571,-28.755232,97.845596,-26.832954
3.406250,-30.547911,-1.852678,-42.258266,-29.222914,88.318085,-27.110201
3.412500,-24.652431,-1.852984,-36.400955,-29.564238,78.309669,-27.356524
3.418750,-18.761572,-1.854151,-28.564745,-29.757835,66.460510,-27.551228
3.425000,-12.873554,-1.856305,-22.293077,-29.799339,55.055771,-27.688076
3.431250,-6.982347,-1.858586,-15.733132,-29.704454,44.528412,-27.773409
3.437500,-1.086784,-1.860767,-9.143678,-29.457705,35.332489,-27.811062
3.443750,4.808660,-1.863561,-2.544122,-29.056391,28.148642,-27.748983
3.450000,10.702809,-1.867302,3.545620,-28.546490,21.256008,-27.616615
3.456250,16.601343,-1.871232,8.964431,-27.966805,16.435152,-27.427216
3.462500,22.508537,-1.874474,13.703890,-27.360712,13.389995,-27.183102
3.468750,28.421068,-1.877146,17.851372,-26.774876,11.804112,-26.881500
3.475000,34.333996,-1.879549,21.511639,-26.274035,11.330400,-26.537275
3.481250,40.246262,-1.881807,24.951874,-25.810303,11.572472,-26.166565
3.487500,46.158031,-1.884076,26.896725,-25.414021,12.169047,-25.763062
3.493750,52.067970,-1.886750,28.739882,-25.120922,12.680630,-25.333818
3.500000,57.977116,-1.889882,30.310223,-24.935850,12.674295,-24.891348
3.506250,63.889084,-1.892757,31.504103,-24.844458,11.820102,-24.445353
3.512500,69.805099,-1.894812,32.226292,-24.812044,9.848658,-24.005278
3.518750,75.721008,-1.896706,32.454941,-24.751545,6.558180,-23.575716
3.525000,81.630737,-1.899493,32.342697,-24.736115,1.796310,-23.163382
3.531250,87.535805,-1.903383,32.475914,-24.723438,-2.409020,-22.782543
3.537500,93.443253,-1.907597,32.486706,-24.678261,-7.519705,-22.449411
3.543750,97.461548,-1.911467,32.630257,-24.590103,-13.108195,-22.160303
3.550000,101.209534,-1.915563,33.242439,-24.432867,-18.889223,-21.878185
3.556250,104.150520,-1.920417,32.764435,-24.207296,-24.392637,-21.551249
3.562500,105.796494,-1.925566,32.902359,-23.943052,-29.328585,-21.308985
3.568750,105.726799,-1.929949,33.315189,-23.666906,-32.476917,-21.137644
3.575000,103.600922,-1.932939,33.724926,-23.405766,-34.843658,-21.038214
3.581250,99.175667,-1.934903,33.846287,-23.194450,-36.165585,-21.024479
3.587500,92.324921,-1.936456,33.420929,-23.068207,-36.457417,-21.056658
3.593750,83.048820,-1.937587,32.347733,-23.017513,-35.594223,-21.157001
3.600000,71.473038,-1.937648,30.553526,-23.054201,-33.422092,-21.339874
3.606250,57.834850,-1.936329,29.894482,-23.191458,-30.095646,-21.599678
3.612500,42.469719,-1.934137,28.914007,-23.415150,-25.890547,-21.909721
3.618750,25.801348,-1.931531,28.024673,-23.742443,-21.203239,-22.245167
3.625000,8.323792,-1.928252,27.331686,-24.184631,-16.815929,-22.648455
3.631250,-9.429065,-1.924138,27.445038,-24.704037,-10.930764,-23.081686
3.637500,-26.914051,-1.919640,28.666304,-25.265278,-5.270475,-23.516867
3.643750,-43.602818,-1.915543,31.139872,-25.831406,0.145673,-23.934090
3.650000,-59.001881,-1.912075,32.998306,-26.356842,5.227402,-24.315807
3.656250,-72.681267,-1.909196,35.805752,-26.766872,9.886938,-24.645927
3.662500,-84.299011,-1.907086,38.729927,-27.106934,14.027743,-24.919313
3.668750,-93.617981,-1.905905,42.703072,-27.354965,17.508362,-25.142477
3.675000,-100.514114,-1.905333,46.040779,-27.482914,20.243982,-25.314125
3.681250,-104.985153,-1.904923,48.473492,-27.487852,22.179268,-25.432487
3.687500,-107.154427,-1.904994,49.760529,-27.383055,23.236095,-25.500490
3.693750,-107.262146,-1.906379,49.754681,-27.193638,23.361956,-25.527124
3.700000,-105.647118,-1.908882,48.457222,-26.925871,22.561661,-25.523556
3.706250,-102.730133,-1.911613,46.029583,-26.597589,20.966028,-25.482201
3.712500,-99.001282,-1.914084,42.450314,-26.247469,18.792776,-25.396688
3.718750,-94.998802,-1.916870,36.018055,-25.902773,16.194139,-25.271736
3.725000,-89.103355,-1.920366,28.655827,-25.580053,13.498673,-25.123268
3.731250,-83.205750,-1.923892,20.092028,-25.323292,11.312659,-24.989912
3.737500,-77.302956,-1.926928,12.264010,-25.156088,10.048703,-24.883615
3.743750,-71.397987,-1.929720,3.922796,-25.064337,10.118773,-24.827070
3.750000,-65.494377,-1.932562,-4.378713,-25.036297,10.114424,-24.735096
3.756250,-59.592175,-1.935392,-12.247491,-25.067595,10.025653,-24.628115
3.762500,-53.688786,-1.937964,-19.259071,-25.137012,11.176517,-24.506721
3.768750,-47.785706,-1.940480,-24.973782,-25.209311,13.305113,-24.419582
3.775000,-41.884068,-1.943291,-29.168684,-25.295010,15.956435,-24.355871
3.781250,-35.982941,-1.946153,-31.724188,-25.381428,18.532473,-24.300171
3.787500,-30.080738,-1.948702,-32.293644,-25.448618,20.667999,-24.245279
3.793750,-24.178684,-1.951298,-30.790648,-25.511332,22.056450,-24.194880
3.800000,-18.278397,-1.954274,-27.248421,-25.512543,22.500078,-24.141308
3.806250,-12.379068,-1.957540,-22.817091,-25.427727,22.016193,-24.048538
3.812500,-6.478147,-1.960963,-16.870161,-25.296074,20.471113,-23.924866
3.818750,-0.576997,-1.964701,-9.987107,-25.134680,17.752697,-23.780848
3.825000,5.324971,-1.968768,-2.773318,-24.957582,13.986960,-23.622953
3.831250,11.230932,-1.972512,6.338908,-24.779360,9.444089,-23.462671
3.837500,17.140585,-1.975709,15.430419,-24.613863,4.445830,-23.336706
3.843750,23.049866,-1.978999,24.541824,-24.456562,-0.665053,-23.198940
3.850000,28.956459,-1.982784,31.864012,-24.301647,-6.582752,-23.032234
3.856250,34.863991,-1.986450,38.955032,-24.158314,-12.109735,-22.875950
3.862500,40.775833,-1.989321,45.277771,-24.024998,-17.228489,-22.738691
3.868750,46.687428,-1.992130,50.398209,-23.888384,-21.918264,-22.617523
3.875000,52.591904,-1.995983,53.909073,-23.727434,-26.204275,-22.501589
3.881250,58.492630,-2.001097,55.395550,-23.546947,-30.156517,-22.374910
3.887500,64.397041,-2.006309,54.414120,-23.349283,-33.959213,-22.242052
3.893750,70.307785,-2.011111,50.885365,-23.116842,-37.869022,-22.108028
3.900000,76.220314,-2.016151,46.896397,-22.839281,-42.018864,-21.965147
3.906250,82.130074,-2.022247,41.036980,-22.516455,-44.711670,-21.811584
3.912500,88.039803,-2.029371,33.841442,-22.149843,-47.815990,-21.642889
3.918750,93.955902,-2.036902,25.864388,-21.746954,-51.042202,-21.446030
3.925000,97.986084,-2.044218,17.573599,-21.335257,-54.149895,-21.193550
3.931250,101.751328,-2.051131,9.426542,-20.940161,-57.195694,-20.975084
3.937500,104.717415,-2.057596,1.973794,-20.581440,-57.989574,-20.787014
3.943750,106.391792,-2.063399,-4.337937,-20.282259,-57.606331,-20.637215
3.950000,106.348557,-2.068108,-9.171667,-20.064835,-55.577423,-20.539818
3.956250,104.246384,-2.071110,-12.299210,-19.947046,-51.548927,-20.510115
3.962500,99.845490,-2.072383,-13.578078,-19.938431,-45.268837,-20.560476
3.968750,93.020767,-2.072199,-12.938110,-20.037010,-36.599380,-20.698898
3.975000,83.769348,-2.070719,-12.286739,-20.208393,-25.549065,-20.936184
3.981250,72.211807,-2.067951,-10.082478,-20.503294,-12.276051,-21.300312
3.987500,58.583836,-2.064054,-5.734389,-20.905058,1.612649,-21.706743
3.993750,43.223846,-2.059322,-0.451134,-21.369740,16.769886,-22.215851
4.000000,26.558435,-2.053983,5.127366,-21.893253,32.393074,-22.834164
4.006250,9.080079,-2.047990,10.648949,-22.459553,47.619011,-23.593830
4.012500,-8.681119,-2.041827,15.844127,-23.040653,61.375629,-24.351555
4.018750,-26.180788,-2.036414,20.461308,-23.604019,74.341232,-25.083178
4.025000,-42.885242,-2.031899,24.214951,-24.133928,84.566193,-25.825748
4.031250,-58.297539,-2.027884,28.969824,-24.620718,92.962898,-26.582403
4.037500,-71.988678,-2.024413,31.355776,-25.043680,98.652313,-27.299646
4.043750,-83.620926,-2.022247,33.413937,-25.390184,101.919083,-27.947401
4.050000,-92.956261,-2.021428,34.998672,-25.659796,103.160347,-28.509031
4.056250,-99.865829,-2.020970,36.040466,-25.843681,102.902184,-28.974972
4.062500,-104.347725,-2.020268,36.615719,-25.923241,99.943481,-29.311983
4.068750,-106.529762,-2.020325,36.669060,-25.915728,96.688553,-29.506716
4.075000,-106.653938,-2.022305,36.220402,-25.838537,93.192261,-29.566557
4.081250,-105.054306,-2.025552,35.448269,-25.705202,89.682251,-29.495861
4.087500,-102.148354,-2.028654,34.609276,-25.524153,84.320778,-29.295683
4.093750,-98.428032,-2.031054,34.007130,-25.304613,78.835663,-28.972155
4.100000,-94.435211,-2.033666,32.060982,-25.060856,73.083145,-28.545706
4.106250,-88.551903,-2.037140,30.766108,-24.797512,66.967384,-28.056049
4.112500,-82.668968,-2.041198,30.025024,-24.506750,60.571655,-27.460163
4.118750,-76.782784,-2.045528,29.581783,-24.204485,54.061733,-26.794529
4.125000,-70.895325,-2.050465,29.144245,-23.906195,47.179920,-26.099657
4.131250,-65.006737,-2.056026,28.543522,-23.620659,40.073597,-25.405390
4.137500,-59.113621,-2.061657,27.664858,-23.351568,32.942787,-24.735027
4.143750,-53.214306,-2.067002,26.425186,-23.098131,25.996973,-24.105961
4.150000,-47.312260,-2.072386,24.736814,-22.859268,19.429390,-23.531507
4.156250,-41.409988,-2.078198,24.696344,-22.631485,13.416671,-23.012243
4.162500,-35.506378,-2.084341,24.893656,-22.403742,8.101466,-22.561632
4.168750,-29.599161,-2.090606,23.911791,-22.164797,5.184959,-22.180317
4.175000,-23.688034,-2.097032,23.615427,-21.934492,2.106269,-21.867861
4.181250,-17.772820,-2.103374,23.805244,-21.717354,0.579780,-21.617569
4.187500,-11.853178,-2.109398,24.284433,-21.518051,0.485942,-21.368723
4.193750,-5.928687,-2.115107,24.830866,-21.342823,1.878280,-21.230913
4.200000,-0.000295,-2.120202,25.214985,-21.199207,2.847066,-21.177444
4.206250,5.931472,-2.124394,25.219187,-21.094717,4.067000,-21.185612
4.212500,11.865936,-2.127489,24.679504,-21.026340,6.565892,-21.212225
4.218750,17.799685,-2.129857,25.658398,-20.983213,8.114261,-21.262064
4.225000,23.729271,-2.131950,24.748009,-20.961130,8.707083,-21.335867
4.231250,29.654913,-2.133930,23.924765,-20.948662,8.197433,-21.419275
4.237500,35.578381,-2.135654,22.982956,-20.944696,6.416473,-21.489563
4.243750,41.499310,-2.137074,21.585571,-20.966478,5.283876,-21.556404
4.250000,47.418652,-2.138186,19.573988,-20.998838,3.176129,-21.618662
4.256250,53.336105,-2.138840,16.802153,-21.023912,0.620575,-21.660189
4.262500,59.248726,-2.139575,13.040747,-21.027077,-1.969102,-21.669924
4.268750,65.154213,-2.141048,8.089075,-20.998199,-4.239005,-21.637310
4.275000,71.052864,-2.143667,1.768635,-20.929615,-5.875970,-21.555466
4.281250,76.950897,-2.146895,-3.917646,-20.809206,-6.607856,-21.412273
4.287500,82.851028,-2.150542,-10.496803,-20.634323,-6.236583,-21.178419
4.293750,88.750488,-2.155315,-17.712357,-20.427368,-4.861493,-20.924940
4.300000,94.649223,-2.161465,-25.191740,-20.190596,-2.750721,-20.653610
4.306250,98.660286,-2.167792,-32.492794,-19.927181,0.287876,-20.361961
4.312500,102.409950,-2.173241,-39.297199,-19.648046,4.046807,-20.059629
4.318750,105.360779,-2.178226,-45.335415,-19.367584,8.262118,-19.760090
4.325000,107.013008,-2.183717,-50.405300,-19.107040,12.630084,-19.481060
4.331250,106.941437,-2.189587,-54.360031,-18.889318,16.840515,-19.237486
4.337500,104.812645,-2.194739,-57.103264,-18.760719,20.621624,-19.031761
4.343750,100.390343,-2.198743,-58.650738,-18.634724,23.753428,-18.807577
4.350000,93.548615,-2.201841,-58.011711,-18.579926,25.761959,-18.687481
4.356250,84.285141,-2.203818,-56.073502,-18.631239,28.310909,-18.652311
4.362500,72.721840,-2.204221,-52.634857,-18.788391,30.162756,-18.713194
4.368750,59.093559,-2.203465,-47.786587,-19.043377,31.670490,-18.895699
4.375000,43.734341,-2.202246,-41.732216,-19.383110,33.085640,-19.141464
4.381250,27.071545,-2.200565,-34.744717,-19.786354,34.454208,-19.431036
4.387500,9.601903,-2.197725,-27.147316,-20.227026,36.577984,-19.772148
4.393750,-8.143523,-2.194016,-19.353552,-20.688427,37.784660,-20.193041
4.400000,-25.626060,-2.190638,-11.821832,-21.157999,39.633137,-20.668840
4.406250,-42.311787,-2.187714,-2.754651,-21.617811,41.704391,-21.173294
4.412500,-57.702831,-2.184382,4.264884,-22.054863,43.706326,-21.687811
4.418750,-71.371895,-2.180794,11.080241,-22.463606,45.422810,-22.198965
4.425000,-82.983086,-2.177890,17.519104,-22.781839,46.771465,-22.658846
4.431250,-92.300491,-2.176026,23.412270,-23.009750,47.762123,-23.039375
4.437500,-99.196587,-2.174522,28.368118,-23.159088,48.160839,-23.337343
4.443750,-103.668930,-2.173203,32.338020,-23.237345,47.967640,-23.545824
4.450000,-105.843437,-2.172928,35.389099,-23.246023,47.310875,-23.657425
4.456250,-105.958061,-2.174179,37.650082,-23.189919,46.359661,-23.670691
4.462500,-104.347328,-2.176180,39.322308,-23.079079,45.295097,-23.591717
4.468750,-101.433990,-2.178479,40.693890,-22.933008,44.337978,-23.442892
4.475000,-97.713226,-2.181558,40.248898,-22.749830,43.785084,-23.209608
4.481250,-93.719383,-2.185437,40.155106,-22.523115,42.364040,-22.878584
4.487500,-87.825439,-2.189312,40.071274,-22.284578,41.602768,-22.496170
4.493750,-81.925980,-2.192897,39.807022,-22.055677,41.202732,-22.092207
4.500000,-76.027443,-2.197370,39.297768,-21.847340,40.945896,-21.688156
4.506250,-70.132050,-2.203436,38.517090,-21.660076,40.623669,-21.298719
4.512500,-64.230927,-2.209887,37.458622,-21.481430,40.017967,-20.933002
4.518750,-58.317146,-2.215298,36.122395,-21.258081,38.882614,-20.601145
4.525000,-52.394337,-2.219774,34.529049,-21.072273,36.900059,-20.338156
4.531250,-46.472275,-2.224515,33.778553,-20.934196,33.621693,-20.132437
4.537500,-40.552299,-2.229877,33.357025,-20.800673,30.413801,-19.961901
4.543750,-34.626446,-2.235024,31.852926,-20.660217,25.773512,-19.837152
4.550000,-28.692129,-2.239166,30.994070,-20.539757,20.027205,-19.735229
4.556250,-22.752361,-2.242398,30.489452,-20.461870,13.572698,-19.714413
4.562500,-16.811111,-2.245117,30.118694,-20.445704,7.125902,-19.792631
4.568750,-10.868791,-2.247341,29.659389,-20.517313,0.666226,-19.968061
4.575000,-4.923911,-2.248750,28.882462,-20.732738,-5.627629,-20.185118
4.581250,1.024573,-2.248936,27.602682,-21.015648,-11.440056,-20.457333
4.587500,6.973433,-2.247879,24.558012,-21.382460,-16.262041,-20.796619
4.593750,12.920285,-2.245867,22.617588,-21.854633,-19.911545,-21.195881
4.600000,18.863394,-2.243041,19.905987,-22.433327,-22.341425,-21.634546
4.606250,24.802708,-2.239176,16.300529,-23.187801,-23.694839,-22.123989
4.612500,30.737095,-2.234373,12.737646,-23.979088,-24.241951,-22.654888
4.618750,36.661705,-2.229593,8.554648,-24.842607,-24.049458,-23.204603
4.625000,42.573906,-2.225587,4.107416,-25.758392,-23.403688,-23.757303
4.631250,48.479881,-2.221754,-0.317724,-26.692827,-22.623978,-24.299934
4.637500,54.384590,-2.217086,-4.458151,-27.602924,-22.072622,-24.815292
4.643750,60.284534,-2.212118,-8.065775,-28.435883,-22.113701,-25.268726
4.650000,66.170944,-2.208415,-12.833662,-29.130692,-23.098427,-25.611727
4.656250,72.042786,-2.206802,-14.897523,-29.659592,-25.407452,-25.852146
4.662500,77.908913,-2.206784,-16.306828,-30.014128,-27.615061,-26.011536
4.668750,83.774002,-2.208037,-16.925896,-30.164047,-31.098125,-26.063225
4.675000,89.638863,-2.210810,-16.778748,-30.096724,-35.620045,-25.999054
4.681250,93.609802,-2.214924,-15.998541,-29.814907,-40.974167,-25.819811
4.687500,97.312172,-2.219754,-14.785600,-29.342432,-46.937397,-25.536631
4.693750,100.212357,-2.225611,-13.385695,-28.717287,-53.241482,-25.161345
4.700000,101.814888,-2.233418,-12.094201,-27.967413,-59.541660,-24.696114
4.706250,101.695427,-2.242955,-11.394197,-27.097578,-65.469604,-24.133488
4.712500,99.524307,-2.252440,-11.533945,-26.149652,-70.586662,-23.526661
4.718750,95.068398,-2.260664,-12.857144,-25.198986,-76.304565,-22.931877
