Anritsu VNA Frequency[GHz],S21[deg],S21[dB],S11[deg],S11[dB],S22[deg],S22[dB]
1338055977.67,2012_05_26_19:12:57,+59.974,+163.78,+145.83,+164.11,+169.61,+171.81,+166.64,+168.35,155.517929,-5.933
3.006250,44.550804,-2.429314,69.018883,-27.387207,-77.166573,-28.293537
3.012500,44.550804,-2.429314,69.018883,-27.387207,-77.166573,-28.293537
3.018750,44.550804,-2.429314,69.018883,-27.387207,-77.166573,-28.293537
3.025000,44.550804,-2.429314,69.018883,-27.387207,-77.166573,-28.293537
3.031250,44.550804,-2.429314,69.018883,-27.387207,-77.166573,-28.293537
3.037500,44.550804,-2.429314,69.018883,-27.387207,-77.166573,-28.293537
3.043750,44.550804,-2.429314,69.018883,-27.387207,-77.166573,-28.293537
3.050000,44.550804,-2.429314,69.018883,-27.387207,-77.166573,-28.293537
3.056250,44.550804,-2.429314,69.018883,-27.387207,-77.166573,-28.293537
3.062500,44.550804,-2.429314,69.018883,-27.387207,-77.166573,-28.293537
3.068750,44.550804,-2.429314,69.018883,-27.387207,-77.166573,-28.293537
3.075000,44.550804,-2.429314,69.018883,-27.387207,-77.166573,-28.293537
3.081250,44.550804,-2.429314,69.018883,-27.387207,-77.166573,-28.293537
3.087500,44.550804,-2.429314,69.018883,-27.387207,-77.166573,-28.293537
3.093750,44.550804,-2.431581,69.018883,-27.197739,-77.166573,-28.121107
3.100000,50.482056,-2.434224,65.292839,-27.031506,-77.460991,-27.930485
3.106250,56.413200,-2.437054,60.671917,-26.914200,-76.928314,-27.722160
3.112500,62.345470,-2.439950,53.789055,-26.861794,-75.299095,-27.481867
3.118750,68.277672,-2.442975,46.786018,-26.888334,-72.356201,-27.179098
3.125000,74.209450,-2.446130,40.133904,-26.894905,-68.069511,-26.851860
3.131250,80.140701,-2.449405,33.788864,-26.923090,-62.512150,-26.496016
3.137500,86.070801,-2.453018,27.782413,-26.981833,-55.365108,-26.099672
3.143750,91.999771,-2.457135,22.389423,-27.069218,-46.675362,-25.671225
3.150000,96.033974,-2.461579,17.897226,-27.173872,-38.453331,-25.225954
3.156250,99.797989,-2.465872,14.538089,-27.282471,-29.218742,-24.784651
3.162500,102.758141,-2.469878,12.499757,-27.379848,-19.681595,-24.371012
3.168750,104.421120,-2.473870,11.918998,-27.451817,-10.522310,-24.017454
3.175000,104.358109,-2.478084,12.909660,-27.480455,-2.347642,-23.747509
3.181250,102.229568,-2.482378,13.764390,-27.448883,4.709830,-23.491049
3.187500,97.800240,-2.486542,16.206427,-27.368011,9.998713,-23.285917
3.193750,90.948753,-2.490477,19.541813,-27.244087,13.202105,-23.154482
3.200000,81.674576,-2.494140,23.172178,-27.082006,14.348803,-23.107632
3.206250,70.099045,-2.497460,26.608185,-26.889509,13.491837,-23.142052
3.212500,56.458031,-2.500552,29.409843,-26.678329,10.771881,-23.259993
3.218750,41.090973,-2.503722,31.208790,-26.461380,6.477598,-23.482231
3.225000,24.425283,-2.506882,33.907700,-26.241474,0.777556,-23.713165
3.231250,6.955783,-2.509631,35.972233,-26.017853,-6.192311,-23.963493
3.237500,-10.785719,-2.512016,35.841591,-25.795296,-13.710198,-24.235971
3.243750,-28.256594,-2.514554,35.492477,-25.567024,-19.648218,-24.513269
3.250000,-44.925228,-2.517613,34.748516,-25.329290,-25.461128,-24.773907
3.256250,-60.296291,-2.520947,33.204796,-25.129467,-30.529448,-25.004616
3.262500,-73.939644,-2.523993,30.750227,-24.956606,-34.318008,-25.195707
3.268750,-85.515465,-2.526663,27.358610,-24.804361,-36.319542,-25.335352
3.275000,-94.789848,-2.529327,22.860256,-24.671577,-36.158585,-25.417316
3.281250,-101.642921,-2.532383,17.089165,-24.551781,-33.607315,-25.440588
3.287500,-106.073341,-2.535857,9.914393,-24.434624,-28.613449,-25.410629
3.293750,-108.200096,-2.539506,3.429137,-24.300680,-21.301142,-25.329491
3.300000,-108.258842,-2.543025,-3.758697,-24.115488,-11.917158,-25.196812
3.306250,-106.590706,-2.546363,-11.640332,-23.976973,-0.834254,-25.029202
3.312500,-103.623077,-2.549482,-19.676397,-23.852757,11.423326,-24.851931
3.318750,-99.849319,-2.552502,-27.330891,-23.740189,24.248793,-24.688961
3.325000,-95.802467,-2.555442,-34.340500,-23.648977,37.011768,-24.556599
3.331250,-89.859406,-2.558074,-40.474247,-23.593906,51.252380,-24.463999
3.337500,-83.915085,-2.560275,-45.563606,-23.601753,64.987282,-24.416531
3.343750,-77.970078,-2.562088,-49.501362,-23.753958,78.143166,-24.412167
3.350000,-72.025513,-2.563533,-52.336987,-23.895708,88.786575,-24.429064
3.356250,-66.081421,-2.564650,-54.785446,-24.110504,98.510979,-24.445471
3.362500,-60.138683,-2.565511,-54.303818,-24.440763,106.300232,-24.538399
3.368750,-54.197350,-2.566090,-52.690369,-24.887779,111.838226,-24.685997
3.375000,-48.256546,-2.566157,-49.869179,-25.434481,114.810196,-24.899179
3.381250,-42.317318,-2.565693,-45.895233,-26.052881,114.950935,-25.174412
3.387500,-36.382618,-2.565309,-40.914886,-26.710052,112.521507,-25.445951
3.393750,-30.453901,-2.565502,-35.146492,-27.366516,107.337997,-25.727074
3.400000,-24.528387,-2.566137,-28.850609,-27.978996,99.622803,-25.973888
3.406250,-18.602659,-2.566605,-22.364971,-28.517780,90.146080,-26.257095
3.412500,-12.677162,-2.567123,-16.060480,-28.959257,79.952431,-26.544300
3.418750,-6.755589,-2.568269,-9.947677,-29.277573,69.569405,-26.803818
3.425000,-0.837541,-2.570335,-4.037917,-29.459091,57.784126,-27.022387
3.431250,5.081470,-2.572654,1.383094,-29.502800,46.937061,-27.195782
3.437500,11.004196,-2.574860,6.087473,-29.410910,37.487061,-27.329233
3.443750,16.927353,-2.577530,10.030091,-29.161604,29.961836,-27.382933
3.450000,22.848242,-2.581138,13.054925,-28.781910,22.898355,-27.357821
3.456250,28.771103,-2.585153,15.028851,-28.305849,17.996616,-27.266953
3.462500,34.701336,-2.588752,16.066050,-27.771091,14.912156,-27.113838
3.468750,40.637341,-2.591663,16.410709,-27.217295,13.310145,-26.896984
3.475000,46.574268,-2.594338,16.356964,-26.688643,12.838162,-26.624638
3.481250,52.509682,-2.597054,16.253925,-26.217989,13.099803,-26.312141
3.487500,58.444092,-2.599902,14.874930,-25.773792,13.694916,-25.958841
3.493750,64.377716,-2.603077,14.105713,-25.401716,14.223392,-25.567173
3.500000,70.311005,-2.606628,13.689325,-25.123699,14.253718,-25.148643
3.506250,76.246407,-2.610131,13.579279,-24.941099,13.433280,-24.715183
3.512500,82.185425,-2.612995,13.733398,-24.840275,11.486977,-24.278379
3.518750,88.125603,-2.615527,14.122421,-24.784843,8.216502,-23.846087
3.525000,94.061089,-2.618693,14.714416,-24.664228,3.484061,-23.425039
3.531250,98.096855,-2.622957,15.562145,-24.615595,-0.645387,-23.027380
3.537500,101.860451,-2.627725,17.380291,-24.561441,-5.602583,-22.669041
3.543750,104.823746,-2.632231,19.612276,-24.476082,-10.914311,-22.369949
3.550000,106.492989,-2.636687,22.422054,-24.348173,-16.236439,-22.098860
3.556250,106.436844,-2.641674,24.152771,-24.158968,-21.326260,-21.830458
3.562500,104.316528,-2.647120,26.522888,-23.925940,-25.712336,-21.578730
3.568750,99.900696,-2.652046,28.998117,-23.674414,-29.697521,-21.421207
3.575000,93.069908,-2.655809,31.161257,-23.430939,-33.126705,-21.346912
3.581250,83.819870,-2.658444,32.628262,-23.226120,-36.086967,-21.378963
3.587500,72.267632,-2.660508,33.056190,-23.093275,-37.059551,-21.481619
3.593750,58.648495,-2.662161,32.208225,-23.051651,-38.405479,-21.643267
3.600000,43.306328,-2.663000,32.181801,-23.092848,-39.582851,-21.889959
3.606250,26.669571,-2.662547,31.437986,-23.232012,-40.538727,-22.219990
3.612500,9.227282,-2.661122,30.311693,-23.471228,-41.326736,-22.612892
3.618750,-8.492349,-2.659185,29.228979,-23.806044,-42.068367,-23.035139
3.625000,-25.942841,-2.656709,28.441738,-24.258974,-43.074764,-23.504984
3.631250,-42.589741,-2.653417,28.321899,-24.805489,-42.505405,-24.005043
3.637500,-57.942692,-2.649643,29.266724,-25.409964,-41.747997,-24.502628
3.643750,-71.578873,-2.646073,29.564520,-26.035086,-40.515034,-24.974163
3.650000,-83.158241,-2.643165,30.886343,-26.639904,-38.640472,-25.399824
3.656250,-92.441086,-2.640844,32.652325,-27.171677,-36.033474,-25.760826
3.662500,-99.303810,-2.639181,34.188282,-27.587645,-32.652828,-26.044977
3.668750,-103.746239,-2.638321,36.646809,-27.918066,-28.556284,-26.253719
3.675000,-105.889084,-2.638273,38.084156,-28.125635,-23.874163,-26.390398
3.681250,-105.966896,-2.638659,38.495033,-28.194489,-18.753403,-26.455460
3.687500,-104.320068,-2.639464,37.757835,-28.126600,-13.400002,-26.451897
3.693750,-101.378624,-2.641366,35.803379,-27.941189,-8.068579,-26.388058
3.700000,-97.634438,-2.644513,32.651161,-27.673563,-3.025259,-26.277742
3.706250,-93.614449,-2.648174,28.511635,-27.318237,1.513467,-26.131290
3.712500,-87.693779,-2.651673,23.683207,-26.905113,5.430524,-25.943783
3.718750,-81.770668,-2.655255,16.327093,-26.478939,8.617669,-25.718479
3.725000,-75.848633,-2.659472,8.369346,-26.069038,10.993963,-25.455053
3.731250,-69.925529,-2.663947,-0.356502,-25.702148,12.755327,-25.197510
3.737500,-63.997158,-2.668025,-7.894343,-25.420462,14.316223,-24.974474
3.743750,-58.064720,-2.671600,-15.663453,-25.232170,15.782764,-24.797428
3.750000,-52.131622,-2.675053,-23.083460,-25.128017,17.564121,-24.653578
3.756250,-46.199615,-2.678347,-29.714211,-25.100294,18.481165,-24.500816
3.762500,-40.266544,-2.681313,-35.209332,-25.135719,20.434029,-24.333244
3.768750,-34.333530,-2.684064,-39.222809,-25.205633,21.241026,-24.194298
3.775000,-28.401806,-2.686946,-41.516781,-25.289581,22.754934,-24.106264
3.781250,-22.470999,-2.689859,-42.068737,-25.393150,24.186707,-24.045500
3.787500,-16.539310,-2.692429,-40.754551,-25.494267,25.187840,-24.000320
3.793750,-10.607641,-2.694834,-39.368576,-25.583021,25.500319,-23.969324
3.800000,-4.678007,-2.697533,-36.360264,-25.668465,24.945200,-23.951244
3.806250,1.249567,-2.700522,-32.090023,-25.654711,23.503723,-23.917713
3.812500,7.177575,-2.703712,-27.326563,-25.582069,21.214651,-23.856533
3.818750,13.105392,-2.707185,-22.948940,-25.470722,17.982212,-23.775244
3.825000,19.032379,-2.711103,-17.307465,-25.333807,13.900295,-23.677441
3.831250,24.961727,-2.715067,-12.197678,-25.183508,9.219369,-23.568264
3.837500,30.894236,-2.718667,-7.463970,-25.032728,4.277653,-23.460835
3.843750,36.827694,-2.722228,-2.892918,-24.889072,-0.558330,-23.382027
3.850000,42.759258,-2.726234,1.807861,-24.744949,-4.701190,-23.260952
3.856250,48.690666,-2.730360,4.987881,-24.604322,-9.556401,-23.126411
3.862500,54.625240,-2.733979,8.434813,-24.472265,-13.420728,-22.998596
3.868750,60.560497,-2.737429,11.834815,-24.344688,-16.399157,-22.881838
3.875000,66.491447,-2.741703,14.895065,-24.206486,-18.616194,-22.772467
3.881250,72.417953,-2.747185,17.321663,-24.028971,-20.234413,-22.659035
3.887500,78.346886,-2.753035,18.698969,-23.833857,-21.492735,-22.533510
3.893750,84.282463,-2.758445,18.586246,-23.617043,-22.739950,-22.403780
3.900000,90.221275,-2.763862,19.069475,-23.360498,-24.306751,-22.268894
3.906250,94.263283,-2.770051,18.579411,-23.058636,-26.470808,-22.126135
3.912500,98.030411,-2.777341,17.402168,-22.712301,-29.554998,-21.972242
3.918750,100.996300,-2.785260,15.823913,-22.325602,-33.877037,-21.801077
3.925000,102.672203,-2.793096,14.065274,-21.914600,-37.852760,-21.598185
3.931250,102.630692,-2.800599,12.285456,-21.503792,-43.411205,-21.373852
3.937500,100.530113,-2.807679,10.664505,-21.115433,-48.386307,-21.180773
3.943750,96.131958,-2.814323,9.385566,-20.771570,-53.688473,-21.019981
3.950000,89.315659,-2.820131,8.568570,-20.493271,-58.422344,-20.899717
3.956250,80.082100,-2.824565,8.263097,-20.299358,-61.856529,-20.832243
3.962500,68.551010,-2.827280,8.471446,-20.202446,-63.347370,-20.829714
3.968750,54.956020,-2.828539,9.176787,-20.206076,-62.357368,-20.900911
3.975000,39.634640,-2.828535,10.613256,-20.298067,-60.384556,-21.055428
3.981250,23.012564,-2.827309,12.980297,-20.446310,-55.573853,-21.326067
3.987500,5.581373,-2.824919,15.816309,-20.731071,-48.320930,-21.642660
3.993750,-12.128222,-2.821586,19.069300,-21.092201,-38.956608,-22.041855
4.000000,-29.570499,-2.817524,22.708529,-21.513119,-28.523897,-22.537001
4.006250,-46.213257,-2.812719,26.390888,-21.985327,-17.607193,-23.134405
4.012500,-61.565578,-2.807418,29.892744,-22.489748,-6.868262,-23.882071
4.018750,-75.202293,-2.802305,33.038181,-23.001715,2.618319,-24.584852
4.025000,-86.783829,-2.797867,35.647190,-23.498121,12.021698,-25.267683
4.031250,-96.070168,-2.793990,35.602448,-23.971626,19.084932,-25.993837
4.037500,-102.936928,-2.790537,36.530457,-24.408783,25.551376,-26.726601
4.043750,-107.385597,-2.788080,36.496532,-24.794037,30.150917,-27.428864
4.050000,-109.537033,-2.786783,35.475365,-25.120604,33.265388,-28.075527
4.056250,-109.624588,-2.786057,33.496040,-25.385921,35.334751,-28.648857
4.062500,-107.984909,-2.785269,30.729353,-25.569199,34.988205,-29.127548
4.068750,-105.049728,-2.784958,27.391758,-25.668617,34.474716,-29.482370
4.075000,-101.316376,-2.786376,23.617081,-25.698540,33.812527,-29.704741
4.081250,-97.313828,-2.789351,19.698778,-25.669767,33.021881,-29.793381
4.087500,-91.411652,-2.792704,16.020046,-25.589273,32.235519,-29.745260
4.093750,-85.500290,-2.795444,11.116136,-25.461210,31.657551,-29.559792
4.100000,-79.587547,-2.798159,7.024508,-25.293730,31.511629,-29.245762
4.106250,-73.679054,-2.801802,3.632163,-25.093645,29.862612,-28.826357
4.112500,-67.772552,-2.806275,0.871008,-24.860868,28.319956,-28.320637
4.118750,-61.863613,-2.811215,-1.336522,-24.596577,26.850554,-27.702208
4.125000,-55.951744,-2.816603,-3.171243,-24.312346,25.098454,-27.016148
4.131250,-50.037815,-2.822600,-4.795215,-24.019892,22.760298,-26.299839
4.137500,-44.120434,-2.828828,-6.311769,-23.726913,19.755777,-25.583109
4.143750,-38.197273,-2.834926,-7.788105,-23.436588,16.075861,-24.889242
4.150000,-32.270195,-2.840985,-9.296025,-23.151285,11.744320,-24.237385
4.156250,-26.341700,-2.847253,-8.750231,-22.871662,8.985723,-23.636143
4.162500,-20.411940,-2.853894,-7.594429,-22.597322,6.520954,-23.065044
4.168750,-14.479286,-2.860728,-7.318762,-22.325191,4.795990,-22.617105
4.175000,-8.542841,-2.867664,-5.949020,-22.051809,2.369332,-22.231621
4.181250,-2.602831,-2.874602,-3.825996,-21.791395,1.446257,-21.923395
4.187500,3.341848,-2.881237,-1.279382,-21.552500,1.728509,-21.681288
4.193750,9.291112,-2.887475,1.378628,-21.343302,3.010461,-21.423340
4.200000,15.244289,-2.893216,3.824376,-21.170956,5.509409,-21.313011
4.206250,21.200523,-2.898183,5.745211,-21.042955,6.941025,-21.298321
4.212500,27.159615,-2.902090,9.031440,-20.962854,8.095544,-21.338743
4.218750,33.119148,-2.905196,12.118008,-20.923349,9.844638,-21.394489
4.225000,39.075958,-2.907843,15.334205,-20.915722,10.251774,-21.484245
4.231250,45.028606,-2.910300,17.037937,-20.930889,9.254979,-21.605238
4.237500,50.979202,-2.912530,19.078028,-20.956968,6.726119,-21.741404
4.243750,56.927498,-2.914394,21.030100,-21.006008,4.696069,-21.881750
4.250000,62.874866,-2.915909,22.459454,-21.076073,1.634952,-22.028749
4.256250,68.820358,-2.916944,23.086874,-21.148720,-1.981453,-22.170702
4.262500,74.761818,-2.917799,22.551222,-21.207783,-5.637012,-22.292646
4.268750,80.697098,-2.919094,20.503014,-21.240324,-8.890101,-22.379936
4.275000,86.625137,-2.921458,18.803377,-21.239326,-11.355650,-22.420893
4.281250,92.550232,-2.924564,15.823885,-21.196154,-12.712026,-22.404154
4.287500,96.581482,-2.927999,11.840651,-21.101049,-12.704659,-22.310259
4.293750,100.338966,-2.932319,7.085896,-20.959360,-11.235312,-22.134132
4.300000,103.288757,-2.938033,1.761104,-20.781855,-8.598757,-21.927979
4.306250,104.943459,-2.944472,-3.825547,-20.571157,-4.817961,-21.682434
4.312500,104.882652,-2.950464,-9.389021,-20.333475,0.021157,-21.399364
4.318750,102.764282,-2.955880,-14.693442,-20.078150,5.621178,-21.088270
4.325000,98.343781,-2.961690,-19.550858,-19.820978,11.616935,-20.764471
4.331250,91.498642,-2.968130,-23.820219,-19.580132,17.610813,-20.444693
4.337500,82.234711,-2.974516,-27.379951,-19.377184,23.220535,-20.141708
4.343750,70.678009,-2.979962,-30.163359,-19.275623,28.086655,-19.853472
4.350000,57.062489,-2.984481,-29.877142,-19.154495,31.883486,-19.585146
4.356250,41.725716,-2.988189,-29.487789,-19.113529,36.087509,-19.401758
4.362500,25.094580,-2.990622,-27.491627,-19.175570,39.256691,-19.305805
4.368750,7.661180,-2.991751,-23.827375,-19.340479,41.763229,-19.317854
4.375000,-10.047083,-2.992104,-18.615940,-19.601608,43.935314,-19.497805
4.381250,-27.486204,-2.991926,-12.081635,-19.944828,45.728756,-19.698927
4.387500,-44.120663,-2.990701,-4.516805,-20.348236,47.530994,-19.960348
4.393750,-59.457184,-2.988312,3.701642,-20.790672,50.021248,-20.306412
4.400000,-73.075394,-2.985633,12.120563,-21.256931,51.651745,-20.759619
4.406250,-84.636292,-2.983155,18.394287,-21.730930,53.705627,-21.279858
4.412500,-93.899117,-2.980411,25.918142,-22.195124,55.827518,-21.838993
4.418750,-100.740410,-2.977095,32.454044,-22.634966,57.777882,-22.413519
4.425000,-105.163300,-2.973864,37.741169,-23.023066,59.394794,-22.975422
4.431250,-107.293098,-2.971400,41.715626,-23.320196,60.636448,-23.477018
4.437500,-107.363396,-2.969409,44.183105,-23.528662,61.406425,-23.897833
4.443750,-105.711319,-2.967619,45.102394,-23.654438,61.589031,-24.226040
4.450000,-102.766350,-2.966681,44.653336,-23.698660,61.243805,-24.448690
4.456250,-99.023514,-2.967351,43.122250,-23.662151,60.509403,-24.557135
4.462500,-95.010796,-2.969269,40.881073,-23.550261,59.550007,-24.548985
4.468750,-89.100014,-2.971673,38.390373,-23.374165,58.565048,-24.429955
4.475000,-83.185905,-2.974635,34.266804,-23.152681,57.790546,-24.222036
4.481250,-77.272400,-2.978516,30.712616,-22.886400,57.577751,-23.903740
4.487500,-71.356880,-2.982985,27.798658,-22.583868,56.491123,-23.488125
4.493750,-65.437057,-2.987497,25.390041,-22.274157,56.146999,-23.018040
4.500000,-59.515224,-2.992657,23.431465,-21.979342,56.240986,-22.525881
4.506250,-53.594921,-2.999210,21.933153,-21.712107,56.527683,-22.037148
4.512500,-47.670830,-3.006553,20.907173,-21.474747,56.761871,-21.571644
4.518750,-41.734951,-3.013253,20.340715,-21.255255,56.683678,-21.145538
4.525000,-35.788010,-3.018675,20.188105,-20.982239,56.005978,-20.779108
4.531250,-29.837706,-3.023782,20.208065,-20.795002,54.374401,-20.522167
4.537500,-23.889500,-3.029292,21.854195,-20.657820,51.234428,-20.317511
4.543750,-17.938641,-3.034757,22.333105,-20.534391,48.049362,-20.184002
4.550000,-11.980486,-3.039395,23.542934,-20.426516,43.310162,-20.123291
4.556250,-6.015875,-3.042985,24.970633,-20.356958,37.262383,-20.072718
4.562500,-0.048734,-3.045882,26.242508,-20.345856,30.619898,-20.177464
4.568750,5.919149,-3.048257,27.039789,-20.414734,23.778465,-20.400101
4.575000,11.888368,-3.049954,27.076450,-20.594858,16.837473,-20.727312
4.581250,17.860949,-3.050563,26.105215,-20.945543,9.661621,-21.078651
4.587500,23.834690,-3.049954,24.990519,-21.325371,3.167430,-21.497074
4.593750,29.807392,-3.048285,23.222191,-21.814810,-2.325983,-21.984159
4.600000,35.776501,-3.045892,20.775055,-22.421127,-6.677502,-22.525869
4.606250,41.740894,-3.042755,17.697443,-23.155714,-9.875116,-23.107649
4.612500,47.700512,-3.038823,14.019908,-23.996899,-12.049209,-23.728741
4.618750,53.652832,-3.034754,10.118623,-24.902796,-13.301890,-24.367075
4.625000,59.594818,-3.031291,5.979404,-25.856430,-13.768960,-25.003548
4.631250,65.529808,-3.028116,1.749816,-26.827454,-13.690084,-25.623026
4.637500,71.463013,-3.024313,-2.359519,-27.777451,-13.361870,-26.213953
4.643750,77.393440,-3.019870,-8.020373,-28.659662,-13.117767,-26.751966
4.650000,83.313004,-3.016132,-13.403575,-29.422981,-13.339128,-27.194815
4.656250,89.217522,-3.014319,-16.720610,-30.017099,-14.366467,-27.507217
4.662500,95.112862,-3.014291,-19.789055,-30.420551,-16.613407,-27.712957
4.668750,99.111694,-3.015464,-22.618116,-30.622068,-18.516333,-27.816408
4.675000,102.837502,-3.017854,-25.064369,-30.604382,-21.588585,-27.800617
4.681250,105.757095,-3.021653,-27.054752,-30.363853,-25.629591,-27.660194
4.687500,107.380989,-3.026383,-28.610863,-29.916193,-30.466095,-27.400652
4.693750,107.282585,-3.032061,-29.810814,-29.294987,-35.902000,-27.034206
4.700000,105.119606,-3.039246,-30.755621,-28.550140,-41.673828,-26.570208
4.706250,100.655174,-3.048383,-31.676544,-27.694635,-47.474834,-26.011639
4.712500,93.775497,-3.058217,-33.017529,-26.749722,-52.970680,-25.342844
4.718750,84.487450,-3.067230,-34.770691,-25.771536,-57.597576,-24.665276
