Anritsu VNA Frequency[GHz],S21[deg],S21[dB],S11[deg],S11[dB],S22[deg],S22[dB]
1338069737.86,2012_05_26_23:02:17,+41.939,+49.226,+61.025,+49.325,+55.250,+56.399,+55.771,+55.972,54.138817,-13.525
3.006250,36.695477,-1.961875,61.902142,-26.842535,-85.645325,-27.952883
3.012500,36.695477,-1.961875,61.902142,-26.842535,-85.645325,-27.952883
3.018750,36.695477,-1.961875,61.902142,-26.842535,-85.645325,-27.952883
3.025000,36.695477,-1.961875,61.902142,-26.842535,-85.645325,-27.952883
3.031250,36.695477,-1.961875,61.902142,-26.842535,-85.645325,-27.952883
3.037500,36.695477,-1.961875,61.902142,-26.842535,-85.645325,-27.952883
3.043750,36.695477,-1.961875,61.902142,-26.842535,-85.645325,-27.952883
3.050000,36.695477,-1.961875,61.902142,-26.842535,-85.645325,-27.952883
3.056250,36.695477,-1.961875,61.902142,-26.842535,-85.645325,-27.952883
3.062500,36.695477,-1.961875,61.902142,-26.842535,-85.645325,-27.952883
3.068750,36.695477,-1.961875,61.902142,-26.842535,-85.645325,-27.952883
3.075000,36.695477,-1.961875,61.902142,-26.842535,-85.645325,-27.952883
3.081250,36.695477,-1.961875,61.902142,-26.842535,-85.645325,-27.952883
3.087500,36.695477,-1.961875,61.902142,-26.842535,-85.645325,-27.952883
3.093750,36.695477,-1.963926,61.902142,-26.641846,-85.645325,-27.636263
3.100000,42.608360,-1.966316,58.955536,-26.482805,-85.358574,-27.348047
3.106250,48.521561,-1.968808,55.142864,-26.393137,-84.237526,-27.094685
3.112500,54.435596,-1.971359,50.871525,-26.389378,-82.010506,-26.852074
3.118750,60.348793,-1.974095,44.741489,-26.433010,-78.425545,-26.464270
3.125000,66.261337,-1.977000,39.752968,-26.469398,-73.323280,-26.182955
3.131250,72.173676,-1.979997,35.252197,-26.531425,-67.300964,-25.877266
3.137500,78.085297,-1.983321,31.460329,-26.622217,-59.588604,-25.535011
3.143750,83.995178,-1.987213,28.580639,-26.734426,-50.339943,-25.164162
3.150000,89.905708,-1.991385,26.787619,-26.854126,-39.702229,-24.777105
3.156250,95.819641,-1.995359,26.198483,-26.966879,-27.841553,-24.392887
3.162500,99.841072,-1.999006,26.874577,-27.058889,-16.846294,-24.034964
3.168750,103.589638,-2.002696,28.825876,-27.119799,-5.300808,-23.746340
3.175000,106.531639,-2.006672,32.082897,-27.131422,6.091311,-23.495745
3.181250,108.176186,-2.010652,34.862331,-27.079132,17.241867,-23.263792
3.187500,108.098389,-2.014453,38.683182,-26.978029,26.969419,-23.084259
3.193750,105.957069,-2.018001,42.818882,-26.838736,34.917149,-22.976126
3.200000,101.514343,-2.021212,46.679588,-26.669071,40.859535,-22.943504
3.206250,94.648590,-2.024030,49.774685,-26.479244,44.628643,-22.986156
3.212500,85.358467,-2.026666,51.684235,-26.282547,46.147449,-23.110832
3.218750,73.763725,-2.029449,52.093239,-26.090660,45.450027,-23.313356
3.225000,60.102829,-2.032148,52.993546,-25.900377,42.389500,-23.522036
3.231250,44.718678,-2.034338,52.935036,-25.711060,37.302113,-23.750532
3.237500,28.037176,-2.036186,50.435860,-25.524029,32.437569,-23.993124
3.243750,10.546062,-2.038291,47.608139,-25.321344,26.360245,-24.228943
3.250000,-7.221890,-2.040956,44.348019,-25.131517,19.769684,-24.437817
3.256250,-24.716688,-2.043781,40.299305,-24.978067,13.283282,-24.615026
3.262500,-41.402828,-2.046297,35.676689,-24.843758,7.510547,-24.749954
3.268750,-56.789684,-2.048454,30.450926,-24.724222,3.077329,-24.833082
3.275000,-70.453400,-2.050667,24.510643,-24.618488,0.457912,-24.862089
3.281250,-82.054054,-2.053299,17.756746,-24.518276,0.000756,-24.841736
3.287500,-91.353104,-2.056286,10.100073,-24.410765,1.892683,-24.782799
3.293750,-98.226334,-2.059353,1.496324,-24.263195,6.156856,-24.687172
3.300000,-102.673080,-2.062339,-5.904726,-24.095966,12.707174,-24.554972
3.306250,-104.814743,-2.065044,-14.393044,-23.967020,21.285685,-24.409758
3.312500,-104.889114,-2.067555,-22.874084,-23.851130,31.481277,-24.281143
3.318750,-103.238098,-2.069959,-31.031944,-23.752724,42.799393,-24.190611
3.325000,-100.288422,-2.072160,-38.604778,-23.687151,54.697060,-24.150713
3.331250,-96.531731,-2.074051,-45.340214,-23.678213,66.596527,-24.166365
3.337500,-92.501289,-2.075533,-51.051273,-23.777924,77.884651,-24.237877
3.343750,-86.575706,-2.076672,-55.634174,-23.928532,90.143982,-24.354650
3.350000,-80.650543,-2.077446,-59.789619,-24.125013,99.620049,-24.471758
3.356250,-74.726181,-2.077869,-62.898682,-24.414446,107.949097,-24.618662
3.362500,-68.803238,-2.078157,-63.256943,-24.823301,113.960312,-24.825304
3.368750,-62.882591,-2.078181,-62.568569,-25.338100,117.757607,-25.076172
3.375000,-56.962406,-2.077614,-60.719879,-25.935089,118.975792,-25.397800
3.381250,-51.044079,-2.076655,-57.737846,-26.582424,117.452110,-25.718502
3.387500,-45.131420,-2.076001,-53.725075,-27.243614,113.748032,-26.024727
3.393750,-39.225372,-2.076064,-48.851604,-27.876558,107.413727,-26.316574
3.400000,-33.321861,-2.076576,-43.341473,-28.439133,98.950897,-26.573940
3.406250,-27.417469,-2.076854,-37.519917,-28.908794,89.364510,-26.845066
3.412500,-21.513340,-2.077264,-31.720945,-29.262245,79.364441,-27.092714
3.418750,-15.613893,-2.078549,-25.906199,-29.477015,67.538757,-27.293827
3.425000,-9.717514,-2.080774,-20.085672,-29.546904,56.171452,-27.441261
3.431250,-3.818526,-2.083199,-14.549493,-29.481283,45.692280,-27.538719
3.437500,2.084620,-2.085511,-9.512179,-29.273994,36.551598,-27.592953
3.443750,7.987482,-2.088380,-4.953996,-28.913647,29.377872,-27.552525
3.450000,13.888967,-2.092226,-1.218798,-28.442238,22.529411,-27.441650
3.456250,19.794092,-2.096368,1.610776,-27.896646,17.745258,-27.273945
3.462500,25.707636,-2.099903,3.645169,-27.318027,14.719193,-27.052559
3.468750,31.626556,-2.102769,5.094145,-26.749895,13.133230,-26.775440
3.475000,37.546104,-2.105425,6.202827,-26.247786,12.642481,-26.454903
3.481250,43.464939,-2.107932,7.312873,-25.795544,12.852675,-26.106834
3.487500,49.383141,-2.110538,7.288084,-25.396013,13.389739,-25.726139
3.493750,55.300091,-2.113470,7.650939,-25.089815,13.834880,-25.318092
3.500000,61.216393,-2.116757,8.261983,-24.886507,13.758117,-24.894337
3.506250,67.135338,-2.119872,9.057298,-24.775482,12.827760,-24.464624
3.512500,73.057922,-2.122159,9.955400,-24.726770,10.776267,-24.038185
3.518750,78.980782,-2.124190,10.901010,-24.666849,7.408080,-23.620239
3.525000,84.898087,-2.127019,11.870634,-24.630875,2.579196,-23.216337
3.531250,90.810463,-2.130893,13.685019,-24.612011,-1.673098,-22.840189
3.537500,96.724968,-2.135051,15.709608,-24.566576,-6.795651,-22.508961
3.543750,100.750000,-2.138906,18.105240,-24.482563,-12.351941,-22.225250
3.550000,104.505028,-2.142851,21.078939,-24.338909,-18.060833,-21.949650
3.556250,107.453087,-2.147470,22.970013,-24.129107,-23.488529,-21.652428
3.562500,109.105774,-2.152434,25.393108,-23.880556,-28.302298,-21.410488
3.568750,109.041710,-2.156660,27.870480,-23.619532,-33.094250,-21.248562
3.575000,106.921524,-2.159599,30.013109,-23.372532,-37.352139,-21.162216
3.581250,102.502686,-2.161450,31.446163,-23.172153,-39.408028,-21.171350
3.587500,95.658607,-2.162923,31.837170,-23.054880,-41.371166,-21.228712
3.593750,86.388748,-2.164019,31.010023,-23.017855,-43.122395,-21.353090
3.600000,74.819038,-2.164105,31.095364,-23.064186,-44.295246,-21.561359
3.606250,61.186996,-2.162938,30.418602,-23.211254,-44.868671,-21.848068
3.612500,45.828613,-2.160857,29.395592,-23.450937,-44.921368,-22.188488
3.618750,29.167141,-2.158430,28.449865,-23.789673,-44.629398,-22.552891
3.625000,11.696474,-2.155474,27.737324,-24.244812,-44.497932,-22.980608
3.631250,-6.049571,-2.151664,27.790968,-24.780928,-42.589764,-23.437353
3.637500,-23.527370,-2.147521,28.947506,-25.362785,-40.400135,-23.893513
3.643750,-40.208641,-2.143733,31.356724,-25.952806,-37.764099,-24.328199
3.650000,-55.600170,-2.140631,33.159653,-26.507698,-34.616699,-24.723642
3.656250,-69.272133,-2.138142,35.918705,-26.961901,-30.944895,-25.062891
3.662500,-80.882462,-2.136419,38.858437,-27.325705,-26.786627,-25.338205
3.668750,-90.194153,-2.135561,42.889534,-27.600502,-22.269451,-25.554852
3.675000,-97.083633,-2.135360,46.286079,-27.752665,-17.538990,-25.713272
3.681250,-101.548256,-2.135420,48.806297,-27.775461,-12.748714,-25.812204
3.687500,-103.711143,-2.135888,50.205147,-27.678831,-8.106890,-25.854355
3.693750,-103.812202,-2.137569,50.319912,-27.487875,-3.845732,-25.848665
3.700000,-102.190681,-2.140388,49.118267,-27.217844,-0.169082,-25.807495
3.706250,-99.267616,-2.143411,46.781960,-26.873819,2.808316,-25.728985
3.712500,-95.533150,-2.146203,43.304520,-26.498642,5.075134,-25.605564
3.718750,-91.524498,-2.149206,36.932720,-26.123976,6.571349,-25.441984
3.725000,-85.622620,-2.152816,29.582806,-25.769634,7.384326,-25.249323
3.731250,-79.719063,-2.156474,21.010269,-25.474205,7.924023,-25.072824
3.737500,-73.809975,-2.159680,13.140743,-25.268869,8.498285,-24.925047
3.743750,-67.898209,-2.162500,4.689831,-25.145575,9.382535,-24.827185
3.750000,-61.987206,-2.165349,-3.761955,-25.092199,11.187025,-24.714792
3.756250,-56.077435,-2.168099,-11.790685,-25.103947,12.694489,-24.589750
3.762500,-50.166653,-2.170619,-18.971180,-25.162762,13.539896,-24.447857
3.768750,-44.255692,-2.173084,-24.855673,-25.232828,15.299413,-24.344414
3.775000,-38.346115,-2.175783,-29.175608,-25.316887,17.632553,-24.272457
3.781250,-32.436882,-2.178568,-31.852098,-25.410276,19.884903,-24.214622
3.787500,-26.526417,-2.181050,-32.525002,-25.488983,21.698614,-24.162685
3.793750,-20.615921,-2.183590,-31.074900,-25.559620,22.782326,-24.118423
3.800000,-14.707328,-2.186503,-29.406523,-25.589573,22.944643,-24.076824
3.806250,-8.799638,-2.189706,-25.269506,-25.525476,22.190901,-24.002264
3.812500,-2.891019,-2.193142,-20.042356,-25.412296,20.440111,-23.897829
3.818750,3.018174,-2.196858,-14.321564,-25.267050,17.582277,-23.773375
3.825000,8.927437,-2.200964,-8.659118,-25.103443,13.740524,-23.634651
3.831250,14.840340,-2.204878,-1.411946,-24.935026,9.173932,-23.490974
3.837500,20.756596,-2.208264,5.586605,-24.775616,4.214545,-23.369667
3.843750,26.672575,-2.211704,12.470183,-24.624283,-0.772255,-23.258013
3.850000,32.586277,-2.215628,17.541943,-24.473356,-6.633054,-23.104656
3.856250,38.500401,-2.219483,22.493393,-24.331537,-11.991563,-22.956972
3.862500,44.418228,-2.222656,26.882402,-24.199411,-16.909300,-22.826200
3.868750,50.335751,-2.225714,30.370371,-24.066172,-21.386633,-22.711372
3.875000,56.247120,-2.229755,32.645340,-23.910339,-25.460388,-22.603226
3.881250,62.154160,-2.235015,33.387970,-23.726215,-29.208517,-22.486296
3.887500,68.064339,-2.240491,32.172131,-23.528368,-32.801697,-22.360712
3.893750,73.981270,-2.245474,28.904810,-23.297491,-36.505352,-22.233564
3.900000,79.900208,-2.250643,25.699757,-23.022364,-40.481876,-22.098326
3.906250,85.816437,-2.256834,21.119276,-22.701607,-44.919182,-21.952465
3.912500,91.732521,-2.264033,15.639572,-22.337019,-48.163498,-21.792360
3.918750,95.759720,-2.271650,9.738157,-21.935081,-52.077991,-21.606855
3.925000,99.522141,-2.279087,3.803013,-21.519993,-56.375023,-21.371912
3.931250,102.487213,-2.286104,-1.826318,-21.118330,-60.940369,-21.154667
3.937500,104.161041,-2.292714,-6.739498,-20.750648,-63.638191,-20.968369
3.943750,104.116020,-2.298675,-10.609110,-20.439592,-65.391747,-20.818949
3.950000,102.012375,-2.303544,-13.210121,-20.206997,-65.600006,-20.718599
3.956250,97.612892,-2.306821,-14.421693,-20.071232,-63.784241,-20.682339
3.962500,90.793602,-2.308370,-14.199417,-20.043081,-59.581299,-20.722424
3.968750,81.550957,-2.308456,-12.551824,-20.121336,-52.741791,-20.847086
3.975000,70.003128,-2.307248,-11.447579,-20.279398,-43.173470,-21.066605
3.981250,56.386795,-2.304752,-7.228386,-20.536762,-30.951967,-21.421844
3.987500,41.040810,-2.301110,-2.723627,-20.915447,-17.785084,-21.809126
3.993750,24.390644,-2.296642,2.596833,-21.358849,-2.710878,-22.296831
4.000000,6.927411,-2.291548,8.182732,-21.860672,13.308912,-22.892195
4.006250,-10.815834,-2.285769,13.654639,-22.406506,29.395863,-23.614067
4.012500,-28.295160,-2.279773,18.733139,-22.976896,44.567905,-24.371983
4.018750,-44.979519,-2.274352,23.140688,-23.529686,57.287968,-25.106678
4.025000,-60.376347,-2.269781,26.676985,-24.051704,69.151268,-25.827768
4.031250,-74.054810,-2.265766,29.293077,-24.535055,78.999039,-26.573362
4.037500,-85.671677,-2.262280,31.124239,-24.960428,85.708893,-27.284342
4.043750,-94.992462,-2.260005,32.080112,-25.314405,89.574333,-27.929821
4.050000,-101.894524,-2.259047,32.072392,-25.595482,90.970161,-28.491428
4.056250,-106.372200,-2.258527,31.098518,-25.796906,90.417030,-28.958603
4.062500,-108.543854,-2.257801,29.328989,-25.898266,86.709587,-29.304440
4.068750,-108.652771,-2.257742,26.851971,-25.913013,82.290215,-29.510250
4.075000,-107.044510,-2.259591,23.793640,-25.858110,77.296829,-29.581860
4.081250,-104.140465,-2.262810,20.454897,-25.746405,72.012436,-29.523706
4.087500,-100.423248,-2.265922,17.215668,-25.585831,66.840889,-29.337172
4.093750,-96.424400,-2.268397,14.493686,-25.384464,60.067291,-29.026987
4.100000,-90.531136,-2.271032,10.812968,-25.154488,53.498989,-28.611582
4.106250,-84.641594,-2.274552,8.242824,-24.902107,47.070000,-28.126892
4.112500,-78.753197,-2.278677,6.724523,-24.621384,40.821087,-27.548311
4.118750,-72.861534,-2.283129,6.080387,-24.323368,34.988098,-26.893044
4.125000,-66.968315,-2.288131,6.022816,-24.022800,29.247791,-26.203979
4.131250,-61.073692,-2.293766,6.350493,-23.729694,23.664043,-25.512690
4.137500,-55.174324,-2.299558,6.892500,-23.448668,18.347925,-24.843044
4.143750,-49.268948,-2.305076,7.489840,-23.179705,13.419021,-24.213104
4.150000,-43.360146,-2.310617,7.967536,-22.922815,8.965405,-23.636524
4.156250,-37.450607,-2.316551,10.310289,-22.675058,5.050080,-23.114841
4.162500,-31.539679,-2.322850,12.986649,-22.430593,1.710214,-22.631756
4.168750,-25.625261,-2.329354,14.434585,-22.178890,0.625596,-22.246059
4.175000,-19.706850,-2.335965,16.474018,-21.932554,-0.954398,-21.920664
4.181250,-13.784467,-2.342565,18.745268,-21.700087,-1.338840,-21.655243
4.187500,-7.857340,-2.348910,20.944502,-21.487270,-0.724544,-21.408480
4.193750,-1.925423,-2.354821,22.764126,-21.300625,0.750245,-21.238045
4.200000,4.010149,-2.360234,23.914568,-21.147585,3.584960,-21.160334
4.206250,9.948883,-2.364777,24.141727,-21.035675,4.841161,-21.156599
4.212500,15.890503,-2.368222,25.431295,-20.964148,7.439303,-21.174452
4.218750,21.831539,-2.370910,26.328974,-20.922590,9.069189,-21.217445
4.225000,27.768812,-2.373242,25.341433,-20.905258,9.790224,-21.289324
4.231250,33.701916,-2.375438,24.448837,-20.901234,9.456583,-21.379189
4.237500,39.632694,-2.377365,23.455166,-20.906025,7.894133,-21.466423
4.243750,45.560879,-2.378977,22.034348,-20.936926,7.036922,-21.553198
4.250000,51.487885,-2.380208,19.999731,-20.981367,5.253021,-21.641579
4.256250,57.412659,-2.380971,17.221821,-21.021206,3.029136,-21.715654
4.262500,63.333038,-2.381676,13.476463,-21.041363,0.776994,-21.762854
4.268750,69.246246,-2.383074,8.563325,-21.031124,-1.157834,-21.771336
4.275000,75.152672,-2.385565,2.307018,-20.983267,-2.473473,-21.732626
4.281250,81.058014,-2.388672,-3.290452,-20.887045,-2.911683,-21.634377
4.287500,86.964806,-2.392176,-9.747926,-20.736687,-2.280627,-21.449493
4.293750,92.871361,-2.396740,-16.780472,-20.550287,-0.618227,-21.226822
4.300000,96.881943,-2.402638,-24.053820,-20.333212,1.711876,-20.983955
4.306250,100.625496,-2.408888,-31.132923,-20.087934,4.907669,-20.714293
4.312500,103.574593,-2.414368,-37.698959,-19.823946,8.776752,-20.425245
4.318750,105.232971,-2.419317,-43.485516,-19.554255,13.051376,-20.129005
4.325000,105.166122,-2.424778,-48.298374,-19.298462,17.426313,-19.842407
4.331250,103.034409,-2.430701,-52.002197,-19.077839,21.587551,-19.580938
4.337500,98.607697,-2.436054,-54.507713,-18.926622,25.259312,-19.351004
4.343750,91.766113,-2.440344,-55.813381,-18.812323,28.207884,-19.117208
4.350000,82.505775,-2.443682,-54.969948,-18.736645,30.122398,-18.958588
4.356250,70.945480,-2.446069,-52.829910,-18.761192,32.498711,-18.885174
4.362500,57.322651,-2.446941,-49.239220,-18.888557,34.167980,-18.906063
4.368750,41.976036,-2.446556,-44.276779,-19.112818,35.505024,-19.047728
4.375000,25.326508,-2.445719,-38.147438,-19.423227,36.825592,-19.273609
4.381250,7.865838,-2.444422,-31.127644,-19.800774,38.044590,-19.541599
4.387500,-9.869092,-2.442007,-23.539410,-20.221256,40.025070,-19.857962
4.393750,-27.333158,-2.438668,-15.784439,-20.666691,41.098080,-20.260189
4.400000,-44.000706,-2.435534,-8.309492,-21.124550,42.904716,-20.727013
4.406250,-59.379475,-2.432831,-1.223310,-21.578146,44.970409,-21.230124
4.412500,-73.037155,-2.429780,5.415641,-22.012865,46.996277,-21.748516
4.418750,-84.631874,-2.426388,11.305856,-22.420311,48.758202,-22.266756
4.425000,-93.931358,-2.423540,16.275026,-22.752256,50.141979,-22.745377
4.431250,-100.815910,-2.421707,20.274609,-22.993919,51.168007,-23.147181
4.437500,-105.279915,-2.420275,23.015574,-23.155617,51.632080,-23.466675
4.443750,-107.442543,-2.419042,24.531748,-23.245064,51.496407,-23.696569
4.450000,-107.544098,-2.418787,25.002954,-23.263666,50.876293,-23.828438
4.456250,-105.927032,-2.420062,24.682877,-23.214697,49.938438,-23.859335
4.462500,-103.012535,-2.422205,23.897987,-23.106670,48.861210,-23.793171
4.468750,-99.287544,-2.424630,23.054207,-22.955750,47.863483,-23.646744
4.475000,-95.287582,-2.427745,20.723440,-22.770685,47.218006,-23.426641
4.481250,-89.392876,-2.431651,19.127363,-22.539410,45.611416,-23.099033
4.487500,-83.493660,-2.435733,18.087835,-22.290009,44.699787,-22.711760
4.493750,-77.589157,-2.439557,17.412643,-22.045769,44.115253,-22.297594
4.500000,-71.684334,-2.444134,17.036087,-21.820433,43.638596,-21.880247
4.506250,-65.782364,-2.450237,16.917791,-21.617432,43.069221,-21.476557
4.512500,-59.875443,-2.456812,17.011358,-21.428484,42.203594,-21.097832
4.518750,-53.955872,-2.462481,17.252926,-21.217770,40.820107,-20.754139
4.525000,-48.026363,-2.467071,17.554268,-21.011351,38.641811,-20.476006
4.531250,-42.096752,-2.471823,19.013815,-20.866262,35.281776,-20.272923
4.537500,-36.169041,-2.477109,20.885101,-20.740719,32.024746,-20.103045
4.543750,-30.236504,-2.482263,21.674437,-20.609951,27.383244,-19.985233
4.550000,-24.295813,-2.486478,23.047188,-20.498266,21.728922,-19.899553
4.556250,-18.349165,-2.489799,24.561121,-20.427799,15.395445,-19.882301
4.562500,-12.400721,-2.492529,25.887835,-20.418741,9.228932,-19.973080
4.568750,-6.451447,-2.494844,26.715456,-20.494331,3.147424,-20.170528
4.575000,-0.499657,-2.496356,26.750708,-20.701000,-2.644573,-20.416628
4.581250,5.455672,-2.496706,25.764719,-20.997513,-8.002560,-20.712969
4.587500,11.411682,-2.495810,24.660229,-21.368605,-12.329076,-21.076145
4.593750,17.366041,-2.493932,22.794621,-21.842684,-15.460520,-21.501387
4.600000,23.316700,-2.491315,20.190901,-22.424900,-17.369776,-21.970230
4.606250,29.263174,-2.487731,16.821142,-23.184090,-18.198502,-22.483938
4.612500,35.205051,-2.483244,13.043679,-23.981665,-18.247784,-23.039392
4.618750,41.137707,-2.478692,8.989224,-24.852848,-17.634235,-23.612398
4.625000,47.058880,-2.474851,4.615923,-25.779987,-16.638474,-24.187225
4.631250,52.973312,-2.471237,0.182424,-26.730469,-15.592320,-24.750572
4.637500,58.886505,-2.466874,-4.055838,-27.662567,-14.864052,-25.287125
4.643750,64.795433,-2.462098,-7.852455,-28.524626,-14.823438,-25.764044
4.650000,70.691376,-2.458426,-12.893280,-29.258411,-15.833063,-26.136791
4.656250,76.572624,-2.456797,-15.274516,-29.823502,-18.232100,-26.389704
4.662500,82.447075,-2.456863,-16.982693,-30.213680,-20.522793,-26.563007
4.668750,88.320396,-2.458114,-17.953726,-30.400164,-24.190857,-26.629030
4.675000,94.193329,-2.460842,-18.152924,-30.367878,-28.926031,-26.577467
4.681250,98.171776,-2.464959,-17.679701,-30.116688,-34.503349,-26.407370
4.687500,101.880875,-2.469890,-16.708607,-29.667295,-40.686996,-26.128729
4.693750,104.787521,-2.475762,-15.463815,-29.056238,-47.205185,-25.753962
4.700000,106.396606,-2.483490,-14.208389,-28.320971,-53.717220,-25.287754
4.706250,106.282768,-2.493015,-13.412241,-27.459127,-59.854019,-24.723837
4.712500,104.116089,-2.502675,-13.380388,-26.513517,-65.212715,-24.092968
4.718750,99.663651,-2.511191,-14.365082,-25.549017,-71.146713,-23.473667
