Anritsu VNA Frequency[GHz],S21[deg],S21[dB],S11[deg],S11[dB],S22[deg],S22[dB]
1338076602.9,2012_05_27_00:56:42,+40.866,+10.268,+55.738,+10.285,+13.927,+13.737,+14.035,+13.788,10.388419,-17.942
3.006250,34.007870,-1.750916,59.259373,-26.643831,-80.166969,-27.451220
3.012500,34.007870,-1.750916,59.259373,-26.643831,-80.166969,-27.451220
3.018750,34.007870,-1.750916,59.259373,-26.643831,-80.166969,-27.451220
3.025000,34.007870,-1.750916,59.259373,-26.643831,-80.166969,-27.451220
3.031250,34.007870,-1.750916,59.259373,-26.643831,-80.166969,-27.451220
3.037500,34.007870,-1.750916,59.259373,-26.643831,-80.166969,-27.451220
3.043750,34.007870,-1.750916,59.259373,-26.643831,-80.166969,-27.451220
3.050000,34.007870,-1.750916,59.259373,-26.643831,-80.166969,-27.451220
3.056250,34.007870,-1.750916,59.259373,-26.643831,-80.166969,-27.451220
3.062500,34.007870,-1.750916,59.259373,-26.643831,-80.166969,-27.451220
3.068750,34.007870,-1.750916,59.259373,-26.643831,-80.166969,-27.451220
3.075000,34.007870,-1.750916,59.259373,-26.643831,-80.166969,-27.451220
3.081250,34.007870,-1.750916,59.259373,-26.643831,-80.166969,-27.451220
3.087500,34.007870,-1.750916,59.259373,-26.643831,-80.166969,-27.451220
3.093750,34.007870,-1.752827,59.259373,-26.441984,-80.166969,-27.203222
3.100000,39.914768,-1.755060,56.574169,-26.289463,-82.187782,-26.973053
3.106250,45.821712,-1.757329,53.007607,-26.208591,-82.584671,-26.761213
3.112500,51.729103,-1.759647,48.921124,-26.219929,-81.009590,-26.541014
3.118750,57.635670,-1.762129,42.915840,-26.263313,-79.295067,-26.242161
3.125000,63.541145,-1.764735,38.110481,-26.306965,-75.251190,-25.981913
3.131250,69.446281,-1.767478,33.720253,-26.378435,-69.090508,-25.693823
3.137500,75.350334,-1.770528,30.000870,-26.478098,-61.205486,-25.368986
3.143750,81.252838,-1.774100,27.158409,-26.597858,-51.785721,-25.015776
3.150000,87.155983,-1.777953,25.377951,-26.722965,-40.984234,-24.646242
3.156250,93.062485,-1.781578,24.777403,-26.839352,-28.976845,-24.279181
3.162500,97.076385,-1.784879,25.422148,-26.933569,-15.962534,-23.938480
3.168750,100.817360,-1.788305,27.330919,-26.998100,-4.045813,-23.672401
3.175000,103.751740,-1.791956,30.548136,-27.010262,8.227982,-23.425802
3.181250,105.389084,-1.795673,33.312031,-26.958305,20.746378,-23.202440
3.187500,105.304062,-1.799234,37.095367,-26.858946,32.224964,-23.033424
3.193750,103.155739,-1.802502,41.191967,-26.724342,42.236526,-22.934324
3.200000,98.706215,-1.805461,45.028664,-26.562147,50.449825,-22.908817
3.206250,91.833801,-1.808020,48.123348,-26.382849,56.583858,-22.957161
3.212500,82.536583,-1.810392,50.058720,-26.200363,60.440956,-23.087116
3.218750,70.935043,-1.812987,50.522221,-26.024849,61.920197,-23.281219
3.225000,57.267536,-1.815429,51.516666,-25.850407,60.766949,-23.484680
3.231250,41.877037,-1.817335,51.575165,-25.677237,57.267574,-23.706385
3.237500,25.188715,-1.818980,49.211445,-25.505255,53.533295,-23.937271
3.243750,7.690749,-1.820880,46.534946,-25.312534,48.067867,-24.155174
3.250000,-10.084144,-1.823361,43.407803,-25.139046,41.536896,-24.340809
3.256250,-27.585690,-1.825983,39.487480,-24.997467,34.533672,-24.493095
3.262500,-44.278637,-1.828268,35.001575,-24.871126,27.706720,-24.601139
3.268750,-59.672436,-1.830232,29.893761,-24.756481,21.734123,-24.656139
3.275000,-73.343269,-1.832308,24.042761,-24.652487,17.162258,-24.658043
3.281250,-84.951096,-1.834755,17.338810,-24.550173,14.432646,-24.614576
3.287500,-94.256996,-1.837570,9.692197,-24.436558,13.840390,-24.539267
3.293750,-101.136826,-1.840466,1.066278,-24.273348,15.543546,-24.432570
3.300000,-105.590416,-1.843274,-6.364241,-24.105770,19.580339,-24.296412
3.306250,-107.738770,-1.845866,-15.019191,-23.971504,25.808014,-24.156527
3.312500,-107.819725,-1.848133,-23.675850,-23.850950,33.931747,-24.044716
3.318750,-106.174812,-1.850291,-32.045372,-23.751833,43.568913,-23.981842
3.325000,-103.231621,-1.852267,-39.862934,-23.691202,54.271626,-23.978483
3.331250,-99.481369,-1.853872,-46.872608,-23.695108,65.520302,-24.037750
3.337500,-95.457146,-1.855096,-52.892677,-23.827328,76.735985,-24.157633
3.343750,-89.537857,-1.855988,-57.921089,-23.988216,87.340225,-24.323236
3.350000,-83.619156,-1.856461,-62.360775,-24.209742,97.086746,-24.479542
3.356250,-77.701118,-1.856656,-65.792908,-24.535156,105.695175,-24.679699
3.362500,-71.785065,-1.856696,-66.513359,-24.985250,111.953995,-24.930780
3.368750,-65.871002,-1.856426,-66.163773,-25.541798,115.993507,-25.222008
3.375000,-59.957512,-1.855653,-64.620773,-26.177828,117.415871,-25.597500
3.381250,-54.046261,-1.854487,-61.899181,-26.859533,116.050499,-25.933298
3.387500,-48.141258,-1.853704,-58.091721,-27.548002,112.525772,-26.255915
3.393750,-42.242592,-1.853747,-53.358307,-28.198957,106.287460,-26.558319
3.400000,-36.346241,-1.854131,-47.918934,-28.769543,97.895584,-26.832695
3.406250,-30.449045,-1.854358,-42.110485,-29.238758,88.356842,-27.110188
3.412500,-24.552401,-1.854740,-36.257645,-29.581749,78.333443,-27.356714
3.418750,-18.660435,-1.855986,-28.425926,-29.776419,66.465691,-27.551428
3.425000,-12.771640,-1.858186,-22.158142,-29.818747,55.043064,-27.688114
3.431250,-6.879973,-1.860543,-15.602615,-29.723740,44.498806,-27.773188
3.437500,-0.983945,-1.862771,-9.016227,-29.476238,35.287140,-27.810135
3.443750,4.911458,-1.865606,-2.420756,-29.073858,28.087954,-27.747787
3.450000,10.805400,-1.869376,3.665432,-28.562044,21.185139,-27.614807
3.456250,16.703581,-1.873293,9.080070,-27.980087,16.354761,-27.424847
3.462500,22.610365,-1.876584,13.818018,-27.371300,13.304107,-27.179928
3.468750,28.522469,-1.879230,17.960941,-26.781956,11.719845,-26.877445
3.475000,34.434696,-1.881591,21.618734,-26.277281,11.247071,-26.533010
3.481250,40.346718,-1.883866,25.050604,-25.809908,11.495075,-26.161337
3.487500,46.257881,-1.886127,26.991871,-25.410051,12.100903,-25.757147
3.493750,52.167660,-1.888843,28.830809,-25.113722,12.623683,-25.327660
3.500000,58.076630,-1.891973,30.395237,-24.926184,12.630073,-24.884714
3.506250,63.988487,-1.894894,31.580769,-24.833015,11.789695,-24.438370
3.512500,69.904549,-1.897054,32.296997,-24.799850,9.831899,-23.997999
3.518750,75.820671,-1.898998,32.517975,-24.737022,6.555069,-23.568432
3.525000,81.730583,-1.901858,32.397381,-24.721798,1.805377,-23.156176
3.531250,87.636002,-1.905844,32.527225,-24.709888,-2.391600,-22.775421
3.537500,93.543686,-1.910090,32.532677,-24.665216,-7.494140,-22.442671
3.543750,97.562210,-1.914061,32.672699,-24.578922,-13.075816,-22.153553
3.550000,101.310570,-1.918269,33.281387,-24.423473,-18.853220,-21.871658
3.556250,104.251717,-1.923147,32.802197,-24.199865,-24.352312,-21.545187
3.562500,105.897964,-1.928342,32.941013,-23.937593,-29.282957,-21.303236
3.568750,105.828018,-1.932718,33.353233,-23.663578,-32.425636,-21.132399
3.575000,103.702072,-1.935730,33.764641,-23.404673,-34.789864,-21.033422
3.581250,99.276688,-1.937692,33.890354,-23.195530,-36.104977,-21.019575
3.587500,92.425758,-1.939226,33.469360,-23.071455,-36.393112,-21.051872
3.593750,83.149521,-1.940314,32.398346,-23.022163,-35.522003,-21.152386
3.600000,71.573425,-1.940333,30.611158,-23.059908,-33.339317,-21.335522
3.606250,57.935005,-1.938976,29.959898,-23.197983,-30.004120,-21.595329
3.612500,42.569572,-1.936745,28.988474,-23.422783,-25.791832,-21.905342
3.618750,25.900806,-1.934100,28.105913,-23.750500,-21.097704,-22.240931
3.625000,8.423256,-1.930787,27.424215,-24.192575,-16.705791,-22.643457
3.631250,-9.329860,-1.926594,27.548800,-24.711805,-10.816039,-23.076700
3.637500,-26.814867,-1.922094,28.783983,-25.272333,-5.151879,-23.511396
3.643750,-43.503456,-1.917917,31.269676,-25.837255,0.262628,-23.927641
3.650000,-58.902359,-1.914448,33.142563,-26.361467,5.339518,-24.308649
3.656250,-72.581474,-1.911563,35.962082,-26.770012,9.990685,-24.637487
3.662500,-84.199074,-1.909389,38.905437,-27.108242,14.122804,-24.909588
3.668750,-93.517700,-1.908161,42.891918,-27.354664,17.592819,-25.131519
3.675000,-100.413582,-1.907547,46.241302,-27.480928,20.317223,-25.301430
3.681250,-104.884506,-1.907113,48.686031,-27.484190,22.239197,-25.417995
3.687500,-107.053375,-1.907157,49.982300,-27.377701,23.283291,-25.484394
3.693750,-107.160973,-1.908464,49.982307,-27.187325,23.396185,-25.509432
3.700000,-105.546051,-1.910900,48.690529,-26.918619,22.586256,-25.504408
3.706250,-102.629082,-1.913539,46.264339,-26.589495,20.983347,-25.461681
3.712500,-98.900742,-1.915956,42.686443,-26.239225,18.804541,-25.375046
3.718750,-94.898590,-1.918650,36.248901,-25.895212,16.204485,-25.249489
3.725000,-89.003319,-1.922024,28.879477,-25.573019,13.510428,-25.101065
3.731250,-83.106461,-1.925419,20.307966,-25.317156,11.326777,-24.967737
3.737500,-77.204239,-1.928382,12.473614,-25.151255,10.069116,-24.861761
3.743750,-71.299896,-1.931035,4.122899,-25.061052,10.149358,-24.805803
3.750000,-65.396469,-1.933774,-4.188584,-25.034632,10.151752,-24.714725
3.756250,-59.494530,-1.936516,-12.065398,-25.067293,10.073676,-24.608763
3.762500,-53.591164,-1.939008,-19.086138,-25.137939,11.232433,-24.489058
3.768750,-47.687874,-1.941476,-24.808729,-25.211039,13.371870,-24.403337
3.775000,-41.786072,-1.944270,-29.006557,-25.297602,16.030125,-24.341059
3.781250,-35.884590,-1.947130,-31.568718,-25.384890,18.609394,-24.286640
3.787500,-29.981510,-1.949694,-32.143017,-25.452618,20.747887,-24.233191
3.793750,-24.078392,-1.952332,-30.642790,-25.514887,22.136456,-24.184296
3.800000,-18.177065,-1.955375,-28.992426,-25.516939,22.577528,-24.132420
3.806250,-12.276612,-1.958721,-24.839138,-25.432112,22.090458,-24.041950
3.812500,-6.374541,-1.962244,-19.698112,-25.300400,20.538786,-23.919863
3.818750,-0.472149,-1.966094,-14.113967,-25.139048,17.811148,-23.777554
3.825000,5.430828,-1.970290,-8.624232,-24.962271,14.038465,-23.622002
3.831250,11.337931,-1.974117,-1.576249,-24.784536,9.487779,-23.464180
3.837500,17.248600,-1.977402,5.212797,-24.619902,4.482946,-23.340876
3.843750,23.158415,-1.980817,11.899813,-24.463816,-0.638526,-23.205662
3.850000,29.065653,-1.984701,16.797380,-24.309875,-6.560055,-23.041328
3.856250,34.973801,-1.988438,21.585922,-24.167864,-12.091255,-22.887489
3.862500,40.886257,-1.991454,25.841299,-24.036032,-17.213125,-22.752502
3.868750,46.797916,-1.994349,29.235447,-23.901030,-21.904278,-22.633236
3.875000,52.702679,-1.998294,31.448753,-23.741020,-26.189011,-22.518791
3.881250,58.603516,-2.003486,32.127716,-23.561588,-30.139534,-22.393091
3.887500,64.507980,-2.008798,30.872904,-23.364851,-33.939140,-22.260817
3.893750,70.419075,-2.013672,27.614532,-23.132883,-37.843513,-22.127007
3.900000,76.331833,-2.018809,24.431475,-22.855457,-41.988476,-21.983587
3.906250,82.241364,-2.024992,19.869848,-22.532204,-44.675785,-21.828903
3.912500,88.151161,-2.032172,14.399535,-22.164873,-47.773232,-21.658884
3.918750,94.067589,-2.039703,8.485514,-21.760849,-50.991505,-21.460405
3.925000,98.097763,-2.047052,2.495771,-21.347509,-54.090271,-21.206263
3.931250,101.862915,-2.054004,-3.227505,-20.950466,-57.124077,-20.985767
3.937500,104.828926,-2.060462,-8.257677,-20.590141,-57.906658,-20.795408
3.943750,106.503159,-2.066252,-12.269977,-20.289097,-57.510021,-20.643778
3.950000,106.459610,-2.070886,-15.041469,-20.069387,-55.466164,-20.544502
3.956250,104.357239,-2.073824,-16.449348,-19.949701,-51.420311,-20.513189
3.962500,99.956284,-2.075025,-16.435173,-19.939329,-45.123936,-20.561995
3.968750,93.131325,-2.074801,-14.995905,-20.036423,-36.436794,-20.699408
3.975000,83.879433,-2.073219,-14.079628,-20.207439,-25.366484,-20.936399
3.981250,72.321739,-2.070373,-9.994650,-20.501265,-12.071081,-21.300213
3.987500,58.693546,-2.066416,-5.653567,-20.902346,1.831830,-21.706503
3.993750,43.333817,-2.061666,-0.378105,-21.367136,16.998884,-22.215540
4.000000,26.668634,-2.056282,5.190310,-21.891224,32.632786,-22.834383
4.006250,9.190308,-2.050252,10.702591,-22.458130,47.862247,-23.593927
4.012500,-8.570739,-2.044109,15.889065,-23.040062,61.627979,-24.352251
4.018750,-26.070135,-2.038706,20.501926,-23.603987,74.588509,-25.084738
4.025000,-42.773777,-2.034205,24.253750,-24.134651,84.810410,-25.827595
4.031250,-58.185394,-2.030242,29.007593,-24.622393,93.196709,-26.584253
4.037500,-71.875961,-2.026876,31.393379,-25.046289,98.873466,-27.301371
4.043750,-83.507858,-2.024745,33.454384,-25.393501,102.128052,-27.948959
4.050000,-92.842461,-2.024029,35.043869,-25.663969,103.357231,-28.510220
4.056250,-99.751511,-2.023704,36.091858,-25.848316,103.087990,-28.975857
4.062500,-104.232841,-2.023143,36.676697,-25.928404,100.122421,-29.312601
4.068750,-106.414513,-2.023363,36.737251,-25.921621,96.860405,-29.506994
4.075000,-106.538460,-2.025495,36.295578,-25.844870,93.360802,-29.566717
4.081250,-104.938782,-2.028895,35.531315,-25.711832,89.852081,-29.496161
4.087500,-102.032722,-2.032146,34.699142,-25.531223,84.495796,-29.296410
4.093750,-98.312248,-2.034707,34.104061,-25.311848,79.019569,-28.973305
4.100000,-94.319679,-2.037519,32.163666,-25.068628,73.278435,-28.547894
4.106250,-88.436363,-2.041176,30.873856,-24.805971,67.172119,-28.058487
4.112500,-82.553314,-2.045370,30.137602,-24.515635,60.786789,-27.463795
4.118750,-76.667206,-2.049801,29.696529,-24.213514,54.287796,-26.799129
4.125000,-70.779755,-2.054849,29.261250,-23.915394,47.415447,-26.104944
4.131250,-64.891068,-2.060483,28.661924,-23.630390,40.316563,-25.411352
4.137500,-58.997551,-2.066183,27.785801,-23.361582,33.187054,-24.741442
4.143750,-53.097878,-2.071551,26.548090,-23.108469,26.241997,-24.112772
4.150000,-47.195385,-2.076913,24.862833,-22.869608,19.670637,-23.538195
4.156250,-41.292530,-2.082669,24.825235,-22.641335,13.648334,-23.018129
4.162500,-35.388195,-2.088774,25.026888,-22.414476,8.314993,-22.566259
4.168750,-29.480333,-2.094993,24.066139,-22.175404,5.377461,-22.183800
4.175000,-23.568621,-2.101315,23.769974,-21.944016,2.285436,-21.869951
4.181250,-17.653118,-2.107552,23.959999,-21.725525,0.739709,-21.618174
4.187500,-11.732900,-2.113487,24.439247,-21.524834,0.627865,-21.368544
4.193750,-5.808284,-2.119015,24.984043,-21.348240,1.990393,-21.229250
4.200000,0.120259,-2.123980,25.365732,-21.203438,2.937625,-21.174055
4.206250,6.052007,-2.128033,25.368372,-21.097567,4.133133,-21.180958
4.212500,11.986259,-2.131020,24.826660,-21.027807,6.609912,-21.206915
4.218750,17.919477,-2.133220,25.804127,-20.983538,8.139020,-21.256126
4.225000,23.848936,-2.135205,24.891541,-20.960224,8.713654,-21.329363
4.231250,29.774374,-2.137028,24.067389,-20.946293,8.188540,-21.412338
4.237500,35.697289,-2.138611,23.123287,-20.941183,6.395201,-21.482101
4.243750,41.617825,-2.139966,21.723133,-20.961735,5.251023,-21.548433
4.250000,47.537231,-2.140945,19.708557,-20.992773,3.137933,-21.610279
4.256250,53.454662,-2.141529,16.935301,-21.016699,0.580552,-21.651321
4.262500,59.367569,-2.142221,13.171162,-21.019159,-2.008695,-21.660517
4.268750,65.273659,-2.143646,8.216711,-20.989334,-4.273477,-21.627296
4.275000,71.172974,-2.146257,1.892681,-20.920143,-5.902996,-21.545153
4.281250,77.071838,-2.149518,-3.796768,-20.799208,-6.624541,-21.401285
4.287500,82.972885,-2.153187,-10.380052,-20.623928,-6.239336,-21.167732
4.293750,88.873260,-2.158001,-17.601711,-20.417126,-4.846367,-20.914057
4.300000,94.772995,-2.164204,-25.085989,-20.180645,-2.716861,-20.643055
4.306250,98.784927,-2.170551,-32.391785,-19.917753,0.340601,-20.351891
4.312500,102.535660,-2.176061,-39.201130,-19.639297,4.119855,-20.050434
4.318750,105.487091,-2.181050,-45.244678,-19.359694,8.355552,-19.752028
4.325000,107.139633,-2.186512,-50.319077,-19.100105,12.742512,-19.474529
4.331250,107.068359,-2.192325,-54.277729,-18.883528,16.969147,-19.232773
4.337500,104.939545,-2.197421,-57.024197,-18.755407,20.764584,-19.029310
4.343750,100.517029,-2.201303,-58.563519,-18.631689,23.908087,-18.807463
4.350000,93.674690,-2.204221,-57.932827,-18.577991,25.934643,-18.689716
4.356250,84.410088,-2.206032,-55.992714,-18.630665,28.493711,-18.657127
4.362500,72.845795,-2.206253,-52.549545,-18.789099,30.352278,-18.720230
4.368750,59.216251,-2.205231,-47.695927,-19.045450,31.865297,-18.905279
4.375000,43.855572,-2.203825,-41.633381,-19.386484,33.289196,-19.153450
4.381250,27.191507,-2.201916,-34.638607,-19.791166,34.658768,-19.445526
4.387500,9.720388,-2.198909,-27.033669,-20.233347,36.786564,-19.788885
4.393750,-8.026608,-2.195027,-19.233002,-20.696386,37.997738,-20.211554
4.400000,-25.510088,-2.191489,-11.694203,-21.167509,39.847385,-20.688980
4.406250,-42.196960,-2.188451,-2.620610,-21.629025,41.920353,-21.194696
4.412500,-57.588959,-2.185076,4.404671,-22.067406,43.921730,-21.710251
4.418750,-71.258385,-2.181452,11.224944,-22.476477,45.636883,-22.222202
4.425000,-82.869476,-2.178532,17.667824,-22.795956,46.980198,-22.682526
4.431250,-92.186737,-2.176699,23.561710,-23.024538,47.965729,-23.063322
4.437500,-99.082512,-2.175250,28.518753,-23.174007,48.357559,-23.361267
4.443750,-103.554253,-2.174000,32.489132,-23.251736,48.155235,-23.569399
4.450000,-105.727890,-2.173830,35.539547,-23.259583,47.487175,-23.680513
4.456250,-105.841553,-2.175200,37.798569,-23.202242,46.523769,-23.692995
4.462500,-104.229576,-2.177280,39.468044,-23.089937,45.445667,-23.613405
4.468750,-101.315300,-2.179690,40.837101,-22.941866,44.475830,-23.463882
4.475000,-97.593491,-2.182873,40.390030,-22.756622,43.909401,-23.229603
4.481250,-93.598740,-2.186869,40.291012,-22.527723,42.475891,-22.897783
4.487500,-87.704163,-2.190857,40.202629,-22.287109,41.703930,-22.514643
4.493750,-81.804352,-2.194506,39.934875,-22.056143,41.294426,-22.109911
4.500000,-75.905418,-2.199019,39.422287,-21.845978,41.030273,-21.705133
4.506250,-70.009644,-2.205105,38.638718,-21.657158,40.704029,-21.314901
4.512500,-64.108932,-2.211583,37.576504,-21.477140,40.097538,-20.948492
4.518750,-58.195244,-2.217010,36.236877,-21.253843,38.963974,-20.615448
4.525000,-52.272854,-2.221471,34.629444,-21.067081,36.986866,-20.351744
4.531250,-46.351254,-2.226193,33.879955,-20.928835,33.717445,-20.145037
4.537500,-40.431652,-2.231517,33.453865,-20.795389,30.515343,-19.973394
4.543750,-34.506397,-2.236562,31.942343,-20.655163,25.885023,-19.847826
4.550000,-28.572611,-2.240628,31.077347,-20.535038,20.148401,-19.744564
4.556250,-22.633106,-2.243774,30.565847,-20.457220,13.699212,-19.722424
4.562500,-16.692337,-2.246447,30.191063,-20.441124,7.261694,-19.798748
4.568750,-10.750512,-2.248574,29.726612,-20.512207,0.809631,-19.972403
4.575000,-4.805621,-2.249901,28.944235,-20.726944,-5.484749,-20.188046
4.581250,1.142602,-2.250072,27.654882,-21.008638,-11.294468,-20.458342
4.587500,7.091452,-2.248993,24.609446,-21.374664,-16.119497,-20.795584
4.593750,13.038644,-2.246986,22.665104,-21.844881,-19.774422,-21.192575
4.600000,18.981863,-2.244189,19.948181,-22.423346,-22.211525,-21.629169
4.606250,24.921246,-2.240368,16.344519,-23.175472,-23.571093,-22.116516
4.612500,30.856079,-2.235621,12.768694,-23.965807,-24.124775,-22.644989
4.618750,36.781445,-2.230930,8.585807,-24.828533,-23.940344,-23.192535
4.625000,42.694775,-2.227016,4.134838,-25.743931,-23.299040,-23.743849
4.631250,48.601753,-2.223296,-0.294074,-26.678581,-22.522022,-24.285168
4.637500,54.507469,-2.218753,-4.437967,-27.589403,-21.970516,-24.799772
4.643750,60.408356,-2.213908,-8.048874,-28.423506,-22.007019,-25.252523
4.650000,66.295937,-2.210317,-12.821652,-29.120083,-22.984154,-25.595377
4.656250,72.168945,-2.208807,-14.890873,-29.651272,-25.282494,-25.836395
4.662500,78.036140,-2.208870,-16.302664,-30.008478,-27.476627,-25.996754
4.668750,83.902351,-2.210196,-16.924856,-30.161135,-30.944221,-26.049856
4.675000,89.768097,-2.213026,-16.781006,-30.096794,-35.449272,-25.987642
4.681250,93.739723,-2.217204,-16.001106,-29.817978,-40.785938,-25.810711
4.687500,97.442497,-2.222111,-14.788197,-29.348240,-46.733345,-25.530201
4.693750,100.343048,-2.227998,-13.386530,-28.725445,-53.023846,-25.157831
4.700000,101.945618,-2.235847,-12.088954,-27.977520,-59.313190,-24.695646
4.706250,101.825890,-2.245428,-11.381390,-27.109276,-65.236549,-24.135958
4.712500,99.654602,-2.254946,-11.511144,-26.162338,-70.354836,-23.531656
4.718750,95.198463,-2.263142,-12.822848,-25.212259,-76.075264,-22.939497
