Anritsu VNA Frequency[GHz],S21[deg],S21[dB],S11[deg],S11[dB],S22[deg],S22[dB]
1338105689.18,2012_05_27_09:01:29,+40.586,+10.297,+54.868,+10.309,+13.923,+13.734,+14.028,+13.780,10.396556,-15.946
3.006250,34.097076,-1.752977,59.348564,-26.684425,-80.037804,-27.432083
3.012500,34.097076,-1.752977,59.348564,-26.684425,-80.037804,-27.432083
3.018750,34.097076,-1.752977,59.348564,-26.684425,-80.037804,-27.432083
3.025000,34.097076,-1.752977,59.348564,-26.684425,-80.037804,-27.432083
3.031250,34.097076,-1.752977,59.348564,-26.684425,-80.037804,-27.432083
3.037500,34.097076,-1.752977,59.348564,-26.684425,-80.037804,-27.432083
3.043750,34.097076,-1.752977,59.348564,-26.684425,-80.037804,-27.432083
3.050000,34.097076,-1.752977,59.348564,-26.684425,-80.037804,-27.432083
3.056250,34.097076,-1.752977,59.348564,-26.684425,-80.037804,-27.432083
3.062500,34.097076,-1.752977,59.348564,-26.684425,-80.037804,-27.432083
3.068750,34.097076,-1.752977,59.348564,-26.684425,-80.037804,-27.432083
3.075000,34.097076,-1.752977,59.348564,-26.684425,-80.037804,-27.432083
3.081250,34.097076,-1.752977,59.348564,-26.684425,-80.037804,-27.432083
3.087500,34.097076,-1.752977,59.348564,-26.684425,-80.037804,-27.432083
3.093750,34.097076,-1.754676,59.348564,-26.484001,-80.037804,-27.182484
3.100000,40.003403,-1.756636,56.674118,-26.334478,-82.066605,-26.950136
3.106250,45.909634,-1.758617,53.116539,-26.256668,-82.478699,-26.736628
3.112500,51.816235,-1.760644,49.039581,-26.270775,-80.917450,-26.515699
3.118750,57.721745,-1.762861,43.042686,-26.315786,-79.213760,-26.214891
3.125000,63.626266,-1.765215,38.244511,-26.361597,-75.183365,-25.953697
3.131250,69.530289,-1.767674,33.860359,-26.434526,-69.030121,-25.665663
3.137500,75.433327,-1.770496,30.148371,-26.535088,-61.155327,-25.340895
3.143750,81.334892,-1.773875,27.312185,-26.654478,-51.740738,-24.988138
3.150000,87.237381,-1.777560,25.531483,-26.778320,-40.943478,-24.619581
3.156250,93.143387,-1.781044,24.928646,-26.892220,-28.938351,-24.253605
3.162500,97.157043,-1.784273,25.568907,-26.983265,-15.923189,-23.913948
3.168750,100.897743,-1.787615,27.474255,-27.043703,-4.002273,-23.648819
3.175000,103.832077,-1.791256,30.689167,-27.052025,8.284121,-23.403343
3.181250,105.469383,-1.794915,33.451973,-26.995657,20.812189,-23.181059
3.187500,105.384567,-1.798434,37.227242,-26.891916,32.301052,-23.012329
3.193750,103.236290,-1.801691,41.316868,-26.752947,42.320747,-22.914385
3.200000,98.786888,-1.804594,45.147575,-26.587151,50.542507,-22.889658
3.206250,91.914665,-1.807085,48.240421,-26.404917,56.687328,-22.938635
3.212500,82.617630,-1.809384,50.174446,-26.220558,60.555878,-23.069046
3.218750,71.016251,-1.811841,50.639214,-26.044060,62.042858,-23.264259
3.225000,57.348827,-1.814180,51.632607,-25.869951,60.896248,-23.468473
3.231250,41.958248,-1.815917,51.691399,-25.697603,57.400238,-23.690702
3.237500,25.269901,-1.817368,49.327374,-25.527334,53.669422,-23.922554
3.243750,7.772191,-1.819079,46.652618,-25.335421,48.204109,-24.141644
3.250000,-10.002749,-1.821376,43.528881,-25.163420,41.673523,-24.328461
3.256250,-27.504162,-1.823826,39.602291,-25.023514,34.672535,-24.482306
3.262500,-44.197041,-1.825915,35.112808,-24.898685,27.843790,-24.591843
3.268750,-59.591007,-1.827693,30.001425,-24.785086,21.872995,-24.648287
3.275000,-73.261696,-1.829612,24.146269,-24.681923,17.304451,-24.651436
3.281250,-84.869598,-1.831953,17.435686,-24.579834,14.577399,-24.608713
3.287500,-94.175522,-1.834682,9.780127,-24.466049,13.986987,-24.534817
3.293750,-101.055351,-1.837518,1.139510,-24.301687,15.690481,-24.428913
3.300000,-105.509048,-1.840303,-6.304154,-24.133720,19.733843,-24.293108
3.306250,-107.657875,-1.842829,-14.971278,-23.998337,25.971424,-24.153288
3.312500,-107.739288,-1.845153,-23.641327,-23.876499,34.099682,-24.041092
3.318750,-106.094955,-1.847346,-32.023952,-23.776279,43.741211,-23.977762
3.325000,-103.152054,-1.849362,-39.856026,-23.715351,54.448761,-23.973434
3.331250,-99.402351,-1.851074,-46.880356,-23.718672,65.704674,-24.030924
3.337500,-95.378685,-1.852399,-52.910866,-23.852444,76.928711,-24.149124
3.343750,-89.459930,-1.853386,-57.954128,-24.011492,87.540207,-24.312975
3.350000,-83.541679,-1.853975,-62.390835,-24.233519,97.289299,-24.467854
3.356250,-77.624260,-1.854225,-65.834663,-24.559496,105.896164,-24.665735
3.362500,-71.708435,-1.854373,-66.563461,-25.010643,112.158752,-24.915052
3.368750,-65.794548,-1.854239,-66.217819,-25.567942,116.199821,-25.204674
3.375000,-59.881084,-1.853505,-64.678543,-26.204597,117.617493,-25.579027
3.381250,-53.969551,-1.852411,-61.958065,-26.886333,116.253006,-25.913282
3.387500,-48.064236,-1.851667,-58.152546,-27.574755,112.726875,-26.235378
3.393750,-42.165337,-1.851715,-53.420071,-28.225014,106.483032,-26.537399
3.400000,-36.268566,-1.852129,-47.981602,-28.794889,98.087860,-26.811327
3.406250,-30.370651,-1.852330,-42.171532,-29.262758,88.543503,-27.088972
3.412500,-24.473097,-1.852688,-36.317272,-29.604130,78.516701,-27.335752
3.418750,-18.580519,-1.853902,-28.483574,-29.797087,66.645378,-27.530802
3.425000,-12.691086,-1.856090,-22.213367,-29.837940,55.220108,-27.667957
3.431250,-6.798678,-1.858443,-15.653527,-29.741978,44.674149,-27.752901
3.437500,-0.902214,-1.860626,-9.057684,-29.493042,35.458485,-27.789940
3.443750,4.993760,-1.863437,-2.452485,-29.089643,28.255753,-27.727303
3.450000,10.888138,-1.867249,3.645338,-28.577526,21.350794,-27.594055
3.456250,16.786541,-1.871230,9.071918,-27.995790,16.517946,-27.403824
3.462500,22.693537,-1.874576,13.823565,-27.387802,13.462021,-27.159000
3.468750,28.605753,-1.877323,17.982515,-26.799873,11.873466,-26.855595
3.475000,34.517807,-1.879854,21.661091,-26.297716,11.399793,-26.510448
3.481250,40.429379,-1.882210,25.114359,-25.832411,11.642151,-26.138159
3.487500,46.340294,-1.884659,27.075726,-25.435701,12.237185,-25.733288
3.493750,52.249691,-1.887534,28.931227,-25.142529,12.754100,-25.303223
3.500000,58.158329,-1.890879,30.508957,-24.957853,12.755998,-24.859688
3.506250,64.069794,-1.894025,31.706812,-24.866652,11.910922,-24.412964
3.512500,69.985748,-1.896359,32.434376,-24.835245,9.947556,-23.972807
3.518750,75.901840,-1.898488,32.660824,-24.771486,6.665824,-23.543371
3.525000,81.811630,-1.901507,32.548862,-24.758308,1.912162,-23.131355
3.531250,87.716949,-1.905656,32.666607,-24.746019,-2.283819,-22.750776
3.537500,93.624893,-1.910101,32.670391,-24.700634,-7.384689,-22.418633
3.543750,97.643951,-1.914221,32.801773,-24.612404,-12.965129,-22.129917
3.550000,101.392494,-1.918487,33.400368,-24.454695,-18.740311,-21.848801
3.556250,104.334564,-1.923491,32.907024,-24.228540,-24.229101,-21.522667
3.562500,105.981430,-1.928780,33.030716,-23.963961,-29.154888,-21.281673
3.568750,105.912338,-1.933218,33.429207,-23.687656,-32.293003,-21.111496
3.575000,103.787270,-1.936318,33.825184,-23.426327,-34.650261,-21.013000
3.581250,99.362747,-1.938303,33.934895,-23.214643,-35.960426,-21.000811
3.587500,92.512733,-1.939865,33.501717,-23.088579,-36.245358,-21.033989
3.593750,83.237167,-1.940992,32.417103,-23.037790,-35.371170,-21.135433
3.600000,71.661987,-1.941036,30.624043,-23.074511,-33.190025,-21.319452
3.606250,58.024319,-1.939720,29.962509,-23.211718,-29.857180,-21.580334
3.612500,42.659561,-1.937472,28.982542,-23.435043,-25.649923,-21.891865
3.618750,25.991419,-1.934829,28.088602,-23.762320,-20.963402,-22.228518
3.625000,8.513894,-1.931553,27.395332,-24.203854,-16.578396,-22.633110
3.631250,-9.238735,-1.927363,27.510159,-24.722622,-10.697695,-23.067785
3.637500,-26.723579,-1.922810,28.735165,-25.283031,-5.040567,-23.503330
3.643750,-43.412094,-1.918658,31.210699,-25.847988,0.368524,-23.920618
3.650000,-58.811359,-1.915135,33.072388,-26.372398,5.440084,-24.302626
3.656250,-72.490837,-1.912162,35.880424,-26.780888,10.088177,-24.632481
3.662500,-84.108704,-1.909940,38.811340,-27.120070,14.216316,-24.905025
3.668750,-93.427673,-1.908630,42.787235,-27.366903,17.685579,-25.126701
3.675000,-100.324013,-1.907919,46.130169,-27.493835,20.410780,-25.296413
3.681250,-104.795074,-1.907338,48.568817,-27.498051,22.334476,-25.412415
3.687500,-106.964394,-1.907224,49.863308,-27.392559,23.380331,-25.478273
3.693750,-107.072388,-1.908386,49.867226,-27.203501,23.497433,-25.502562
3.700000,-105.457619,-1.910671,48.583820,-26.936165,22.690229,-25.496761
3.706250,-102.540596,-1.913134,46.166718,-26.608637,21.091282,-25.453165
3.712500,-98.811905,-1.915358,42.600464,-26.259851,18.918568,-25.365799
3.718750,-94.809334,-1.917858,36.181782,-25.916836,16.322269,-25.239527
3.725000,-88.913704,-1.921040,28.832964,-25.596075,13.632558,-25.090755
3.731250,-83.016068,-1.924278,20.281710,-25.341677,11.453456,-24.957403
3.737500,-77.113434,-1.927068,12.468483,-25.176939,10.198241,-24.851904
3.743750,-71.208412,-1.929585,4.139071,-25.087528,10.279663,-24.796869
3.750000,-65.304611,-1.932227,-4.152068,-25.061417,10.290038,-24.706905
3.756250,-59.402142,-1.934802,-12.011699,-25.094351,10.216862,-24.602600
3.762500,-53.498680,-1.937200,-19.015591,-25.165409,11.380228,-24.483656
3.768750,-47.595261,-1.939649,-24.726774,-25.238501,13.526821,-24.399540
3.775000,-41.693790,-1.942421,-28.913528,-25.324688,16.190628,-24.338848
3.781250,-35.792542,-1.945288,-31.473560,-25.411074,18.778265,-24.285978
3.787500,-29.889997,-1.947890,-32.044041,-25.477644,20.922785,-24.233809
3.793750,-23.987749,-1.950616,-30.543005,-25.538841,22.318336,-24.185715
3.800000,-18.087481,-1.953768,-28.892357,-25.538639,22.769920,-24.134466
3.806250,-12.187728,-1.957244,-24.744036,-25.452124,22.290520,-24.043158
3.812500,-6.286569,-1.960895,-19.608681,-25.318584,20.745844,-23.920485
3.818750,-0.384945,-1.964929,-14.030573,-25.154955,18.021658,-23.777636
3.825000,5.517265,-1.969268,-8.549961,-24.975863,14.251924,-23.620720
3.831250,11.423530,-1.973236,-1.511861,-24.795547,9.703739,-23.460630
3.837500,17.333984,-1.976663,5.267822,-24.628408,4.699234,-23.334476
3.843750,23.243750,-1.980173,11.945168,-24.469627,-0.421760,-23.196945
3.850000,29.150913,-1.984150,16.833321,-24.313665,-6.349442,-23.030069
3.856250,35.059265,-1.987920,21.612154,-24.169790,-11.888278,-22.873314
3.862500,40.971664,-1.990899,25.860353,-24.036394,-17.018993,-22.735552
3.868750,46.883450,-1.993748,29.246889,-23.900476,-21.719687,-22.613419
3.875000,52.788658,-1.997570,31.449574,-23.739922,-26.017307,-22.496355
3.881250,58.689720,-2.002620,32.116127,-23.560461,-29.980745,-22.368227
3.887500,64.594414,-2.007804,30.852013,-23.363897,-33.794697,-22.233879
3.893750,70.505569,-2.012490,27.585598,-23.132475,-37.715019,-22.098320
3.900000,76.418106,-2.017412,24.391623,-22.856167,-41.873230,-21.954096
3.906250,82.327553,-2.023400,19.822680,-22.534418,-44.572678,-21.799147
3.912500,88.237175,-2.030442,14.346858,-22.168924,-47.680557,-21.629026
3.918750,94.153198,-2.037837,8.429626,-21.767073,-50.907234,-21.430513
3.925000,98.183029,-2.045040,2.437628,-21.355806,-54.012093,-21.176996
3.931250,101.947868,-2.051870,-3.288293,-20.960804,-57.055653,-20.957972
3.937500,104.913544,-2.058305,-8.315813,-20.602135,-57.843555,-20.769186
3.943750,106.587700,-2.064069,-12.321527,-20.302708,-57.449764,-20.619066
3.950000,106.544243,-2.068755,-15.084575,-20.084740,-55.409515,-20.521667
3.956250,104.442329,-2.071747,-16.479313,-19.966175,-51.366894,-20.492218
3.962500,100.041824,-2.073043,-16.449100,-19.956945,-45.075058,-20.542858
3.968750,93.216995,-2.072900,-14.991659,-20.054266,-36.393658,-20.681610
3.975000,83.966118,-2.071423,-14.054384,-20.224535,-25.330242,-20.919756
3.981250,72.409309,-2.068658,-9.950555,-20.517920,-12.044359,-21.283871
3.987500,58.782162,-2.064778,-5.591353,-20.918314,1.858427,-21.690685
3.993750,43.423103,-2.060085,-0.298581,-21.381943,17.022749,-22.199848
4.000000,26.758505,-2.054699,5.284638,-21.904472,32.653595,-22.818615
4.006250,9.280957,-2.048663,10.807015,-22.469330,47.887939,-23.579090
4.012500,-8.479247,-2.042510,15.999970,-23.049225,61.653603,-24.336466
4.018750,-25.978344,-2.037009,20.612705,-23.611162,74.627380,-25.068979
4.025000,-42.682308,-2.032419,24.358660,-24.139816,84.864159,-25.811876
4.031250,-58.094250,-2.028302,29.102255,-24.625456,93.270699,-26.569426
4.037500,-71.785309,-2.024734,31.474674,-25.047249,98.970726,-27.287924
4.043750,-83.417702,-2.022482,33.519646,-25.392467,102.250076,-27.937323
4.050000,-92.753014,-2.021579,35.090160,-25.661026,103.503922,-28.500669
4.056250,-99.663246,-2.021114,36.119087,-25.843426,103.259377,-28.968483
4.062500,-104.145706,-2.020408,36.684345,-25.922321,100.315155,-29.307693
4.068750,-106.328491,-2.020469,36.730553,-25.914129,97.071449,-29.504469
4.075000,-106.453613,-2.022537,36.277786,-25.836546,93.586197,-29.566267
4.081250,-104.854919,-2.025910,35.506371,-25.702759,90.084679,-29.497299
4.087500,-101.949432,-2.029126,34.670021,-25.521774,84.729279,-29.298586
4.093750,-98.229691,-2.031699,34.073833,-25.302055,79.246078,-28.975840
4.100000,-94.237534,-2.034555,32.135845,-25.058556,73.491989,-28.550657
4.106250,-88.354668,-2.038301,30.851471,-24.796127,67.371445,-28.061237
4.112500,-82.471992,-2.042598,30.122549,-24.506435,60.961254,-27.465420
4.118750,-76.585983,-2.047175,29.691057,-24.205666,54.440182,-26.799294
4.125000,-70.698219,-2.052381,29.265369,-23.909107,47.541710,-26.103611
4.131250,-64.809357,-2.058139,28.675579,-23.625706,40.416145,-25.408260
4.137500,-58.915752,-2.063978,27.805395,-23.359026,33.261753,-24.736574
4.143750,-53.016079,-2.069491,26.568851,-23.107973,26.294849,-24.106245
4.150000,-47.112991,-2.074974,24.880863,-22.871590,19.706165,-23.530518
4.156250,-41.209949,-2.080820,24.835247,-22.646095,13.671326,-23.009596
4.162500,-35.305397,-2.086982,25.025822,-22.420893,8.332574,-22.557547
4.168750,-29.397369,-2.093220,24.039402,-22.184540,5.388418,-22.175325
4.175000,-23.485357,-2.099535,23.733597,-21.956064,2.294283,-21.861765
4.181250,-17.569494,-2.105772,23.912867,-21.740568,0.753682,-21.610044
4.187500,-11.649127,-2.111655,24.382921,-21.542761,0.645555,-21.359163
4.193750,-5.724083,-2.117100,24.919523,-21.368742,2.024424,-21.220512
4.200000,0.204766,-2.121971,25.293659,-21.225889,2.983076,-21.165266
4.206250,6.137108,-2.125910,25.289017,-21.121902,4.193609,-21.172194
4.212500,12.071854,-2.128772,24.743435,-21.053516,6.689824,-21.197531
4.218750,18.005587,-2.130887,25.718534,-21.009983,8.235542,-21.246044
4.225000,23.935251,-2.132710,24.803793,-20.987375,8.827800,-21.318453
4.231250,29.860943,-2.134411,23.981380,-20.974009,8.321339,-21.400763
4.237500,35.784058,-2.135862,23.041431,-20.969877,6.546208,-21.470209
4.243750,41.704941,-2.137058,21.647840,-20.990788,5.420321,-21.536287
4.250000,47.624329,-2.137888,19.642387,-21.022604,3.323638,-21.598148
4.256250,53.541786,-2.138284,16.877880,-21.047237,0.779637,-21.639509
4.262500,59.454823,-2.138779,13.122054,-21.050488,-1.798465,-21.649157
4.268750,65.360504,-2.140064,8.176517,-21.021204,-4.056236,-21.616791
4.275000,71.259537,-2.142470,1.860871,-20.952570,-5.680452,-21.535387
4.281250,77.157928,-2.145507,-3.819499,-20.831936,-6.401536,-21.392481
4.287500,83.058685,-2.148956,-10.393258,-20.656672,-6.020683,-21.159313
4.293750,88.958855,-2.153531,-17.602509,-20.449642,-4.630397,-20.905998
4.300000,94.858299,-2.159498,-25.077477,-20.212635,-2.510816,-20.635077
4.306250,98.869736,-2.165689,-32.375195,-19.948843,0.535910,-20.343655
4.312500,102.620003,-2.171040,-39.177429,-19.669018,4.302569,-20.041586
4.318750,105.571381,-2.175906,-45.213802,-19.387836,8.524606,-19.742186
4.325000,107.224060,-2.181345,-50.282181,-19.126497,12.897529,-19.463165
4.331250,107.152824,-2.187151,-54.235325,-18.908062,17.111469,-19.219271
4.337500,105.024193,-2.192301,-56.977039,-18.780241,20.893742,-19.013184
4.343750,100.601883,-2.196321,-58.529343,-18.653101,24.022530,-18.789156
4.350000,93.760178,-2.199447,-57.885803,-18.598055,26.031803,-18.668520
4.356250,84.496300,-2.201512,-55.946110,-18.649904,28.578896,-18.633490
4.362500,72.932915,-2.201996,-52.506699,-18.808050,30.426525,-18.694035
4.368750,59.304428,-2.201305,-47.658394,-19.064644,31.928740,-18.877180
4.375000,43.945351,-2.200225,-41.603722,-19.406048,33.332722,-19.122171
4.381250,27.282482,-2.198703,-34.615231,-19.811298,34.690601,-19.412165
4.387500,9.813025,-2.196031,-27.016298,-20.253954,36.805515,-19.753435
4.393750,-7.932241,-2.192446,-19.220953,-20.717489,37.998856,-20.174528
4.400000,-25.414110,-2.189177,-11.686908,-21.189405,39.834812,-20.650883
4.406250,-42.099426,-2.186379,-2.615577,-21.651512,41.892826,-21.155945
4.412500,-57.490017,-2.183176,4.406953,-22.090607,43.881248,-21.671099
4.418750,-71.157837,-2.179674,11.225659,-22.500858,45.584602,-22.182915
4.425000,-82.767899,-2.176809,17.669716,-22.820570,46.922005,-22.643511
4.431250,-92.084000,-2.174984,23.566616,-23.049370,47.901302,-23.025068
4.437500,-98.978722,-2.173518,28.525795,-23.199234,48.292812,-23.324041
4.443750,-103.449753,-2.172193,32.501202,-23.277504,48.094288,-23.533447
4.450000,-105.622925,-2.171907,35.558174,-23.286245,47.433605,-23.645889
4.456250,-105.736153,-2.173127,37.825489,-23.229885,46.479923,-23.660105
4.462500,-104.123993,-2.175056,39.503841,-23.118576,45.415882,-23.581892
4.468750,-101.209473,-2.177276,40.882141,-22.971815,44.461456,-23.433653
4.475000,-97.487740,-2.180308,40.443218,-22.787943,43.912804,-23.201086
4.481250,-93.492889,-2.184154,40.354599,-22.560524,42.493229,-22.870670
4.487500,-87.598114,-2.187990,40.276932,-22.321360,41.737091,-22.488483
4.493750,-81.698143,-2.191526,40.018814,-22.091932,41.341118,-22.084520
4.500000,-75.799301,-2.195984,39.513481,-21.883312,41.087952,-21.680138
4.506250,-69.903694,-2.202000,38.736919,-21.695944,40.768578,-21.290129
4.512500,-64.002945,-2.208472,37.680511,-21.517311,40.164066,-20.923981
4.518750,-58.089775,-2.213923,36.346390,-21.292734,39.029186,-20.591282
4.525000,-52.167496,-2.218423,34.761982,-21.107954,37.048515,-20.327557
4.531250,-46.246456,-2.223217,34.010323,-20.970572,33.773571,-20.121565
4.537500,-40.327415,-2.228619,33.587204,-20.837431,30.563383,-19.949999
4.543750,-34.402706,-2.233846,32.083282,-20.697561,25.920261,-19.824701
4.550000,-28.469646,-2.238092,31.222351,-20.577549,20.170841,-19.721186
4.556250,-22.531200,-2.241448,30.713974,-20.500151,13.720922,-19.700411
4.562500,-16.591059,-2.244306,30.339689,-20.484583,7.277999,-19.777761
4.568750,-10.649858,-2.246645,29.874275,-20.556761,0.816890,-19.951225
4.575000,-4.705786,-2.248205,29.092222,-20.774231,-5.472934,-20.168030
4.581250,1.241610,-2.248578,27.810358,-21.056444,-11.280507,-20.439575
4.587500,7.190050,-2.247695,24.761583,-21.423563,-16.098564,-20.777931
4.593750,13.136917,-2.245884,22.815666,-21.895554,-19.745291,-21.176020
4.600000,19.079945,-2.243283,20.106230,-22.474915,-22.168840,-21.613451
4.606250,25.019558,-2.239633,16.505136,-23.225866,-23.513906,-22.101151
4.612500,30.954641,-2.235022,12.954605,-24.015774,-24.053663,-22.630341
4.618750,36.880062,-2.230440,8.789088,-24.876945,-23.855606,-23.178682
4.625000,42.793400,-2.226639,4.361946,-25.789652,-23.201712,-23.730232
4.631250,48.700684,-2.222996,-0.035594,-26.720612,-22.414385,-24.271551
4.637500,54.606617,-2.218495,-4.140599,-27.626768,-21.858370,-24.785515
4.643750,60.507957,-2.213691,-7.706845,-28.455658,-21.896803,-25.237347
4.650000,66.395737,-2.210133,-12.430994,-29.146267,-22.879595,-25.579393
4.656250,72.268990,-2.208578,-14.449471,-29.671074,-25.187078,-25.818686
4.662500,78.136276,-2.208603,-15.812881,-30.021938,-27.390242,-25.976938
4.668750,84.002426,-2.209866,-16.390942,-30.168482,-30.873402,-26.027798
4.675000,89.868286,-2.212640,-16.209333,-30.098520,-35.395828,-25.962978
4.681250,93.839890,-2.216717,-15.400539,-29.814709,-40.750381,-25.783327
4.687500,97.542717,-2.221490,-14.169618,-29.340954,-46.714306,-25.500204
4.693750,100.443123,-2.227193,-12.761393,-28.715044,-53.018337,-25.125082
4.700000,102.045853,-2.234829,-11.472759,-27.965385,-59.318298,-24.660751
4.706250,101.926201,-2.244172,-10.786203,-27.096260,-65.247795,-24.099369
4.712500,99.754883,-2.253451,-10.950651,-26.140194,-70.367676,-23.493431
4.718750,95.298767,-2.261447,-12.277445,-25.191549,-76.086746,-22.900166
