Anritsu VNA Frequency[GHz],S21[deg],S21[dB],S11[deg],S11[dB],S22[deg],S22[dB]
1338100790.26,2012_05_27_07:39:50,+40.535,+10.299,+54.706,+10.308,+13.921,+13.733,+14.026,+13.778,10.390435,-15.969
3.006250,33.732967,-1.746853,59.049622,-26.699539,-80.469666,-27.434332
3.012500,33.732967,-1.746853,59.049622,-26.699539,-80.469666,-27.434332
3.018750,33.732967,-1.746853,59.049622,-26.699539,-80.469666,-27.434332
3.025000,33.732967,-1.746853,59.049622,-26.699539,-80.469666,-27.434332
3.031250,33.732967,-1.746853,59.049622,-26.699539,-80.469666,-27.434332
3.037500,33.732967,-1.746853,59.049622,-26.699539,-80.469666,-27.434332
3.043750,33.732967,-1.746853,59.049622,-26.699539,-80.469666,-27.434332
3.050000,33.732967,-1.746853,59.049622,-26.699539,-80.469666,-27.434332
3.056250,33.732967,-1.746853,59.049622,-26.699539,-80.469666,-27.434332
3.062500,33.732967,-1.746853,59.049622,-26.699539,-80.469666,-27.434332
3.068750,33.732967,-1.746853,59.049622,-26.699539,-80.469666,-27.434332
3.075000,33.732967,-1.746853,59.049622,-26.699539,-80.469666,-27.434332
3.081250,33.732967,-1.746853,59.049622,-26.699539,-80.469666,-27.434332
3.087500,33.732967,-1.746853,59.049622,-26.699539,-80.469666,-27.434332
3.093750,33.732967,-1.748642,59.049622,-26.502394,-80.469666,-27.181805
3.100000,39.639107,-1.750777,56.378826,-26.357473,-82.452629,-26.947432
3.106250,45.545296,-1.752917,52.828114,-26.284924,-82.829758,-26.732866
3.112500,51.452103,-1.755106,48.756084,-26.305199,-81.238579,-26.509666
3.118750,57.358227,-1.757518,42.760380,-26.354919,-79.519569,-26.207727
3.125000,63.263298,-1.760091,37.965401,-26.406075,-75.462769,-25.946276
3.131250,69.167877,-1.762737,33.584217,-26.483437,-69.301201,-25.657925
3.137500,75.071602,-1.765753,29.877457,-26.588148,-61.425320,-25.333509
3.143750,80.973701,-1.769295,27.047937,-26.710871,-52.014328,-24.981186
3.150000,86.876595,-1.773122,25.274855,-26.836626,-41.224701,-24.613211
3.156250,92.782692,-1.776724,24.677013,-26.951223,-29.225822,-24.248014
3.162500,96.796333,-1.780038,25.324848,-27.041245,-16.218639,-23.909081
3.168750,100.536842,-1.783469,27.236078,-27.099552,-2.411173,-23.645718
3.175000,103.470634,-1.787106,30.452679,-27.105028,10.138058,-23.401470
3.181250,105.107697,-1.790839,33.222244,-27.045013,23.461475,-23.179941
3.187500,105.022255,-1.794356,37.003750,-26.936552,36.237907,-23.012823
3.193750,102.873474,-1.797601,41.093105,-26.792383,47.973072,-22.916180
3.200000,98.423477,-1.800498,44.921497,-26.620945,58.255043,-22.893068
3.206250,91.550453,-1.803021,48.010521,-26.433315,66.696022,-22.943047
3.212500,82.252731,-1.805316,49.939167,-26.243731,72.982803,-23.075123
3.218750,70.650719,-1.807847,50.396965,-26.062439,76.890709,-23.271263
3.225000,56.982460,-1.810199,51.383034,-25.883898,78.042511,-23.476347
3.231250,41.591415,-1.812036,51.432831,-25.708788,76.613800,-23.699432
3.237500,24.902456,-1.813555,49.059784,-25.536287,74.608894,-23.931814
3.243750,7.403843,-1.815372,46.374943,-25.341053,70.442490,-24.151033
3.250000,-10.371710,-1.817747,43.244816,-25.167202,64.718147,-24.337811
3.256250,-27.873762,-1.820345,39.307720,-25.026031,57.990124,-24.491318
3.262500,-44.567299,-1.822558,34.809357,-24.900301,50.889709,-24.600368
3.268750,-59.961926,-1.824469,29.692484,-24.785891,44.113701,-24.656164
3.275000,-73.633377,-1.826516,23.835032,-24.682121,38.246910,-24.658262
3.281250,-85.241943,-1.828933,17.123371,-24.579908,33.792206,-24.614807
3.287500,-94.548347,-1.831749,9.466335,-24.465899,31.133595,-24.539772
3.293750,-101.428627,-1.834660,0.826006,-24.300797,30.530127,-24.433020
3.300000,-105.882957,-1.837478,-6.615133,-24.133453,32.143997,-24.295424
3.306250,-108.031937,-1.840051,-15.282579,-23.998220,35.954666,-24.154327
3.312500,-108.113541,-1.842374,-23.950232,-23.876972,41.775433,-24.041254
3.318750,-106.469597,-1.844526,-32.329678,-23.777243,49.346016,-23.976965
3.325000,-103.527115,-1.846531,-40.159657,-23.716661,58.323803,-23.971783
3.331250,-99.777718,-1.848168,-47.177586,-23.720961,68.278061,-24.028589
3.337500,-95.754646,-1.849420,-53.207661,-23.851377,78.692635,-24.145884
3.343750,-89.836670,-1.850270,-58.267815,-24.011673,89.027687,-24.309389
3.350000,-83.919479,-1.850789,-62.699299,-24.234119,96.883163,-24.463102
3.356250,-78.003181,-1.850964,-66.147049,-24.558935,105.491844,-24.660603
3.362500,-72.088882,-1.850985,-66.884811,-25.008265,111.758430,-24.909313
3.368750,-66.176720,-1.850746,-66.553520,-25.563364,115.802261,-25.198494
3.375000,-60.265240,-1.849928,-65.029175,-26.197283,117.227531,-25.573191
3.381250,-54.356026,-1.848726,-62.326046,-26.876373,115.855354,-25.907267
3.387500,-48.453022,-1.847940,-58.538277,-27.561922,112.333824,-26.229349
3.393750,-42.556210,-1.847972,-53.825611,-28.209368,106.093773,-26.530951
3.400000,-36.661839,-1.848353,-48.405758,-28.776812,97.697266,-26.804790
3.406250,-30.765949,-1.848546,-42.614311,-29.242884,88.151283,-27.082376
3.412500,-24.870586,-1.848899,-36.774746,-29.582544,78.114983,-27.329168
3.418750,-18.979742,-1.850183,-28.953745,-29.774273,66.232162,-27.524240
3.425000,-13.091568,-1.852433,-22.690413,-29.814287,54.792698,-27.661606
3.431250,-7.200378,-1.854843,-16.132666,-29.717880,44.229744,-27.746929
3.437500,-1.304799,-1.857110,-9.537310,-29.469130,34.997063,-27.784178
3.443750,4.590613,-1.860045,-2.922312,-29.066772,27.779514,-27.721807
3.450000,10.484604,-1.863907,3.187282,-28.556158,20.858013,-27.588909
3.456250,16.382877,-1.867950,8.629232,-27.975452,16.007515,-27.399336
3.462500,22.289782,-1.871350,13.398653,-27.368315,12.940001,-27.154583
3.468750,28.201584,-1.874121,17.579432,-26.781282,11.343225,-26.851761
3.475000,34.113674,-1.876644,21.279255,-26.279840,10.865391,-26.507059
3.481250,40.025002,-1.879041,24.758493,-25.816057,11.109550,-26.135990
3.487500,45.935638,-1.881406,26.740938,-25.419558,11.708807,-25.732315
3.493750,51.844582,-1.884193,28.617708,-25.126410,12.234253,-25.303164
3.500000,57.752754,-1.887457,30.211393,-24.941366,12.249872,-24.860556
3.506250,63.663685,-1.890414,31.422146,-24.849796,11.421182,-24.414856
3.512500,69.578682,-1.892554,32.151062,-24.817163,9.476322,-23.975525
3.518750,75.493820,-1.894491,32.380070,-24.756672,6.213912,-23.547308
3.525000,81.402718,-1.897352,32.282906,-24.742502,1.480545,-23.136051
3.531250,87.307243,-1.901255,32.390118,-24.729820,-2.697464,-22.756058
3.537500,93.214409,-1.905431,32.388248,-24.685120,-7.784110,-22.424297
3.543750,97.232620,-1.909329,32.514462,-24.598145,-13.356032,-22.136478
3.550000,100.980392,-1.913394,33.111198,-24.441582,-19.122663,-21.855549
3.556250,103.921478,-1.918196,32.613007,-24.217175,-24.613354,-21.528866
3.562500,105.567543,-1.923289,32.732838,-23.954445,-29.528463,-21.287716
3.568750,105.497879,-1.927601,33.128792,-23.680119,-32.671391,-21.117079
3.575000,103.371849,-1.930537,33.524174,-23.420546,-35.037102,-21.018818
3.581250,98.946617,-1.932410,33.635357,-23.210381,-36.357208,-21.006081
3.587500,92.095757,-1.933928,33.205059,-23.085543,-36.651180,-21.039043
3.593750,82.819366,-1.935043,32.121628,-23.035454,-35.790798,-21.140251
3.600000,71.243080,-1.935086,30.328318,-23.072052,-33.620045,-21.324213
3.606250,57.604572,-1.933776,29.672771,-23.209599,-30.297335,-21.585155
3.612500,42.238995,-1.931630,28.695845,-23.432926,-26.102272,-21.896584
3.618750,25.570038,-1.929087,27.803852,-23.759747,-21.426945,-22.233742
3.625000,8.091911,-1.925866,27.101545,-24.199875,-17.055662,-22.638924
3.631250,-9.661545,-1.921778,27.204556,-24.716160,-11.182742,-23.074032
3.637500,-27.147034,-1.917320,28.417717,-25.274279,-5.529452,-23.510145
3.643750,-43.836060,-1.913258,30.879845,-25.837013,-0.124426,-23.927979
3.650000,-59.235504,-1.909803,32.727631,-26.359222,4.944149,-24.310520
3.656250,-72.915131,-1.906953,35.521847,-26.765985,9.592530,-24.640823
3.662500,-84.533020,-1.904785,38.433201,-27.102879,13.722933,-24.913559
3.668750,-93.852119,-1.903568,42.393269,-27.348349,17.198450,-25.135122
3.675000,-100.748413,-1.902931,45.720299,-27.474344,19.930668,-25.304571
3.681250,-105.219681,-1.902391,48.146362,-27.478075,21.861599,-25.420374
3.687500,-107.389160,-1.902357,49.430695,-27.372444,22.914299,-25.485634
3.693750,-107.497292,-1.903591,49.428860,-27.183947,23.038643,-25.509319
3.700000,-105.882874,-1.905948,48.144283,-26.917580,22.238667,-25.502417
3.706250,-102.966431,-1.908485,45.731586,-26.591700,20.644945,-25.457458
3.712500,-99.238472,-1.910776,42.177441,-26.245131,18.474089,-25.368832
3.718750,-95.236839,-1.913419,35.774441,-25.904417,15.880604,-25.241280
3.725000,-89.342361,-1.916699,28.442560,-25.585672,13.189383,-25.090786
3.731250,-83.445740,-1.920021,19.908894,-25.333675,11.005913,-24.956251
3.737500,-77.544250,-1.922848,12.117914,-25.171022,9.745377,-24.849815
3.743750,-71.640274,-1.925452,3.811297,-25.083469,9.821389,-24.794104
3.750000,-65.737579,-1.928048,-4.460017,-25.058531,9.831838,-24.703230
3.756250,-59.836372,-1.930672,-12.300315,-25.092400,9.754506,-24.597603
3.762500,-53.933819,-1.933077,-19.288527,-25.163834,10.916152,-24.478382
3.768750,-48.031506,-1.935476,-24.987753,-25.236786,13.060224,-24.393824
3.775000,-42.130524,-1.938181,-29.164074,-25.322954,15.729697,-24.332989
3.781250,-36.229908,-1.940940,-31.715555,-25.409079,18.321920,-24.280313
3.787500,-30.328108,-1.943462,-32.288128,-25.474325,20.474340,-24.228443
3.793750,-24.426153,-1.946045,-30.794140,-25.533901,21.881968,-24.180910
3.800000,-18.526222,-1.949064,-29.152769,-25.532608,22.347839,-24.129759
3.806250,-12.626975,-1.952414,-25.012163,-25.444487,21.885845,-24.038897
3.812500,-6.726071,-1.955975,-19.886993,-25.309872,20.354340,-23.916643
3.818750,-0.824888,-1.959897,-14.323461,-25.145267,17.642546,-23.774092
3.825000,5.076833,-1.964152,-8.857845,-24.965168,13.884869,-23.617546
3.831250,10.982737,-1.968116,-1.836686,-24.783915,9.347225,-23.457775
3.837500,16.892260,-1.971487,4.925179,-24.615675,4.350508,-23.331686
3.843750,22.801271,-1.974951,11.586391,-24.456326,-0.764345,-23.193781
3.850000,28.707668,-1.978926,16.461864,-24.299812,-6.689203,-23.026625
3.856250,34.614853,-1.982705,21.229128,-24.155581,-12.227585,-22.869656
3.862500,40.526226,-1.985737,25.467581,-24.022322,-17.360516,-22.731295
3.868750,46.436924,-1.988596,28.846161,-23.886946,-22.064238,-22.608622
3.875000,52.340733,-1.992499,31.044941,-23.727266,-26.366222,-22.490585
3.881250,58.240597,-1.997588,31.709412,-23.549026,-30.335253,-22.361603
3.887500,64.144058,-2.002797,30.443508,-23.353867,-34.154572,-22.226679
3.893750,70.054054,-2.007512,27.174240,-23.123766,-38.079380,-22.090456
3.900000,75.965515,-2.012455,23.978586,-22.848845,-42.244656,-21.945597
3.906250,81.874054,-2.018463,19.410204,-22.528658,-44.948448,-21.790438
3.912500,87.782639,-2.025466,13.936910,-22.165333,-48.059975,-21.620066
3.918750,93.698029,-2.032828,8.022755,-21.765568,-51.288010,-21.421524
3.925000,97.727180,-2.039967,2.032312,-21.356571,-54.394978,-21.167545
3.931250,101.491165,-2.046769,-3.694769,-20.963560,-57.445465,-20.948509
3.937500,104.456558,-2.053100,-8.725292,-20.606607,-58.236843,-20.759977
3.943750,106.130188,-2.058764,-12.733569,-20.308609,-57.845600,-20.610048
3.950000,106.086235,-2.063316,-15.498058,-20.092039,-55.807957,-20.512697
3.956250,103.983528,-2.066174,-16.895351,-19.974527,-51.769085,-20.483166
3.962500,99.582466,-2.067355,-16.868553,-19.966364,-45.480145,-20.533966
3.968750,92.757317,-2.067050,-15.416080,-20.064623,-36.801254,-20.672852
3.975000,83.505341,-2.065491,-14.488042,-20.236401,-25.738394,-20.911058
3.981250,71.947693,-2.062613,-10.394605,-20.531206,-12.454202,-21.275600
3.987500,58.319622,-2.058659,-6.044263,-20.933041,1.443786,-21.682327
3.993750,42.959373,-2.053887,-0.758112,-21.397875,16.606796,-22.191792
4.000000,26.293718,-2.048502,4.815390,-21.922182,32.235889,-22.811354
4.006250,8.814921,-2.042463,10.326384,-22.489456,47.464821,-23.573059
4.012500,-8.946680,-2.036282,15.507772,-23.072132,61.217781,-24.331018
4.018750,-26.446856,-2.030857,20.110313,-23.637394,74.185562,-25.064383
4.025000,-43.151981,-2.026357,23.846996,-24.169428,84.410927,-25.808525
4.031250,-58.565220,-2.022363,28.580425,-24.658587,92.801857,-26.567127
4.037500,-72.257210,-2.018944,30.944630,-25.083714,98.481766,-27.286383
4.043750,-83.890625,-2.016776,32.981445,-25.431850,101.736458,-27.936558
4.050000,-93.226852,-2.016024,34.546631,-25.702896,102.964554,-28.500336
4.056250,-100.137688,-2.015690,35.572266,-25.886768,102.693001,-28.968063
4.062500,-104.620621,-2.015098,36.132210,-25.966387,99.723511,-29.306959
4.068750,-106.803802,-2.015276,36.177265,-25.958410,96.453377,-29.503035
4.075000,-106.928970,-2.017471,35.725117,-25.880135,92.944008,-29.563807
4.081250,-105.330215,-2.020910,34.956875,-25.745102,89.424591,-29.493441
4.087500,-102.424644,-2.024126,34.125099,-25.561945,84.056129,-29.292820
4.093750,-98.704735,-2.026721,33.531536,-25.339502,78.566193,-28.968607
4.100000,-94.712303,-2.029591,31.594046,-25.092503,72.810684,-28.541204
4.106250,-88.828957,-2.033332,30.310278,-24.826004,66.695114,-28.049950
4.112500,-82.945671,-2.037563,29.585274,-24.532116,60.299313,-27.452347
4.118750,-77.059021,-2.042076,29.160471,-24.227131,53.795547,-26.784653
4.125000,-71.170876,-2.047191,28.740459,-23.926950,46.917763,-26.087576
4.131250,-65.281647,-2.052939,28.153532,-23.640261,39.817230,-25.391468
4.137500,-59.387600,-2.058706,27.286020,-23.370886,32.690449,-24.719542
4.143750,-53.487560,-2.064153,26.052799,-23.117783,25.751438,-24.089014
4.150000,-47.584675,-2.069650,24.368193,-22.880285,19.189507,-23.513422
4.156250,-41.681477,-2.075485,24.329781,-22.654360,13.178038,-22.992931
4.162500,-35.777191,-2.081687,24.527323,-22.428707,7.861252,-22.542006
4.168750,-29.869480,-2.087977,23.548176,-22.192823,4.945967,-22.160570
4.175000,-23.957891,-2.094375,23.246834,-21.965710,1.865599,-21.848385
4.181250,-18.042700,-2.100680,23.433653,-21.752060,0.335762,-21.598162
4.187500,-12.123078,-2.106679,23.912647,-21.556450,0.239545,-21.348639
4.193750,-6.198857,-2.112313,24.458801,-21.385077,1.636308,-21.211948
4.200000,-0.270898,-2.117326,24.841612,-21.245428,2.602956,-21.158300
4.206250,5.660366,-2.121414,24.845398,-21.144434,3.822522,-21.166622
4.212500,11.594179,-2.124374,24.306662,-21.079035,6.326205,-21.193903
4.218750,17.526644,-2.126596,25.287809,-21.038231,7.878634,-21.244120
4.225000,23.455387,-2.128572,24.379801,-21.017788,8.479377,-21.317650
4.231250,29.380194,-2.130423,23.562054,-21.006145,7.977172,-21.400938
4.237500,35.302532,-2.131969,22.624456,-21.003218,6.203461,-21.471457
4.243750,41.222603,-2.133267,21.237759,-21.024918,5.074260,-21.538313
4.250000,47.141327,-2.134190,19.238119,-21.056711,2.973166,-21.600651
4.256250,53.057861,-2.134649,16.480118,-21.081026,0.421465,-21.642290
4.262500,58.970181,-2.135190,12.730529,-21.083014,-2.167236,-21.652006
4.268750,64.875137,-2.136550,7.790493,-21.052370,-4.438123,-21.619349
4.275000,70.773613,-2.139026,1.480564,-20.981552,-6.077728,-21.537401
4.281250,76.671593,-2.142116,-4.193271,-20.858582,-6.814500,-21.393845
4.287500,82.571800,-2.145595,-10.760796,-20.680771,-6.451155,-21.159956
4.293750,88.471390,-2.150259,-17.965004,-20.471212,-5.080251,-20.905998
4.300000,94.370163,-2.156309,-25.436514,-20.231768,-2.978081,-20.634119
4.306250,98.381241,-2.162555,-32.732243,-19.965593,0.052694,-20.341940
4.312500,102.130821,-2.167902,-39.534229,-19.683725,3.805215,-20.038990
4.318750,105.081581,-2.172825,-45.571564,-19.400774,8.015893,-19.738874
4.325000,106.733498,-2.178263,-50.642258,-19.138067,12.381093,-19.459192
4.331250,106.661636,-2.184082,-54.599846,-18.918814,16.590466,-19.214840
4.337500,104.532379,-2.189205,-57.345078,-18.792601,20.372036,-19.008190
4.343750,100.109482,-2.193200,-58.899696,-18.663689,23.504087,-18.782806
4.350000,93.266632,-2.196262,-58.260040,-18.608316,25.510933,-18.661953
4.356250,84.002007,-2.198255,-56.319679,-18.660938,28.062862,-18.626074
4.362500,72.437714,-2.198665,-52.877541,-18.820301,29.915752,-18.686361
4.368750,58.808384,-2.197857,-48.023178,-19.078272,31.423943,-18.869207
4.375000,43.447929,-2.196639,-41.959003,-19.421425,32.827431,-19.113422
4.381250,26.784100,-2.194943,-34.958042,-19.828102,34.188198,-19.402945
4.387500,9.313828,-2.192095,-27.343908,-20.272234,36.304523,-19.744093
4.393750,-8.432554,-2.188375,-19.530552,-20.737083,37.496452,-20.164755
4.400000,-25.915209,-2.184999,-11.978070,-21.210037,39.327183,-20.640818
4.406250,-42.601292,-2.182076,-2.888954,-21.673231,41.374039,-21.146126
4.412500,-57.992786,-2.178750,4.151145,-22.113251,43.348755,-21.661797
4.418750,-71.661278,-2.175179,10.986280,-22.524275,45.036732,-22.173910
4.425000,-83.272285,-2.172222,17.444666,-22.844025,46.358749,-22.634695
4.431250,-92.589188,-2.170344,23.352785,-23.072613,47.319008,-23.016642
4.437500,-99.484360,-2.168850,28.319599,-23.221685,47.692154,-23.315828
4.443750,-103.956184,-2.167569,32.298962,-23.299143,47.476452,-23.525446
4.450000,-106.130264,-2.167327,35.357914,-23.306698,46.801701,-23.638145
4.456250,-106.244415,-2.168606,37.625919,-23.249046,45.836929,-23.652491
4.462500,-104.633186,-2.170609,39.302841,-23.136404,44.764366,-23.574495
4.468750,-101.719734,-2.172923,40.676731,-22.988291,43.806416,-23.426115
4.475000,-97.999153,-2.176009,40.233208,-22.803205,43.258808,-23.193066
4.481250,-94.005646,-2.179941,40.139294,-22.574617,41.845943,-22.862309
4.487500,-88.112305,-2.183825,40.054306,-22.334597,41.098534,-22.479937
4.493750,-82.213341,-2.187391,39.788853,-22.104816,40.715904,-22.075840
4.500000,-76.315880,-2.191855,39.276917,-21.896271,40.479965,-21.671328
4.506250,-70.421394,-2.197928,38.492336,-21.709476,40.179688,-21.281347
4.512500,-64.521660,-2.204402,37.429401,-21.531660,39.595509,-20.915230
4.518750,-58.609375,-2.209793,36.087231,-21.305567,38.481476,-20.583031
4.525000,-52.687981,-2.214247,34.494793,-21.122852,36.518829,-20.319939
4.531250,-46.767391,-2.218981,33.734653,-20.987324,33.256088,-20.114805
4.537500,-40.848690,-2.224318,33.302570,-20.855505,30.055485,-19.944901
4.543750,-34.924007,-2.229456,31.794489,-20.716516,25.419823,-19.820620
4.550000,-28.990973,-2.233620,30.925291,-20.597988,19.674086,-19.718449
4.556250,-23.052183,-2.236863,30.408981,-20.522116,13.226861,-19.699717
4.562500,-17.111891,-2.239590,30.028204,-20.508282,6.780823,-19.779818
4.568750,-11.170494,-2.241824,29.559889,-20.581995,0.311401,-19.955372
4.575000,-5.226303,-2.243288,28.777731,-20.801756,-5.993289,-20.173687
4.581250,0.721326,-2.243512,27.502083,-21.084717,-11.816190,-20.447378
4.587500,6.669807,-2.242469,24.450066,-21.453003,-16.649431,-20.787964
4.593750,12.616567,-2.240483,22.509623,-21.925711,-20.311815,-21.187841
4.600000,18.559019,-2.237659,19.808050,-22.505985,-22.753616,-21.626701
4.606250,24.497885,-2.233826,16.215811,-23.253391,-24.122768,-22.116028
4.612500,30.432039,-2.229044,12.669920,-24.041237,-24.680660,-22.646004
4.618750,36.356083,-2.224289,8.510965,-24.899427,-24.503658,-23.194679
4.625000,42.268131,-2.220294,4.090487,-25.807785,-23.867430,-23.746378
4.631250,48.173851,-2.216481,-0.301117,-26.732914,-23.096800,-24.287560
4.637500,54.078106,-2.211801,-4.403274,-27.632330,-22.553370,-24.801136
4.643750,59.977451,-2.206836,-7.968894,-28.453547,-22.602085,-25.251781
4.650000,65.863037,-2.203168,-12.693821,-29.136078,-23.590679,-25.592306
4.656250,71.734207,-2.201552,-14.716333,-29.652693,-25.900858,-25.829988
4.662500,77.599594,-2.201503,-16.087946,-29.995756,-28.103754,-25.986494
4.668750,83.463966,-2.202734,-16.675526,-30.135372,-31.580830,-26.035259
4.675000,89.327896,-2.205509,-16.505495,-30.059464,-36.095448,-25.968266
4.681250,93.298012,-2.209605,-15.710846,-29.771029,-41.441124,-25.786556
4.687500,96.999481,-2.214374,-14.493711,-29.294161,-47.394558,-25.501299
4.693750,99.898766,-2.220106,-13.099805,-28.667105,-53.686478,-25.124233
4.700000,101.500526,-2.227836,-11.820965,-27.918341,-59.973167,-24.657679
4.706250,101.380478,-2.237213,-11.148834,-27.050953,-65.889610,-24.094711
4.712500,99.208954,-2.246520,-11.325359,-26.106642,-70.995827,-23.487526
4.718750,94.752884,-2.254541,-12.692358,-25.161470,-76.699547,-22.893084
