Anritsu VNA Frequency[GHz],S21[deg],S21[dB],S11[deg],S11[dB],S22[deg],S22[dB]
1338042531.78,2012_05_26_15:28:51,+194.01,+274.19,+280.85,+274.65,+280.23,+281.23,+276.67,+276.88,232.075211,-5.690
3.006250,72.496086,-3.039488,12.112323,-28.940893,-53.746563,-30.112827
3.012500,72.496086,-3.039488,12.112323,-28.940893,-53.746563,-30.112827
3.018750,72.496086,-3.039488,12.112323,-28.940893,-53.746563,-30.112827
3.025000,72.496086,-3.039488,12.112323,-28.940893,-53.746563,-30.112827
3.031250,72.496086,-3.039488,12.112323,-28.940893,-53.746563,-30.112827
3.037500,72.496086,-3.039488,12.112323,-28.940893,-53.746563,-30.112827
3.043750,72.496086,-3.039488,12.112323,-28.940893,-53.746563,-30.112827
3.050000,72.496086,-3.039488,12.112323,-28.940893,-53.746563,-30.112827
3.056250,72.496086,-3.039488,12.112323,-28.940893,-53.746563,-30.112827
3.062500,72.496086,-3.039488,12.112323,-28.940893,-53.746563,-30.112827
3.068750,72.496086,-3.039488,12.112323,-28.940893,-53.746563,-30.112827
3.075000,72.496086,-3.039488,12.112323,-28.940893,-53.746563,-30.112827
3.081250,72.496086,-3.039488,12.112323,-28.940893,-53.746563,-30.112827
3.087500,72.496086,-3.039488,12.112323,-28.940893,-53.746563,-30.112827
3.093750,72.496086,-3.042152,12.112323,-28.776863,-53.746563,-30.155289
3.100000,78.484688,-3.045364,6.480902,-28.587965,-54.817158,-30.116232
3.106250,84.471611,-3.049069,-0.362425,-28.387827,-55.332901,-29.996944
3.112500,90.459641,-3.052914,-6.301872,-28.195816,-55.041859,-29.797390
3.118750,94.554665,-3.056711,-11.400609,-28.030220,-53.696953,-29.513029
3.125000,98.376633,-3.060585,-15.748124,-27.907438,-51.089561,-29.141138
3.131250,101.391914,-3.064599,-19.215820,-27.777161,-47.113091,-28.697439
3.137500,103.108963,-3.068809,-21.820910,-27.660225,-41.689007,-28.193058
3.143750,103.099678,-3.073365,-23.801039,-27.576115,-34.690792,-27.635931
3.150000,101.024330,-3.078319,-25.142994,-27.529600,-28.010761,-27.043905
3.156250,96.648102,-3.083296,-25.815636,-27.517420,-20.112656,-26.441536
3.162500,89.849907,-3.088029,-25.818127,-27.531132,-11.658898,-25.857084
3.168750,80.629044,-3.092636,-25.162571,-27.556883,-3.300625,-25.317616
3.175000,69.105606,-3.097347,-21.722990,-27.577339,4.345352,-24.852890
3.181250,55.516010,-3.102172,-18.791637,-27.556921,10.730570,-24.491291
3.187500,40.202286,-3.106987,-14.139706,-27.505062,15.563600,-24.176929
3.193750,23.592560,-3.111728,-9.695840,-27.429962,18.639830,-23.892179
3.200000,6.178160,-3.116349,-4.566732,-27.319628,19.667681,-23.705563
3.206250,-11.507698,-3.120869,0.565694,-27.174246,18.944427,-23.617311
3.212500,-28.919170,-3.125066,5.149119,-26.999252,16.330431,-23.615662
3.218750,-45.524868,-3.129254,10.871834,-26.804766,12.114647,-23.703529
3.225000,-60.833511,-3.133528,15.978928,-26.600681,6.732267,-23.925991
3.231250,-74.416611,-3.137657,20.688194,-26.390650,0.496358,-24.140265
3.237500,-85.932060,-3.141397,23.355373,-26.176710,-6.662756,-24.385420
3.243750,-95.145088,-3.144915,25.823442,-25.963371,-13.777347,-24.666773
3.250000,-101.937195,-3.148784,27.778427,-25.748602,-20.656727,-24.968575
3.256250,-106.307304,-3.153110,28.923475,-25.530188,-27.182804,-25.268881
3.262500,-108.373734,-3.157406,28.894600,-25.332186,-33.315521,-25.546877
3.268750,-108.371941,-3.161274,27.399899,-25.159386,-39.087406,-25.789465
3.275000,-106.644043,-3.164791,24.347692,-25.006250,-44.573612,-25.985428
3.281250,-103.621025,-3.168584,19.590925,-24.867130,-49.840511,-26.121120
3.287500,-99.795570,-3.172914,15.165646,-24.733685,-53.121433,-26.188837
3.293750,-95.697052,-3.177598,9.625213,-24.596874,-56.244389,-26.184908
3.300000,-89.701668,-3.182297,3.461004,-24.439659,-58.915619,-26.105108
3.306250,-83.703217,-3.186853,-2.856727,-24.241579,-60.874702,-25.951244
3.312500,-77.702705,-3.191253,-9.148141,-24.057327,-61.930492,-25.734814
3.318750,-71.701378,-3.195676,-15.133383,-23.878592,-61.989124,-25.476114
3.325000,-65.699562,-3.200178,-20.349375,-23.700975,-61.070621,-25.200012
3.331250,-59.695400,-3.204574,-24.600397,-23.530251,-57.049545,-24.923157
3.337500,-53.688171,-3.208501,-27.778906,-23.376303,-53.271698,-24.659233
3.343750,-47.677975,-3.211920,-29.845192,-23.256109,-47.795219,-24.421324
3.350000,-41.667038,-3.214930,-30.809422,-23.191368,-40.940559,-24.216600
3.356250,-35.655788,-3.217515,-30.746382,-23.233627,-33.095573,-24.044121
3.362500,-29.645115,-3.219772,-27.548830,-23.307369,-24.716618,-23.889654
3.368750,-23.634598,-3.221603,-24.166880,-23.452320,-16.466679,-23.808804
3.375000,-17.624454,-3.222911,-19.315432,-23.705017,-9.032496,-23.809893
3.381250,-11.614834,-3.223560,-13.157823,-24.065067,-2.702380,-23.896608
3.387500,-5.607965,-3.223747,-5.916295,-24.518406,2.108170,-24.071854
3.393750,0.394002,-3.224018,2.091901,-25.042042,5.140202,-24.312824
3.400000,6.391284,-3.224559,10.504359,-25.604530,6.246356,-24.592222
3.406250,12.386194,-3.225041,18.921921,-26.171957,5.271682,-24.837154
3.412500,18.379835,-3.225430,25.009335,-26.717211,2.478612,-25.166861
3.418750,24.370474,-3.225993,32.139214,-27.214981,-1.185492,-25.524466
3.425000,30.356680,-3.227228,38.077118,-27.641085,-5.750738,-25.877302
3.431250,36.340389,-3.229073,42.547943,-27.976379,-10.525946,-26.207127
3.437500,42.325623,-3.230878,45.354393,-28.208878,-14.750972,-26.503511
3.443750,48.312359,-3.232700,46.394894,-28.332455,-17.659967,-26.764088
3.450000,54.297096,-3.235242,45.745327,-28.328220,-18.451130,-26.958073
3.456250,60.279209,-3.238654,43.543076,-28.200495,-18.261734,-27.070532
3.462500,66.264702,-3.242218,39.938557,-27.971392,-15.074255,-27.109089
3.468750,72.256187,-3.245303,35.290428,-27.666899,-11.175555,-27.074619
3.475000,78.250381,-3.248003,30.103621,-27.314413,-5.349786,-26.966700
3.481250,84.243027,-3.250921,24.921740,-26.947828,1.672460,-26.793158
3.487500,90.232986,-3.254269,18.438639,-26.604475,9.117746,-26.561487
3.493750,96.221855,-3.258043,13.066669,-26.250715,16.217342,-26.274342
3.500000,100.316826,-3.262109,8.904174,-25.921495,22.242985,-25.934071
3.506250,104.140465,-3.266397,5.768851,-25.645323,26.535433,-25.548826
3.512500,107.160492,-3.270326,3.726635,-25.433113,28.528744,-25.132460
3.518750,108.884598,-3.273948,2.835175,-25.284737,29.970715,-24.698599
3.525000,108.881271,-3.277823,3.112579,-25.185291,29.253441,-24.257187
3.531250,106.807686,-3.282571,4.501907,-25.107174,26.764145,-23.819157
3.537500,102.429466,-3.288236,6.879657,-24.980469,22.956203,-23.394341
3.543750,95.630836,-3.293969,9.955460,-24.870699,18.321499,-22.996164
3.550000,86.412949,-3.299447,14.982659,-24.760265,13.326581,-22.655409
3.556250,74.894348,-3.304980,18.872637,-24.623549,8.355563,-22.364384
3.562500,61.310188,-3.310938,23.362026,-24.443512,3.515982,-22.082645
3.568750,46.003742,-3.317013,27.919840,-24.223623,-0.667047,-21.838186
3.575000,29.406544,-3.322516,31.933701,-23.984358,-4.112612,-21.666626
3.581250,12.010137,-3.326933,34.866962,-23.749929,-6.952908,-21.591917
3.587500,-5.656352,-3.330483,36.268131,-23.550497,-9.272030,-21.637768
3.593750,-23.049953,-3.333578,37.963886,-23.415369,-11.330593,-21.792381
3.600000,-39.637711,-3.336173,38.354183,-23.369925,-12.104919,-22.002903
3.606250,-54.924965,-3.337769,37.868366,-23.416756,-13.157884,-22.304068
3.612500,-68.484512,-3.338062,36.983021,-23.557032,-14.391888,-22.695065
3.618750,-79.979843,-3.337472,34.097347,-23.802099,-15.849925,-23.155575
3.625000,-89.176567,-3.336374,31.194334,-24.152933,-17.614302,-23.653885
3.631250,-95.952423,-3.334581,28.032454,-24.619415,-19.887844,-24.188959
3.637500,-100.306793,-3.332056,24.390331,-25.185684,-20.750988,-24.747128
3.643750,-102.363815,-3.329145,20.161707,-25.818674,-21.553438,-25.294004
3.650000,-102.363197,-3.326541,15.161156,-26.481850,-21.905737,-25.802767
3.656250,-100.645081,-3.324526,9.169122,-27.133490,-21.537724,-26.252493
3.662500,-97.633781,-3.323010,1.972683,-27.722425,-20.255533,-26.623100
3.668750,-93.820496,-3.322030,-4.472084,-28.190653,-17.938980,-26.899458
3.675000,-89.737640,-3.321821,-11.912849,-28.560637,-14.552319,-27.075626
3.681250,-83.763023,-3.322485,-20.096603,-28.800318,-10.170204,-27.156355
3.687500,-77.789513,-3.323733,-28.467993,-28.885834,-4.941613,-27.146044
3.693750,-71.817055,-3.325889,-36.697891,-28.812170,0.937408,-27.049831
3.700000,-65.847092,-3.329380,-44.497944,-28.592649,7.201521,-26.877413
3.706250,-59.876835,-3.333902,-51.612770,-28.261026,13.541799,-26.643972
3.712500,-53.900543,-3.338787,-57.800137,-27.898724,19.656425,-26.366171
3.718750,-47.918560,-3.343568,-62.705845,-27.428843,25.292244,-26.055162
3.725000,-41.934662,-3.348781,-67.613541,-26.930687,30.252907,-25.713572
3.731250,-35.949112,-3.354604,-71.311058,-26.457340,34.372330,-25.335964
3.737500,-29.959385,-3.360486,-71.971268,-26.043301,37.618359,-24.952312
3.743750,-23.962467,-3.365865,-71.401268,-25.726707,40.396500,-24.626148
3.750000,-17.959608,-3.370710,-69.567345,-25.526789,42.682564,-24.361153
3.756250,-11.954935,-3.375072,-66.403320,-25.440611,44.745121,-24.162716
3.762500,-5.948527,-3.379041,-61.959366,-25.458143,45.246048,-23.993544
3.768750,0.059438,-3.382551,-56.381119,-25.558990,46.282696,-23.834972
3.775000,6.067752,-3.385778,-49.866238,-25.713963,47.701790,-23.701868
3.781250,12.075424,-3.388963,-42.673134,-25.892347,47.978558,-23.653057
3.787500,18.082825,-3.391820,-37.047596,-26.079287,48.213036,-23.651724
3.793750,24.091049,-3.394228,-31.743067,-26.260527,48.063873,-23.681168
3.800000,30.098333,-3.396456,-25.307211,-26.409988,47.320076,-23.733587
3.806250,36.101665,-3.398952,-19.809563,-26.518353,45.847511,-23.802696
3.812500,42.101830,-3.401706,-15.339650,-26.551722,43.612503,-23.870560
3.818750,48.100758,-3.404646,-11.687978,-26.483215,40.697140,-23.909960
3.825000,54.097687,-3.407925,-9.073157,-26.338871,37.090080,-23.921064
3.831250,60.093319,-3.411592,-7.399170,-26.138847,32.844696,-23.906116
3.837500,66.088882,-3.415359,-6.390559,-25.899817,28.194502,-23.864912
3.843750,72.085220,-3.418951,-5.695446,-25.640844,23.455847,-23.803108
3.850000,78.081108,-3.422692,-4.909048,-25.378628,18.987415,-23.732050
3.856250,84.075127,-3.426745,-5.472300,-25.120687,15.202457,-23.640501
3.862500,90.068649,-3.430767,-5.319519,-24.873875,10.724275,-23.513145
3.868750,94.168694,-3.434493,-4.645629,-24.650854,7.385321,-23.368977
3.875000,97.994026,-3.438410,-3.642333,-24.459948,4.931859,-23.219952
3.881250,101.009094,-3.443291,-2.468113,-24.297562,3.180310,-23.070332
3.887500,102.724342,-3.449094,-1.251648,-24.142200,1.939526,-22.917187
3.893750,102.718086,-3.454790,-0.138210,-23.919994,0.975870,-22.756065
3.900000,100.651764,-3.460067,0.553540,-23.728832,-0.003699,-22.585562
3.906250,96.282913,-3.465641,2.273535,-23.528395,-1.340645,-22.412489
3.912500,89.485260,-3.472349,3.923452,-23.295364,-3.359371,-22.238901
3.918750,80.262764,-3.480224,5.693675,-23.020918,-6.331112,-22.060606
3.925000,68.742310,-3.488611,7.714643,-22.705547,-10.534917,-21.872746
3.931250,55.163944,-3.496920,10.044234,-22.357199,-16.261469,-21.664776
3.937500,39.867607,-3.505055,12.676424,-21.989779,-23.780970,-21.430264
3.943750,23.278200,-3.513141,15.573879,-21.622057,-31.326162,-21.214981
3.950000,5.887418,-3.521120,18.683367,-21.275026,-40.488480,-21.027199
3.956250,-11.769238,-3.528416,21.922430,-20.967463,-50.727234,-20.871136
3.962500,-29.144714,-3.534378,25.146029,-20.717356,-61.638367,-20.756969
3.968750,-45.707642,-3.538852,28.468554,-20.538477,-72.826256,-20.695436
3.975000,-60.970299,-3.542010,31.987337,-20.438190,-83.903122,-20.696899
3.981250,-74.508461,-3.544134,35.523373,-20.415480,-94.492332,-20.771597
3.987500,-85.981888,-3.545046,38.892982,-20.454315,-104.252945,-20.938314
3.993750,-95.153297,-3.544741,41.855995,-20.573368,-112.857826,-21.165314
4.000000,-101.903076,-3.543309,43.968689,-20.787395,-119.816879,-21.455484
4.006250,-106.232513,-3.540983,45.331528,-21.068853,-125.335007,-21.831936
4.012500,-108.264496,-3.537694,45.824135,-21.406809,-129.228607,-22.296284
4.018750,-108.236778,-3.533681,45.330311,-21.791227,-131.414017,-22.847263
4.025000,-106.492554,-3.529511,43.831379,-22.205004,-131.940933,-23.494577
4.031250,-103.460129,-3.525630,39.468990,-22.628204,-131.216934,-24.122976
4.037500,-99.630089,-3.522088,36.070107,-23.049633,-129.789154,-24.753653
4.043750,-95.533134,-3.518981,31.792080,-23.461699,-125.818794,-25.408533
4.050000,-89.547386,-3.516617,26.813780,-23.850328,-121.182503,-26.063391
4.056250,-83.567146,-3.514973,21.350933,-24.206135,-116.028976,-26.693857
4.062500,-77.588966,-3.513655,15.639598,-24.526443,-110.631241,-27.278933
4.068750,-71.612526,-3.512420,9.975732,-24.801054,-105.279266,-27.799528
4.075000,-65.641602,-3.512203,4.768626,-25.008760,-100.227898,-28.233147
4.081250,-59.677917,-3.513678,0.266769,-25.158869,-95.688927,-28.558260
4.087500,-53.717144,-3.516457,-5.172052,-25.261490,-91.872116,-28.764660
4.093750,-47.750057,-3.519167,-9.591279,-25.320576,-88.921112,-28.845863
4.100000,-41.777714,-3.521469,-13.188730,-25.337120,-86.864273,-28.799492
4.106250,-35.807041,-3.524193,-16.170134,-25.311668,-85.643623,-28.628721
4.112500,-29.842327,-3.528141,-18.718132,-25.245480,-85.113007,-28.346243
4.118750,-23.879545,-3.533090,-20.987246,-25.142006,-85.060654,-27.980118
4.125000,-17.913649,-3.538412,-23.110697,-24.998953,-85.143837,-27.516586
4.131250,-11.943749,-3.543963,-25.219431,-24.816088,-84.838799,-26.963097
4.137500,-5.971784,-3.549870,-27.486851,-24.601616,-84.064148,-26.362967
4.143750,0.002653,-3.556021,-30.018814,-24.362341,-82.494812,-25.747776
4.150000,5.980349,-3.562267,-30.690136,-24.103111,-79.744987,-25.141359
4.156250,11.960985,-3.568621,-30.878706,-23.828838,-75.471634,-24.562300
4.162500,17.943626,-3.575247,-31.984688,-23.542345,-69.411629,-24.018963
4.168750,23.929165,-3.582149,-31.940714,-23.246683,-61.394657,-23.502743
4.175000,29.918337,-3.589241,-30.917961,-22.947838,-51.445194,-23.074974
4.181250,35.911770,-3.596508,-29.132944,-22.644714,-41.839443,-22.722042
4.187500,41.910282,-3.603692,-26.818298,-22.342134,-30.613667,-22.429804
4.193750,47.914242,-3.610623,-24.351538,-22.056870,-18.815508,-22.206499
4.200000,53.923672,-3.617186,-22.046204,-21.801682,-7.268655,-22.041851
4.206250,59.937050,-3.623362,-20.185953,-21.587610,3.300366,-21.895077
4.212500,65.954262,-3.628858,-16.868954,-21.424952,12.500896,-21.856035
4.218750,71.974930,-3.633509,-13.677526,-21.321575,20.049620,-21.967699
4.225000,77.996185,-3.637490,-10.271563,-21.275694,25.175526,-22.059443
4.231250,84.015205,-3.641148,-8.212891,-21.278450,28.877155,-22.186806
4.237500,90.031670,-3.644721,-5.615519,-21.319387,30.146423,-22.359777
4.243750,96.046165,-3.647843,-2.826249,-21.384148,29.355482,-22.569809
4.250000,100.165443,-3.650505,-0.240252,-21.467497,26.934547,-22.802320
4.256250,104.009590,-3.652653,1.641107,-21.579042,23.344143,-23.045033
4.262500,107.043701,-3.654490,2.482645,-21.701931,19.054447,-23.289783
4.268750,108.775146,-3.656231,4.151804,-21.816019,14.582681,-23.520863
4.275000,108.774483,-3.658516,4.969008,-21.906252,10.457858,-23.719908
4.281250,106.701859,-3.661557,5.135147,-21.964048,7.134583,-23.871140
4.287500,102.323738,-3.665119,4.840403,-21.980772,5.003961,-23.959885
4.293750,95.521065,-3.669042,4.255096,-21.947762,4.374376,-23.968962
4.300000,86.291862,-3.673867,3.494608,-21.860861,5.416412,-23.873777
4.306250,74.757324,-3.680001,2.628806,-21.724922,8.088160,-23.699123
4.312500,61.160015,-3.686745,1.698343,-21.547159,12.054472,-23.466116
4.318750,45.845875,-3.693178,0.768274,-21.332140,17.325024,-23.168171
4.325000,29.239275,-3.699365,-0.119110,-21.085886,23.647562,-22.810518
4.331250,11.826585,-3.706291,-0.978087,-20.819954,30.622097,-22.408159
4.337500,-5.859120,-3.714124,-1.844138,-20.547161,37.798893,-21.978180
4.343750,-23.264910,-3.721948,-0.589809,-20.283335,44.720165,-21.538847
4.350000,-39.854248,-3.728985,1.369592,-20.049070,50.926571,-21.105572
4.356250,-55.137920,-3.735352,2.580113,-19.889612,56.004250,-20.679577
4.362500,-68.692635,-3.741043,5.218164,-19.728590,61.661228,-20.311666
4.368750,-80.177025,-3.745839,9.082197,-19.638201,66.048416,-20.024252
4.375000,-89.353386,-3.749481,13.650182,-19.639935,67.679520,-19.838314
4.381250,-96.104401,-3.752245,18.775717,-19.739960,68.465118,-19.790630
4.387500,-100.432091,-3.754216,24.254137,-19.934071,68.220573,-19.892223
4.393750,-102.454445,-3.754878,29.847757,-20.209709,67.668526,-20.047653
4.400000,-102.411659,-3.754286,33.390396,-20.551189,66.073921,-20.223728
4.406250,-100.648109,-3.753086,36.215637,-20.943493,63.788399,-20.568586
4.412500,-97.593353,-3.751557,39.667049,-21.375370,59.796574,-21.017263
4.418750,-93.736671,-3.749233,41.669468,-21.828985,55.269718,-21.533310
4.425000,-89.609131,-3.745977,42.157814,-22.284189,50.322285,-22.089525
4.431250,-83.594124,-3.742455,41.138138,-22.720982,45.115063,-22.662132
4.437500,-77.589363,-3.739197,38.762016,-23.104256,39.890076,-23.213942
4.443750,-71.592545,-3.736094,35.279976,-23.411438,34.952961,-23.706461
4.450000,-65.601326,-3.733179,30.914196,-23.639307,30.496010,-24.121630
4.456250,-59.619110,-3.731257,26.036114,-23.783566,26.748480,-24.443075
4.462500,-53.646832,-3.731078,21.115602,-23.840433,23.990086,-24.657650
4.468750,-47.678139,-3.732140,14.782116,-23.807968,22.480463,-24.754856
4.475000,-41.706810,-3.733593,9.207561,-23.689844,22.448067,-24.729969
4.481250,-35.733582,-3.735489,4.384056,-23.499290,24.070921,-24.590860
4.487500,-29.763281,-3.738499,0.307153,-23.252939,25.595741,-24.353464
4.493750,-23.793816,-3.742572,-2.977353,-22.953989,28.825832,-24.004875
4.500000,-17.822880,-3.747463,-5.459260,-22.618160,33.294350,-23.567656
4.506250,-11.850283,-3.753547,-7.264807,-22.273603,38.282799,-23.080906
4.512500,-5.875371,-3.760916,-8.464701,-21.942913,43.234791,-22.576658
4.518750,0.106035,-3.768818,-9.096943,-21.640364,47.656948,-22.081928
4.525000,6.099853,-3.775990,-9.208213,-21.370621,51.089775,-21.619148
4.531250,12.103939,-3.782156,-8.869207,-21.123722,53.114223,-21.206100
4.537500,18.109695,-3.788176,-6.025274,-20.851927,53.337391,-20.866892
4.543750,24.114386,-3.794678,-4.367332,-20.667809,51.307873,-20.633221
4.550000,30.122057,-3.801072,-2.186476,-20.541521,46.326118,-20.462849
4.556250,36.136215,-3.806669,0.606847,-20.449038,42.501221,-20.379333
4.562500,42.156254,-3.811408,3.597810,-20.392633,36.835140,-20.367390
4.568750,48.179176,-3.815440,6.256182,-20.391947,30.210968,-20.416452
4.575000,54.201839,-3.818928,8.134075,-20.470348,22.554270,-20.622892
4.581250,60.226967,-3.821625,11.065106,-20.652903,15.319136,-20.978680
4.587500,66.254280,-3.823128,13.449792,-20.968018,7.510926,-21.365164
4.593750,72.282661,-3.823354,15.838326,-21.353394,1.488937,-21.816645
4.600000,78.309677,-3.822510,16.706144,-21.835129,-3.109843,-22.338690
4.606250,84.332169,-3.820894,17.783773,-22.420528,-6.254642,-22.919762
4.612500,90.349503,-3.818588,18.923893,-23.101387,-7.978814,-23.538441
4.618750,94.466743,-3.815773,19.957186,-23.878708,-8.434667,-24.180750
4.625000,98.303619,-3.812953,20.758333,-24.719112,-7.892551,-24.836494
4.631250,101.327370,-3.810441,21.344755,-25.586744,-6.554542,-25.479946
4.637500,103.049049,-3.807818,21.541996,-26.457701,-4.700912,-26.092754
4.643750,103.044777,-3.804378,19.375731,-27.301573,-2.701689,-26.665884
4.650000,100.970345,-3.800354,18.640776,-28.081785,-0.934165,-27.190512
4.656250,96.581154,-3.797304,17.485594,-28.759418,0.158056,-27.631102
4.662500,89.752625,-3.796354,15.973995,-29.293394,0.077035,-27.954256
4.668750,80.492950,-3.797120,14.173571,-29.645996,0.758657,-28.148111
4.675000,68.929520,-3.799020,12.071876,-29.809090,0.393824,-28.238829
4.681250,55.301441,-3.802037,9.649777,-29.778242,-0.997208,-28.228760
4.687500,39.948059,-3.806318,7.029126,-29.547035,-3.152654,-28.107460
4.693750,23.296934,-3.811830,4.274208,-29.125881,-5.941428,-27.875912
4.700000,5.842517,-3.818518,1.406592,-28.539204,-9.255630,-27.540771
4.706250,-11.883471,-3.826829,-1.559273,-27.827351,-12.950490,-27.111614
4.712500,-29.333700,-3.836846,-4.647103,-27.053476,-16.860287,-26.599407
4.718750,-45.968422,-3.847453,-8.035113,-26.200050,-20.779690,-26.002270
