Anritsu VNA Frequency[GHz],S21[deg],S21[dB],S11[deg],S11[dB],S22[deg],S22[dB]
1338044171.7,2012_05_26_15:56:11,+155.83,+260.06,+264.21,+260.51,+266.59,+267.73,+262.61,+262.97,223.864792,-5.584
3.006250,66.026711,-2.931627,51.321728,-28.716175,-59.742451,-29.804487
3.012500,66.026711,-2.931627,51.321728,-28.716175,-59.742451,-29.804487
3.018750,66.026711,-2.931627,51.321728,-28.716175,-59.742451,-29.804487
3.025000,66.026711,-2.931627,51.321728,-28.716175,-59.742451,-29.804487
3.031250,66.026711,-2.931627,51.321728,-28.716175,-59.742451,-29.804487
3.037500,66.026711,-2.931627,51.321728,-28.716175,-59.742451,-29.804487
3.043750,66.026711,-2.931627,51.321728,-28.716175,-59.742451,-29.804487
3.050000,66.026711,-2.931627,51.321728,-28.716175,-59.742451,-29.804487
3.056250,66.026711,-2.931627,51.321728,-28.716175,-59.742451,-29.804487
3.062500,66.026711,-2.931627,51.321728,-28.716175,-59.742451,-29.804487
3.068750,66.026711,-2.931627,51.321728,-28.716175,-59.742451,-29.804487
3.075000,66.026711,-2.931627,51.321728,-28.716175,-59.742451,-29.804487
3.081250,66.026711,-2.931627,51.321728,-28.716175,-59.742451,-29.804487
3.087500,66.026711,-2.931627,51.321728,-28.716175,-59.742451,-29.804487
3.093750,66.026711,-2.934177,51.321728,-28.539534,-59.742451,-29.801268
3.100000,72.002533,-2.937214,44.569149,-28.347719,-60.638519,-29.727499
3.106250,77.977135,-2.940614,37.594501,-28.155228,-60.914165,-29.583975
3.112500,83.953377,-2.944116,29.120525,-27.981094,-60.310772,-29.369205
3.118750,89.930634,-2.947578,21.382759,-27.844236,-58.586063,-29.076290
3.125000,95.907707,-2.951129,14.450287,-27.745817,-55.558773,-28.702354
3.131250,99.989250,-2.954811,8.688044,-27.636627,-51.159245,-28.267115
3.137500,103.796822,-2.958705,4.026302,-27.546297,-45.298149,-27.775307
3.143750,106.797340,-2.963024,0.436281,-27.488729,-37.860222,-27.234804
3.150000,108.499283,-2.967741,-1.954472,-27.465767,-30.771851,-26.663937
3.156250,108.477814,-2.972516,-3.055142,-27.471735,-22.513973,-26.086744
3.162500,106.392990,-2.977050,-2.827543,-27.496347,-13.760851,-25.530043
3.168750,102.006622,-2.981515,-1.291271,-27.525652,-5.170979,-25.021008
3.175000,95.195702,-2.986058,1.477347,-27.540976,2.629127,-24.590403
3.181250,85.960136,-2.990765,5.678442,-27.509981,9.103178,-24.256660
3.187500,74.422989,-2.995485,9.505848,-27.449989,14.086143,-23.955591
3.193750,60.822235,-3.000104,14.325100,-27.359756,17.165956,-23.696396
3.200000,45.497253,-3.004563,19.196959,-27.234169,18.246258,-23.539263
3.206250,28.876421,-3.008816,23.491961,-27.075596,17.439623,-23.475834
3.212500,11.450999,-3.012754,26.710918,-26.891006,14.748861,-23.500101
3.218750,-6.247549,-3.016656,30.614655,-26.691145,10.464110,-23.616735
3.225000,-23.673969,-3.020635,33.545547,-26.485357,5.002740,-23.860098
3.231250,-40.293613,-3.024418,35.838581,-26.275532,-1.670737,-24.084156
3.237500,-55.613419,-3.027789,35.965412,-26.063761,-8.955745,-24.344042
3.243750,-69.208786,-3.030991,35.890114,-25.853189,-16.322655,-24.637438
3.250000,-80.742134,-3.034583,35.421108,-25.638689,-23.578943,-24.945522
3.256250,-89.974457,-3.038624,34.373314,-25.424652,-30.603098,-25.245609
3.262500,-96.780815,-3.042579,32.433521,-25.238087,-37.346386,-25.520073
3.268750,-101.160561,-3.046057,29.482128,-25.074905,-43.825886,-25.756870
3.275000,-103.237213,-3.049335,25.471825,-24.930782,-48.171051,-25.943037
3.281250,-103.251022,-3.052894,20.273514,-24.799393,-52.044296,-26.066872
3.287500,-101.542397,-3.056987,13.760734,-24.672626,-55.020256,-26.123003
3.293750,-98.535728,-3.061399,8.005918,-24.540569,-56.789059,-26.109266
3.300000,-94.721008,-3.065839,1.609950,-24.381636,-57.130634,-26.021236
3.306250,-90.630287,-3.070091,-4.980811,-24.189827,-55.905647,-25.863520
3.312500,-84.643021,-3.074184,-11.688018,-24.019339,-53.092621,-25.650084
3.318750,-78.654938,-3.078353,-18.043476,-23.853327,-48.809200,-25.403898
3.325000,-72.666283,-3.082548,-23.646833,-23.690866,-43.287502,-25.148335
3.331250,-66.675705,-3.086574,-28.312979,-23.539228,-34.625935,-24.898712
3.337500,-60.681927,-3.090133,-31.914127,-23.410746,-24.516214,-24.667770
3.343750,-54.686214,-3.093220,-34.398869,-23.324930,-12.861419,-24.466936
3.350000,-48.690105,-3.095914,-35.755947,-23.308996,-1.541498,-24.300777
3.356250,-42.693966,-3.098285,-36.040184,-23.403818,11.007900,-24.161827
3.362500,-36.698277,-3.100304,-34.435963,-23.509838,24.082851,-24.041576
3.368750,-30.703188,-3.101912,-31.465525,-23.710455,36.649288,-24.004238
3.375000,-24.708723,-3.102969,-27.340307,-24.025129,48.012161,-24.044909
3.381250,-18.714426,-3.103368,-22.146605,-24.446028,57.605026,-24.171211
3.387500,-12.723396,-3.103398,-16.067507,-24.953739,64.867401,-24.377588
3.393750,-6.737714,-3.103580,-9.365141,-25.521265,69.488449,-24.632393
3.400000,-0.756649,-3.104086,-2.339398,-26.113382,71.150894,-24.915834
3.406250,5.222758,-3.104530,4.675570,-26.694923,69.716232,-25.164547
3.412500,11.201282,-3.104802,9.406376,-27.239298,65.914307,-25.499851
3.418750,17.176624,-3.105306,15.299850,-27.720383,60.096897,-25.848253
3.425000,23.147396,-3.106575,20.189955,-28.114510,52.732830,-26.181976
3.431250,29.116482,-3.108369,23.854378,-28.404129,44.659504,-26.485762
3.437500,35.087570,-3.110121,26.135778,-28.581217,36.809456,-26.752308
3.443750,41.059673,-3.111966,26.978006,-28.637032,30.144423,-26.977415
3.450000,47.029377,-3.114600,26.493296,-28.555277,23.811329,-27.123772
3.456250,52.997410,-3.118075,24.759136,-28.350021,18.131563,-27.189892
3.462500,58.969357,-3.121585,21.936182,-28.047462,14.521430,-27.183537
3.468750,64.947510,-3.124574,18.381247,-27.675493,12.596372,-27.104380
3.475000,70.927818,-3.127235,14.553378,-27.265150,11.989798,-26.953356
3.481250,76.906303,-3.130105,10.938898,-26.854725,12.300446,-26.740946
3.487500,82.882523,-3.133396,6.179753,-26.468664,13.094007,-26.474405
3.493750,88.858147,-3.137067,2.686829,-26.081036,13.942980,-26.155500
3.500000,94.834572,-3.141008,0.293046,-25.734640,14.436992,-25.788038
3.506250,98.918083,-3.145156,-1.160221,-25.452677,14.186741,-25.382381
3.512500,102.731010,-3.148944,-1.669744,-25.242849,12.857513,-24.953173
3.518750,105.739998,-3.152331,-1.254222,-25.100140,10.206767,-24.512926
3.525000,107.448746,-3.156031,0.041806,-25.003803,6.084646,-24.070818
3.531250,107.427971,-3.160698,2.105778,-24.916254,2.570169,-23.637255
3.537500,105.340164,-3.166184,4.771586,-24.774792,-1.740737,-23.222246
3.543750,100.954323,-3.171665,9.210602,-24.676813,-6.347332,-22.841923
3.550000,94.148994,-3.176895,14.226255,-24.565971,-10.808928,-22.525772
3.556250,84.920868,-3.182268,18.096600,-24.423258,-14.822221,-22.240028
3.562500,73.390244,-3.188147,22.541683,-24.234430,-18.258198,-21.967913
3.568750,59.797310,-3.194055,26.990730,-24.010147,-20.714390,-21.737373
3.575000,44.487049,-3.199256,30.840143,-23.773125,-22.347532,-21.590294
3.581250,27.885136,-3.203322,33.577797,-23.549852,-23.302977,-21.541567
3.587500,10.479660,-3.206556,34.766445,-23.370268,-23.782515,-21.623642
3.593750,-7.200155,-3.209429,36.252510,-23.264351,-24.241100,-21.775785
3.600000,-24.606659,-3.211801,36.460934,-23.254295,-23.691870,-21.999973
3.606250,-41.205101,-3.213013,35.860374,-23.332911,-23.745325,-22.316963
3.612500,-56.503414,-3.213020,34.865276,-23.510014,-24.431412,-22.719723
3.618750,-70.079620,-3.212250,31.895510,-23.791672,-25.830040,-23.184090
3.625000,-81.594612,-3.210970,28.937414,-24.180700,-28.054640,-23.681087
3.631250,-90.810333,-3.209022,25.722195,-24.685333,-29.178921,-24.218805
3.637500,-97.604652,-3.206314,22.093533,-25.282021,-30.694836,-24.772089
3.643750,-101.980827,-3.203373,17.920370,-25.934944,-32.036747,-25.308462
3.650000,-104.062874,-3.200848,12.987943,-26.606859,-32.822655,-25.803495
3.656250,-104.086411,-3.198920,7.059064,-27.253767,-32.783852,-26.236420
3.662500,-102.388443,-3.197468,-0.092697,-27.821266,-31.715576,-26.587824
3.668750,-99.395889,-3.196608,-6.542137,-28.267382,-29.498808,-26.844887
3.675000,-95.600693,-3.196589,-14.135077,-28.612286,-26.108711,-27.005749
3.681250,-91.533981,-3.197309,-22.433445,-28.818813,-21.634474,-27.075256
3.687500,-85.572739,-3.198556,-30.967558,-28.869242,-16.226376,-27.056957
3.693750,-79.611343,-3.200718,-39.414364,-28.763767,-10.098309,-26.956089
3.700000,-73.651291,-3.204159,-47.473434,-28.521648,-3.537763,-26.783815
3.706250,-67.689522,-3.208539,-54.865616,-28.187279,3.130523,-26.556423
3.712500,-61.720837,-3.213070,-61.299305,-27.794899,9.601128,-26.288784
3.718750,-55.745857,-3.217523,-67.912437,-27.312654,15.627580,-25.987566
3.725000,-49.769119,-3.222386,-73.270889,-26.819263,20.997135,-25.654638
3.731250,-43.790928,-3.227814,-77.772079,-26.354877,25.527645,-25.285572
3.737500,-37.807632,-3.233172,-79.559143,-25.953016,29.263983,-24.934292
3.743750,-31.817867,-3.237986,-80.407990,-25.651064,32.533291,-24.637680
3.750000,-25.824017,-3.242352,-80.177071,-25.461229,35.305424,-24.404345
3.756250,-19.829985,-3.246264,-78.718239,-25.378109,37.914993,-24.224218
3.762500,-13.835546,-3.249831,-76.018143,-25.390827,39.066761,-24.064106
3.768750,-7.841321,-3.253044,-72.139122,-25.478729,40.714024,-23.895870
3.775000,-1.848358,-3.256088,-67.203308,-25.611704,42.817841,-23.787006
3.781250,4.142253,-3.259110,-61.401054,-25.761892,43.803837,-23.743328
3.787500,10.131866,-3.261875,-56.941990,-25.924278,44.717972,-23.737722
3.793750,16.120457,-3.264265,-52.457672,-26.078388,45.249649,-23.757313
3.800000,22.107113,-3.266588,-46.463299,-26.203924,45.161469,-23.796076
3.806250,28.088766,-3.269272,-41.010147,-26.297756,44.308426,-23.847914
3.812500,34.067867,-3.272227,-36.085686,-26.297794,42.657383,-23.886621
3.818750,40.045628,-3.275374,-31.635942,-26.213629,40.247807,-23.895966
3.825000,46.021873,-3.278942,-27.911411,-26.068233,37.009689,-23.878683
3.831250,51.997566,-3.282931,-24.797277,-25.878395,33.030350,-23.836794
3.837500,57.974834,-3.286865,-22.068283,-25.659727,28.559259,-23.771814
3.843750,63.953220,-3.290617,-19.451275,-25.429728,23.910841,-23.693058
3.850000,69.932121,-3.294565,-16.624285,-25.201344,19.456373,-23.612885
3.856250,75.909767,-3.298817,-15.114184,-24.976274,15.664430,-23.502171
3.862500,81.888489,-3.302921,-12.978444,-24.762800,11.121934,-23.364101
3.868750,87.869270,-3.306714,-10.519764,-24.570961,7.630549,-23.217796
3.875000,93.848122,-3.310729,-8.002101,-24.404367,5.004921,-23.072361
3.881250,97.928024,-3.315806,-5.653200,-24.252878,3.084858,-22.928761
3.887500,101.733986,-3.321671,-3.670163,-24.082516,1.689406,-22.781466
3.893750,104.738777,-3.327262,-2.278755,-23.871162,0.577435,-22.625664
3.900000,106.451118,-3.332423,-0.100685,-23.677460,-0.566854,-22.463659
3.906250,106.437408,-3.338012,1.608563,-23.459486,-2.084210,-22.301311
3.912500,104.354134,-3.344668,3.171074,-23.203768,-4.276242,-22.137247
3.918750,99.968178,-3.352376,4.770188,-22.905003,-7.426801,-21.966391
3.925000,93.163315,-3.360443,6.530161,-22.566525,-11.833979,-21.782249
3.931250,83.942139,-3.368290,8.503167,-22.199917,-17.796637,-21.571850
3.937500,72.424896,-3.375960,10.687609,-21.821283,-25.617207,-21.345161
3.943750,58.846756,-3.383545,13.067378,-21.451937,-33.598068,-21.144781
3.950000,43.548309,-3.390880,15.614106,-21.111893,-43.174259,-20.972229
3.956250,26.959198,-3.397384,18.256081,-20.820230,-53.862885,-20.833515
3.962500,9.571941,-3.402465,20.867517,-20.594139,-65.263130,-20.740135
3.968750,-8.082852,-3.406114,23.589264,-20.446121,-76.964340,-20.702793
3.975000,-25.463184,-3.408494,26.549040,-20.380980,-88.554985,-20.731524
3.981250,-42.038837,-3.409829,29.593727,-20.392212,-99.638260,-20.836685
3.987500,-57.317604,-3.410040,32.560047,-20.459360,-109.854469,-21.043026
3.993750,-70.873154,-3.409089,35.124378,-20.631832,-118.780121,-21.291996
4.000000,-82.366058,-3.407177,37.006840,-20.887085,-126.082458,-21.617670
4.006250,-91.560883,-3.404437,38.306263,-21.206211,-131.837616,-22.033712
4.012500,-98.336845,-3.400756,38.850441,-21.580017,-135.844040,-22.540483
4.018750,-102.695076,-3.396569,38.542858,-21.995426,-138.021194,-23.143505
4.025000,-104.759338,-3.392475,37.371624,-22.433153,-138.462738,-23.802509
4.031250,-104.767715,-3.388759,33.457279,-22.873369,-137.894241,-24.433825
4.037500,-103.058197,-3.385400,30.591185,-23.308397,-136.347610,-25.084078
4.043750,-100.056641,-3.382570,26.926014,-23.727676,-132.318146,-25.749985
4.050000,-96.255066,-3.380509,22.630108,-24.117102,-127.675591,-26.403145
4.056250,-92.184998,-3.379192,17.880703,-24.469017,-122.621056,-27.019791
4.062500,-86.221657,-3.378109,12.892439,-24.780479,-117.433189,-27.580431
4.068750,-80.259987,-3.377106,7.968103,-25.031454,-112.384003,-28.065409
4.075000,-74.304558,-3.377218,3.461322,-25.212784,-107.695602,-28.450300
4.081250,-68.356293,-3.379045,-0.445730,-25.335926,-103.572395,-28.718803
4.087500,-62.409607,-3.381943,-5.365896,-25.408686,-100.209404,-28.864511
4.093750,-56.455952,-3.384582,-9.337347,-25.433786,-97.700333,-28.882282
4.100000,-50.497875,-3.386818,-12.568240,-25.412699,-96.029198,-28.771671
4.106250,-44.542789,-3.389560,-15.268805,-25.347094,-95.101440,-28.539383
4.112500,-38.593750,-3.393499,-17.618330,-25.239986,-94.745247,-28.202829
4.118750,-32.645679,-3.398319,-19.765591,-25.094652,-94.720863,-27.789190
4.125000,-26.694260,-3.403436,-21.836998,-24.907845,-94.584007,-27.269318
4.131250,-20.739597,-3.408907,-23.982019,-24.684647,-93.976433,-26.676939
4.137500,-14.783213,-3.414759,-26.363489,-24.435337,-92.773544,-26.051874
4.143750,-8.823639,-3.420834,-29.058331,-24.166798,-90.615440,-25.422764
4.150000,-2.860038,-3.426959,-29.922821,-23.884180,-87.137581,-24.811768
4.156250,3.106644,-3.433290,-30.323843,-23.591780,-82.035973,-24.235344
4.162500,9.075343,-3.440005,-29.755007,-23.292805,-75.087959,-23.698418
4.168750,15.047352,-3.447009,-29.661953,-22.990948,-66.177277,-23.185972
4.175000,21.023643,-3.454236,-28.057875,-22.691292,-55.490974,-22.789845
4.181250,27.004223,-3.461648,-25.174604,-22.388439,-45.052406,-22.450043
4.187500,32.990639,-3.468949,-21.345564,-22.094639,-33.210499,-22.175442
4.193750,38.983063,-3.476020,-17.023413,-21.824976,-20.969656,-21.967159
4.200000,44.981068,-3.482702,-12.600858,-21.590616,-9.144489,-21.800133
4.206250,50.983231,-3.488880,-8.473502,-21.400656,1.569531,-21.682543
4.212500,56.989273,-3.494266,-2.855204,-21.264685,11.119811,-21.679914
4.218750,62.998657,-3.498707,2.554298,-21.188038,18.610085,-21.790342
4.225000,69.008362,-3.502447,7.987598,-21.164856,24.869259,-21.883251
4.231250,75.015053,-3.505898,11.770292,-21.184902,28.582342,-22.015619
4.237500,81.019135,-3.509136,15.679400,-21.236977,30.156698,-22.189564
4.243750,87.021111,-3.511838,19.287247,-21.307041,29.948034,-22.393438
4.250000,93.022339,-3.514015,22.110876,-21.401489,28.338968,-22.613503
4.256250,97.126595,-3.515682,23.650837,-21.519976,25.721775,-22.842037
4.262500,100.953011,-3.516939,23.624268,-21.642836,22.521357,-23.069500
4.268750,103.968643,-3.518157,23.893032,-21.751291,19.210581,-23.278570
4.275000,105.678635,-3.520038,22.827053,-21.832447,16.241573,-23.451982
4.281250,105.657219,-3.522708,20.707062,-21.878756,13.993045,-23.575548
4.287500,103.567673,-3.525897,17.825613,-21.880913,12.793509,-23.634838
4.293750,99.175179,-3.529506,14.459822,-21.830339,12.892441,-23.611261
4.300000,92.355522,-3.534230,10.837541,-21.725906,14.394263,-23.484522
4.306250,83.109360,-3.540333,7.149301,-21.575005,17.119360,-23.300386
4.312500,71.564667,-3.546827,3.584938,-21.383535,20.875904,-23.058638
4.318750,57.963272,-3.552981,0.340417,-21.155691,25.648487,-22.756784
4.325000,42.640976,-3.559102,-2.444725,-20.899530,31.163414,-22.403196
4.331250,26.019566,-3.566112,-4.702766,-20.628288,37.052715,-22.013723
4.337500,8.593740,-3.573937,-6.402185,-20.356159,42.922447,-21.605274
4.343750,-9.096930,-3.581567,-7.547379,-20.101263,48.380173,-21.195740
4.350000,-26.504290,-3.588378,-6.016499,-19.891878,53.043781,-20.795628
4.356250,-43.099018,-3.594580,-5.127628,-19.725464,56.579342,-20.407225
4.362500,-58.391933,-3.600014,-2.430071,-19.584639,60.656666,-20.091991
4.368750,-71.954483,-3.604448,1.311802,-19.525549,63.661247,-19.861395
4.375000,-83.447182,-3.607713,5.985516,-19.560139,64.114090,-19.739952
4.381250,-92.636848,-3.610139,11.426476,-19.690418,63.987396,-19.785976
4.387500,-99.403717,-3.611734,17.409130,-19.909138,63.163197,-19.907047
4.393750,-103.743523,-3.611969,23.666618,-20.201750,62.444218,-20.099007
4.400000,-105.781769,-3.611025,29.887131,-20.551958,61.042999,-20.337664
4.406250,-105.760330,-3.609647,33.839298,-20.946346,57.875126,-20.733685
4.412500,-104.020309,-3.607982,38.979580,-21.373608,54.252525,-21.216682
4.418750,-100.985649,-3.605439,43.168163,-21.815094,50.095791,-21.754089
4.425000,-97.148186,-3.602076,46.233944,-22.252331,45.502243,-22.319988
4.431250,-93.046051,-3.598639,48.069111,-22.661871,40.629482,-22.888536
4.437500,-87.059036,-3.595564,48.721695,-23.006760,35.737698,-23.415937
4.443750,-81.078873,-3.592671,48.247250,-23.276127,31.088205,-23.872915
4.450000,-75.104317,-3.590030,46.738583,-23.469120,26.845490,-24.244167
4.456250,-69.139038,-3.588557,44.460606,-23.581524,23.268005,-24.514584
4.462500,-63.182575,-3.588823,41.771900,-23.610312,20.642788,-24.673014
4.468750,-57.227814,-3.590122,37.205997,-23.555075,19.231319,-24.711365
4.475000,-51.269821,-3.591751,32.859352,-23.422424,19.260941,-24.629642
4.481250,-45.310337,-3.593922,28.676619,-23.228052,20.914587,-24.442259
4.487500,-39.353516,-3.597218,24.647346,-22.983505,22.467813,-24.156597
4.493750,-33.396278,-3.601402,20.852310,-22.689716,25.792917,-23.761961
4.500000,-27.436743,-3.606246,17.268843,-22.370199,30.273964,-23.296528
4.506250,-21.475651,-3.612351,13.847673,-22.050940,35.262482,-22.796965
4.512500,-15.512086,-3.619693,10.634912,-21.750092,40.239292,-22.293118
4.518750,-9.540837,-3.627324,7.707569,-21.477028,44.716946,-21.809656
4.525000,-3.557003,-3.633988,5.138287,-21.230242,48.230068,-21.366119
4.531250,2.435789,-3.639762,2.978141,-20.985649,50.342831,-20.979637
4.537500,8.429659,-3.645506,3.373810,-20.750969,50.615360,-20.685616
4.543750,14.423023,-3.651774,2.386348,-20.597525,48.495159,-20.477579
4.550000,20.420387,-3.657786,2.502923,-20.488626,45.226650,-20.340975
4.556250,26.424887,-3.662884,3.601469,-20.406315,41.532032,-20.288132
4.562500,32.434853,-3.667179,5.268544,-20.365044,36.414715,-20.269808
4.568750,38.448071,-3.670809,7.048461,-20.386126,30.691776,-20.380135
4.575000,44.461727,-3.673891,8.573656,-20.493820,24.176895,-20.627142
4.581250,50.478554,-3.676119,9.534852,-20.717710,18.347309,-20.996408
4.587500,56.498329,-3.677179,11.866166,-21.069185,12.486453,-21.392017
4.593750,62.519238,-3.676935,12.521271,-21.486712,8.174995,-21.858055
4.600000,68.538872,-3.675713,13.162330,-22.006294,5.349722,-22.394310
4.606250,74.554176,-3.673752,13.528169,-22.630470,3.970288,-22.986086
4.612500,80.564514,-3.671134,13.527805,-23.353781,3.905113,-23.612926
4.618750,86.569519,-3.668061,13.030484,-24.171438,4.895665,-24.267906
4.625000,92.566948,-3.665038,12.086496,-25.041079,6.632019,-24.932775
4.631250,96.661858,-3.662370,10.715109,-25.934423,8.857619,-25.583204
4.637500,100.479546,-3.659507,8.865381,-26.824703,11.216582,-26.204947
4.643750,103.490166,-3.655717,4.694409,-27.677788,13.309747,-26.789576
4.650000,105.196632,-3.651582,2.107666,-28.454294,14.740200,-27.320385
4.656250,105.163979,-3.648761,-0.650630,-29.112766,15.035781,-27.752697
4.662500,103.050354,-3.648030,-3.441180,-29.610085,13.817520,-28.061899
4.668750,98.628082,-3.648879,-6.155663,-29.916178,13.015386,-28.245056
4.675000,91.780678,-3.650811,-8.806559,-30.029564,10.752681,-28.329506
4.681250,82.509102,-3.653937,-11.325583,-29.941242,7.276762,-28.303452
4.687500,70.934029,-3.658319,-13.594260,-29.648689,2.895633,-28.158911
4.693750,57.294006,-3.663851,-15.594913,-29.168005,-2.183640,-27.899670
4.700000,41.931152,-3.670562,-17.354128,-28.529554,-7.740247,-27.533724
4.706250,25.271307,-3.679108,-18.924406,-27.781910,-13.513028,-27.071909
4.712500,7.809601,-3.689193,-20.436241,-26.972759,-19.222435,-26.522757
4.718750,-9.914395,-3.699635,-22.339165,-26.081579,-24.545988,-25.876904
