Anritsu VNA Frequency[GHz],S21[deg],S21[dB],S11[deg],S11[dB],S22[deg],S22[dB]
1338110593.91,2012_05_27_10:23:13,+40.602,+10.274,+55.093,+10.284,+13.907,+13.718,+14.012,+13.763,10.371447,-15.923
3.006250,34.123257,-1.754270,59.267117,-26.669195,-80.006241,-27.436558
3.012500,34.123257,-1.754270,59.267117,-26.669195,-80.006241,-27.436558
3.018750,34.123257,-1.754270,59.267117,-26.669195,-80.006241,-27.436558
3.025000,34.123257,-1.754270,59.267117,-26.669195,-80.006241,-27.436558
3.031250,34.123257,-1.754270,59.267117,-26.669195,-80.006241,-27.436558
3.037500,34.123257,-1.754270,59.267117,-26.669195,-80.006241,-27.436558
3.043750,34.123257,-1.754270,59.267117,-26.669195,-80.006241,-27.436558
3.050000,34.123257,-1.754270,59.267117,-26.669195,-80.006241,-27.436558
3.056250,34.123257,-1.754270,59.267117,-26.669195,-80.006241,-27.436558
3.062500,34.123257,-1.754270,59.267117,-26.669195,-80.006241,-27.436558
3.068750,34.123257,-1.754270,59.267117,-26.669195,-80.006241,-27.436558
3.075000,34.123257,-1.754270,59.267117,-26.669195,-80.006241,-27.436558
3.081250,34.123257,-1.754270,59.267117,-26.669195,-80.006241,-27.436558
3.087500,34.123257,-1.754270,59.267117,-26.669195,-80.006241,-27.436558
3.093750,34.123257,-1.755995,59.267117,-26.467480,-80.006241,-27.186419
3.100000,40.030025,-1.758023,56.594284,-26.316296,-82.014832,-26.954340
3.106250,45.936855,-1.760030,53.035164,-26.236961,-82.408325,-26.740578
3.112500,51.844131,-1.762070,48.957478,-26.250292,-80.830528,-26.519405
3.118750,57.750687,-1.764277,42.962326,-26.295635,-79.115997,-26.218685
3.125000,63.656227,-1.766596,38.165947,-26.341291,-75.068672,-25.957474
3.131250,69.561226,-1.769014,33.782150,-26.414492,-68.909317,-25.670013
3.137500,75.465324,-1.771764,30.073160,-26.515913,-61.029484,-25.345768
3.143750,81.367661,-1.775086,27.239059,-26.636894,-51.611732,-24.993141
3.150000,87.270859,-1.778706,25.463755,-26.762472,-40.813725,-24.624775
3.156250,93.177254,-1.782074,24.866482,-26.878765,-28.808922,-24.259027
3.162500,97.191147,-1.785218,25.515284,-26.972206,-15.795235,-23.919250
3.168750,100.931999,-1.788454,27.426861,-27.035788,-3.878276,-23.654453
3.175000,103.866013,-1.791996,30.646442,-27.047342,8.400234,-23.409353
3.181250,105.502800,-1.795603,33.414589,-26.993752,20.920040,-23.187250
3.187500,105.417557,-1.799084,37.199356,-26.892643,32.400288,-23.019100
3.193750,103.268654,-1.802308,41.294449,-26.756292,42.409733,-22.921230
3.200000,98.818665,-1.805194,45.129894,-26.592857,50.623341,-22.896698
3.206250,91.945641,-1.807715,48.224052,-26.412664,56.755852,-22.946255
3.212500,82.647804,-1.810045,50.159843,-26.229376,60.612240,-23.077265
3.218750,71.045860,-1.812579,50.622578,-26.053509,62.086918,-23.272652
3.225000,57.378059,-1.814975,51.613155,-25.879301,60.931660,-23.477419
3.231250,41.987137,-1.816820,51.668926,-25.706577,57.427959,-23.699997
3.237500,25.298733,-1.818335,49.299133,-25.535383,53.689487,-23.932161
3.243750,7.800944,-1.820135,46.617290,-25.342825,48.219406,-24.150991
3.250000,-9.973780,-1.822542,43.490978,-25.169003,41.684975,-24.337667
3.256250,-27.474880,-1.825068,39.558605,-25.027304,34.679718,-24.491297
3.262500,-44.167461,-1.827230,35.063904,-24.900808,27.851038,-24.600393
3.268750,-59.560799,-1.829070,29.948202,-24.785582,21.880722,-24.656300
3.275000,-73.230888,-1.831035,24.088634,-24.680696,17.312262,-24.658712
3.281250,-84.838097,-1.833418,17.375767,-24.577070,14.587195,-24.615057
3.287500,-94.143509,-1.836178,9.717969,-24.462027,14.000297,-24.539682
3.293750,-101.022881,-1.839053,1.080253,-24.296429,15.708422,-24.432924
3.300000,-105.476074,-1.841855,-6.362788,-24.127028,19.751461,-24.295938
3.306250,-107.624344,-1.844440,-15.031053,-23.990818,25.989531,-24.155043
3.312500,-107.705048,-1.846772,-23.698145,-23.868214,34.120724,-24.041578
3.318750,-106.060455,-1.849017,-32.080719,-23.767342,43.764660,-23.976873
3.325000,-103.117256,-1.851091,-39.910652,-23.705603,54.471600,-23.971632
3.331250,-99.367508,-1.852799,-46.928909,-23.708071,65.725830,-24.028589
3.337500,-95.343872,-1.854158,-52.960835,-23.845659,76.948044,-24.146091
3.343750,-89.425407,-1.855142,-58.033222,-24.005199,87.557037,-24.309837
3.350000,-83.507347,-1.855758,-62.480507,-24.229120,97.305107,-24.464472
3.356250,-77.590477,-1.856019,-65.937355,-24.557331,105.912483,-24.662333
3.362500,-71.675095,-1.856170,-66.689034,-25.012409,112.174240,-24.911654
3.368750,-65.761925,-1.855974,-66.376472,-25.574629,116.213242,-25.201826
3.375000,-59.849487,-1.855219,-64.874931,-26.216825,117.632782,-25.576172
3.381250,-53.938885,-1.854088,-62.198929,-26.904411,116.254715,-25.910892
3.387500,-48.034573,-1.853303,-58.439053,-27.598717,112.728760,-26.233004
3.393750,-42.136486,-1.853334,-53.753044,-28.255041,106.483749,-26.534908
3.400000,-36.240631,-1.853731,-48.359570,-28.830551,98.084030,-26.808626
3.406250,-30.343472,-1.853908,-42.590279,-29.303200,88.530724,-27.085707
3.412500,-24.446676,-1.854254,-36.770329,-29.648424,78.491928,-27.331919
3.418750,-18.554497,-1.855513,-28.960995,-29.844219,66.607742,-27.526159
3.425000,-12.665486,-1.857743,-22.706186,-29.886372,55.167847,-27.662476
3.431250,-6.773375,-1.860116,-16.151449,-29.789837,44.604542,-27.746687
3.437500,-0.876829,-1.862393,-9.554207,-29.539946,35.373909,-27.782835
3.443750,5.019433,-1.865321,-2.931447,-29.133965,28.159437,-27.719477
3.450000,10.914038,-1.869210,3.192037,-28.617838,21.241018,-27.585611
3.456250,16.812868,-1.873320,8.653194,-28.031181,16.397614,-27.394913
3.462500,22.720343,-1.876768,13.444116,-27.417595,13.336164,-27.149904
3.468750,28.633055,-1.879624,17.649069,-26.823505,11.744367,-26.847309
3.475000,34.546032,-1.882236,21.373165,-26.315676,11.269497,-26.502678
3.481250,40.458595,-1.884709,24.874659,-25.844736,11.520080,-26.131235
3.487500,46.370247,-1.887250,26.882177,-25.442518,12.126692,-25.727392
3.493750,52.280128,-1.890192,28.778826,-25.145100,12.656675,-25.298843
3.500000,58.189514,-1.893579,30.395441,-24.957344,12.674668,-24.856901
3.506250,64.101425,-1.896730,31.623995,-24.864716,11.850108,-24.411858
3.512500,70.017822,-1.899059,32.367886,-24.833544,9.908243,-23.972841
3.518750,75.934235,-1.901185,32.608494,-24.766344,6.648081,-23.544783
3.525000,81.844147,-1.904168,32.530380,-24.753927,1.914541,-23.134060
3.531250,87.749252,-1.908256,32.658905,-24.742596,-2.263681,-22.754700
3.537500,93.657166,-1.912591,32.667641,-24.698776,-7.350339,-22.423460
3.543750,97.675560,-1.916588,32.805073,-24.612061,-12.917061,-22.135868
3.550000,101.423347,-1.920813,33.407467,-24.455233,-18.683176,-21.855234
3.556250,104.364815,-1.925707,32.917423,-24.230049,-24.170593,-21.530085
3.562500,106.010902,-1.930902,33.042503,-23.966505,-29.080984,-21.289480
3.568750,105.941345,-1.935309,33.441265,-23.690748,-32.218956,-21.119740
3.575000,103.815285,-1.938295,33.835583,-23.429827,-34.576614,-21.021938
3.581250,99.390060,-1.940210,33.943874,-23.217773,-35.886715,-21.010162
3.587500,92.539436,-1.941766,33.507710,-23.092020,-36.165134,-21.044044
3.593750,83.263458,-1.942859,32.422249,-23.040518,-35.292587,-21.145609
3.600000,71.687790,-1.942933,30.617392,-23.076157,-33.110073,-21.330004
3.606250,58.049885,-1.941624,29.947741,-23.212809,-29.774029,-21.590836
3.612500,42.685020,-1.939430,28.959698,-23.435904,-25.561485,-21.902056
3.618750,26.016855,-1.936810,28.063215,-23.761915,-20.869902,-22.238455
3.625000,8.539508,-1.933533,27.361889,-24.202831,-16.481501,-22.642157
3.631250,-9.213175,-1.929361,27.469988,-24.721218,-10.596251,-23.075670
3.637500,-26.697622,-1.924811,28.690050,-25.281532,-4.934103,-23.510406
3.643750,-43.386181,-1.920610,31.161102,-25.846466,0.479597,-23.926702
3.650000,-58.785198,-1.917012,33.018543,-26.371361,5.556380,-24.307634
3.656250,-72.464355,-1.914013,35.825230,-26.779634,10.207391,-24.636255
3.662500,-84.082146,-1.911703,38.753048,-27.118752,14.337912,-24.907860
3.668750,-93.400993,-1.910258,42.728622,-27.365923,17.810492,-25.128937
3.675000,-100.297050,-1.909435,46.072018,-27.493128,20.537619,-25.298035
3.681250,-104.768150,-1.908753,48.512024,-27.497314,22.464861,-25.413860
3.687500,-106.937241,-1.908521,49.808163,-27.391867,23.513353,-25.479517
3.693750,-107.044907,-1.909556,49.813614,-27.202757,23.632175,-25.504051
3.700000,-105.430023,-1.911734,48.531776,-26.935566,22.825447,-25.498756
3.706250,-102.512726,-1.914107,46.115746,-26.607901,21.225616,-25.455917
3.712500,-98.783600,-1.916271,42.549343,-26.258896,19.052818,-25.369448
3.718750,-94.781052,-1.918761,36.131023,-25.915707,16.454273,-25.243780
3.725000,-88.885124,-1.921924,28.781647,-25.594433,13.759381,-25.095413
3.731250,-82.987251,-1.925179,20.229420,-25.340132,11.575324,-24.962446
3.737500,-77.084465,-1.928003,12.413622,-25.175474,10.314224,-24.857275
3.743750,-71.179199,-1.930561,4.082811,-25.086100,10.388729,-24.803186
3.750000,-65.275467,-1.933195,-4.211058,-25.060268,10.394152,-24.713329
3.756250,-59.372925,-1.935860,-12.071980,-25.093494,10.311950,-24.609179
3.762500,-53.469593,-1.938305,-19.077776,-25.165140,11.468577,-24.490829
3.768750,-47.566360,-1.940786,-24.790407,-25.237959,13.601750,-24.406994
3.775000,-41.664688,-1.943589,-28.983488,-25.324499,16.261013,-24.347063
3.781250,-35.763660,-1.946447,-31.539629,-25.411118,18.843540,-24.294821
3.787500,-29.861141,-1.949064,-32.108456,-25.477577,20.983114,-24.243515
3.793750,-23.958632,-1.951736,-30.604588,-25.539257,22.375557,-24.196478
3.800000,-18.058161,-1.954881,-28.950539,-25.539143,22.825663,-24.145983
3.806250,-12.158290,-1.958306,-24.790693,-25.452410,22.346151,-24.055727
3.812500,-6.256843,-1.961928,-19.646990,-25.318756,20.802887,-23.934084
3.818750,-0.354979,-1.965894,-14.060398,-25.155052,18.082396,-23.791761
3.825000,5.547801,-1.970208,-8.568048,-24.975775,14.315275,-23.635128
3.831250,11.454811,-1.974215,-1.515817,-24.795261,9.769001,-23.474987
3.837500,17.365730,-1.977601,5.279513,-24.628111,4.768528,-23.348864
3.843750,23.276102,-1.981130,11.973816,-24.469393,-0.351133,-23.210611
3.850000,29.183855,-1.985163,16.877903,-24.313419,-6.275096,-23.042833
3.856250,35.092667,-1.988983,21.671900,-24.169571,-11.810726,-22.884865
3.862500,41.005501,-1.992044,25.931808,-24.036457,-16.941690,-22.745613
3.868750,46.917900,-1.994971,29.328623,-23.900600,-21.644606,-22.622000
3.875000,52.823608,-1.998963,31.539906,-23.740160,-25.944204,-22.503357
3.881250,58.725014,-2.004163,32.211781,-23.560280,-29.909847,-22.373623
3.887500,64.629890,-2.009484,30.950146,-23.363640,-33.725136,-22.237799
3.893750,70.541405,-2.014332,27.685369,-23.132004,-37.649502,-22.100769
3.900000,76.454369,-2.019438,24.490023,-22.855482,-41.811031,-21.955315
3.906250,82.364105,-2.025622,19.916386,-22.533487,-44.513103,-21.799728
3.912500,88.274071,-2.032797,14.433022,-22.167852,-47.622871,-21.628925
3.918750,94.190247,-2.040380,8.506854,-21.765505,-50.852951,-21.429905
3.925000,98.220383,-2.047766,2.503620,-21.354189,-53.960224,-21.175295
3.931250,101.985481,-2.054770,-3.232986,-20.959179,-57.007153,-20.955839
3.937500,104.951614,-2.061331,-8.273105,-20.600611,-57.796860,-20.766615
3.943750,106.626282,-2.067278,-12.290561,-20.301598,-57.405689,-20.616241
3.950000,106.583122,-2.072063,-15.064720,-20.084055,-55.369217,-20.518330
3.956250,104.481476,-2.075173,-16.470806,-19.966223,-51.329739,-20.488308
3.962500,100.081482,-2.076561,-16.449314,-19.957977,-45.042309,-20.536871
3.968750,93.257347,-2.076472,-14.999522,-20.056332,-36.312244,-20.676741
3.975000,84.006607,-2.075062,-14.068938,-20.227186,-25.250929,-20.915628
3.981250,72.450134,-2.072327,-9.968145,-20.521048,-11.967401,-21.281616
3.987500,58.823254,-2.068455,-5.613592,-20.922049,1.920652,-21.689684
3.993750,43.464596,-2.063758,-0.324178,-21.385473,17.078743,-22.200260
4.000000,26.800373,-2.058339,5.261582,-21.907570,32.698078,-22.820719
4.006250,9.323169,-2.052242,10.786993,-22.471575,47.916775,-23.582752
4.012500,-8.436881,-2.045958,15.984939,-23.050323,61.661118,-24.341986
4.018750,-25.935781,-2.040403,20.603065,-23.610521,74.610588,-25.076778
4.025000,-42.639481,-2.035722,24.355015,-24.137096,84.821480,-25.821774
4.031250,-58.051262,-2.031495,29.106052,-24.620497,93.198181,-26.581068
4.037500,-71.742401,-2.027857,31.486534,-25.039825,98.865555,-27.301229
4.043750,-83.374634,-2.025482,33.541058,-25.382748,102.110481,-27.952091
4.050000,-92.710068,-2.024495,35.120403,-25.649269,103.331917,-28.516508
4.056250,-99.620605,-2.023923,36.156895,-25.829775,103.057144,-28.984915
4.062500,-104.103210,-2.023135,36.729366,-25.906799,100.084671,-29.324436
4.068750,-106.286087,-2.023162,36.779858,-25.897581,96.818275,-29.521210
4.075000,-106.411453,-2.025155,36.329037,-25.819263,93.315704,-29.582495
4.081250,-104.813148,-2.028484,35.557659,-25.685215,89.804840,-29.512667
4.087500,-101.908142,-2.031688,34.719334,-25.504301,84.446251,-29.312765
4.093750,-98.188866,-2.034252,34.118702,-25.284929,78.966843,-28.988848
4.100000,-94.196846,-2.037084,32.174084,-25.042110,73.222191,-28.561918
4.106250,-88.314209,-2.040806,30.882219,-24.780186,67.116714,-28.070889
4.112500,-82.431648,-2.045088,30.145971,-24.491308,60.729794,-27.473562
4.118750,-76.545761,-2.049669,29.705360,-24.191284,54.234844,-26.806063
4.125000,-70.658165,-2.054841,29.270403,-23.895342,47.364635,-26.108854
4.131250,-64.769173,-2.060610,28.669973,-23.612499,40.267944,-25.412394
4.137500,-58.875706,-2.066435,27.791136,-23.345940,33.145199,-24.739990
4.143750,-52.975655,-2.071905,26.546795,-23.094814,26.208059,-24.109148
4.150000,-47.072575,-2.077386,24.853569,-22.858040,19.646992,-23.532978
4.156250,-41.169460,-2.083228,24.806101,-22.632133,13.636598,-23.012016
4.162500,-35.264835,-2.089340,24.995874,-22.406515,8.319088,-22.560219
4.168750,-29.356684,-2.095539,24.005428,-22.169617,5.407089,-22.178101
4.175000,-23.444702,-2.101794,23.699997,-21.940990,2.328058,-21.864935
4.181250,-17.528839,-2.107978,23.879293,-21.725199,0.802784,-21.613758
4.187500,-11.608659,-2.113818,24.349817,-21.527336,0.710415,-21.363617
4.193750,-5.683863,-2.119248,24.886177,-21.353130,2.106372,-21.225657
4.200000,0.244868,-2.124065,25.259779,-21.210526,3.080106,-21.171114
4.206250,6.176780,-2.127923,25.254807,-21.106888,4.303957,-21.178406
4.212500,12.111295,-2.130699,24.706867,-21.039083,6.809643,-21.204378
4.218750,18.044722,-2.132736,25.678780,-20.996368,8.365426,-21.253332
4.225000,23.974041,-2.134514,24.761469,-20.974413,8.966803,-21.325769
4.231250,29.899595,-2.136153,23.935612,-20.961802,8.466120,-21.407946
4.237500,35.822762,-2.137562,22.992556,-20.958366,6.693197,-21.477253
4.243750,41.743504,-2.138724,21.594698,-20.980309,5.569303,-21.542774
4.250000,47.662861,-2.139554,19.586008,-21.012802,3.471378,-21.603758
4.256250,53.580147,-2.140010,16.818701,-21.038040,0.924607,-21.644178
4.262500,59.493248,-2.140537,13.060036,-21.041523,-1.657763,-21.652708
4.268750,65.399055,-2.141858,8.113370,-21.012514,-3.920082,-21.619207
4.275000,71.298149,-2.144368,1.797577,-20.944019,-5.550368,-21.536535
4.281250,77.196564,-2.147527,-3.880845,-20.823654,-6.276939,-21.392447
4.287500,83.097198,-2.151132,-10.452233,-20.648643,-5.900509,-21.158445
4.293750,88.997215,-2.155905,-17.659996,-20.441597,-4.516060,-20.904139
4.300000,94.896751,-2.162064,-25.130924,-20.204617,-2.401712,-20.632381
4.306250,98.908134,-2.168434,-32.425419,-19.940746,0.642483,-20.340572
4.312500,102.658096,-2.173952,-39.223633,-19.660999,4.408076,-20.038382
4.318750,105.609489,-2.178998,-45.254978,-19.379961,8.629258,-19.739140
4.325000,107.261719,-2.184596,-50.318748,-19.118593,13.002600,-19.460537
4.331250,107.190163,-2.190548,-54.269180,-18.900137,17.217012,-19.217400
4.337500,105.061310,-2.195791,-57.007515,-18.771420,21.000917,-19.012381
4.343750,100.638763,-2.199885,-58.562256,-18.645119,24.131132,-18.788794
4.350000,93.796402,-2.203067,-57.917912,-18.589994,26.136017,-18.669041
4.356250,84.532181,-2.205155,-55.976654,-18.641605,28.682552,-18.634554
4.362500,72.968163,-2.205639,-52.540707,-18.799421,30.529016,-18.695629
4.368750,59.338943,-2.204887,-47.697018,-19.055517,32.029583,-18.878433
4.375000,43.979065,-2.203744,-41.647705,-19.396770,33.423595,-19.123363
4.381250,27.315413,-2.202122,-34.666718,-19.801857,34.776527,-19.412752
4.387500,9.845206,-2.199317,-27.076481,-20.244368,36.883232,-19.753397
4.393750,-7.901045,-2.195661,-19.289682,-20.707933,38.067799,-20.173120
4.400000,-25.383474,-2.192277,-11.762886,-21.179764,39.892788,-20.647635
4.406250,-42.069466,-2.189330,-2.699758,-21.642111,41.940247,-21.150829
4.412500,-57.460876,-2.186053,4.315637,-22.081318,43.917824,-21.664091
4.418750,-71.129364,-2.182469,11.129643,-22.491587,45.611881,-22.173973
4.425000,-82.739677,-2.179533,17.569477,-22.811804,46.937611,-22.632698
4.431250,-92.055969,-2.177653,23.464991,-23.040882,47.908016,-23.012669
4.437500,-98.950813,-2.176142,28.425611,-23.191025,48.291939,-23.310307
4.443750,-103.421730,-2.174836,32.404545,-23.269596,48.086040,-23.518776
4.450000,-105.594826,-2.174530,35.466412,-23.278463,47.419178,-23.630671
4.456250,-105.707779,-2.175769,37.741638,-23.222105,46.460735,-23.644686
4.462500,-104.095184,-2.177732,39.429050,-23.110786,45.391571,-23.566757
4.468750,-101.179932,-2.179976,40.817009,-22.963781,44.434319,-23.418869
4.475000,-97.457497,-2.183005,40.389137,-22.779940,43.882729,-23.187323
4.481250,-93.462273,-2.186832,40.310215,-22.552271,42.464752,-22.857950
4.487500,-87.567101,-2.190659,40.242191,-22.312788,41.708679,-22.477114
4.493750,-81.666283,-2.194187,39.992031,-22.083057,41.314373,-22.074394
4.500000,-75.766930,-2.198594,39.491447,-21.874056,41.064102,-21.671368
4.506250,-69.870720,-2.204576,38.716805,-21.686649,40.748287,-21.282724
4.512500,-63.969456,-2.211000,37.660973,-21.508003,40.148750,-20.917519
4.518750,-58.055847,-2.216356,36.322922,-21.284391,39.019455,-20.585762
4.525000,-52.133461,-2.220819,34.737556,-21.099070,37.044575,-20.322405
4.531250,-46.212059,-2.225546,33.979950,-20.961691,33.779583,-20.117203
4.537500,-40.292702,-2.230908,33.547646,-20.828569,30.580072,-19.946117
4.543750,-34.368000,-2.236138,32.036030,-20.688793,25.944160,-19.820740
4.550000,-28.434799,-2.240407,31.167877,-20.568733,20.201818,-19.717840
4.556250,-22.496140,-2.243774,30.650459,-20.490856,13.765118,-19.697096
4.562500,-16.556000,-2.246628,30.268417,-20.474943,7.331028,-19.774731
4.568750,-10.614916,-2.249050,29.797930,-20.546434,0.881754,-19.948832
4.575000,-4.670982,-2.250660,29.011473,-20.763077,-5.399355,-20.166061
4.581250,1.276259,-2.251107,27.717455,-21.045025,-11.198327,-20.438410
4.587500,7.224592,-2.250301,24.667648,-21.411407,-16.009613,-20.777872
4.593750,13.171353,-2.248539,22.720201,-21.882586,-19.649910,-21.176998
4.600000,19.114433,-2.245974,20.007498,-22.461624,-22.068758,-21.615458
4.606250,25.053795,-2.242370,16.401066,-23.215612,-23.412035,-22.104877
4.612500,30.988688,-2.237795,12.853211,-24.006874,-23.950930,-22.635281
4.618750,36.914032,-2.233241,8.681678,-24.870337,-23.754389,-23.184851
4.625000,42.827343,-2.229406,4.252505,-25.786306,-23.104372,-23.737499
4.631250,48.734585,-2.225754,-0.148098,-26.721407,-22.323702,-24.279840
4.637500,54.640614,-2.221231,-4.256267,-27.632530,-21.774559,-24.794550
4.643750,60.542145,-2.216358,-7.825863,-28.466736,-21.820612,-25.246939
4.650000,66.430008,-2.212726,-12.550925,-29.162983,-22.812160,-25.589174
4.656250,72.303238,-2.211119,-14.570506,-29.693125,-25.128174,-25.828232
4.662500,78.170792,-2.211102,-15.934105,-30.048891,-27.342686,-25.986322
4.668750,84.037354,-2.212319,-16.511686,-30.200047,-30.835081,-26.036650
4.675000,89.903313,-2.215044,-16.327847,-30.133673,-35.366013,-25.971106
4.681250,93.875237,-2.219066,-15.516053,-29.852463,-40.728260,-25.790592
4.687500,97.578056,-2.223778,-14.279822,-29.380014,-46.697517,-25.506372
4.693750,100.478661,-2.229410,-12.864891,-28.754499,-53.005116,-25.130375
4.700000,102.081535,-2.237036,-11.567654,-28.003550,-59.306095,-24.664951
4.706250,101.961784,-2.246346,-10.874200,-27.132284,-65.233650,-24.102673
4.712500,99.790619,-2.255581,-11.028811,-26.182096,-70.353691,-23.495579
4.718750,95.334160,-2.263530,-12.373245,-25.229071,-76.070610,-22.901361
