Anritsu VNA Frequency[GHz],S21[deg],S21[dB],S11[deg],S11[dB],S22[deg],S22[dB]
1338059585.54,2012_05_26_20:13:05,+56.540,+137.27,+116.20,+137.54,+143.06,+145.23,+140.58,+142.29,136.909470,-7.040
3.006250,42.093929,-2.326208,66.855400,-27.182724,-79.574394,-28.102093
3.012500,42.093929,-2.326208,66.855400,-27.182724,-79.574394,-28.102093
3.018750,42.093929,-2.326208,66.855400,-27.182724,-79.574394,-28.102093
3.025000,42.093929,-2.326208,66.855400,-27.182724,-79.574394,-28.102093
3.031250,42.093929,-2.326208,66.855400,-27.182724,-79.574394,-28.102093
3.037500,42.093929,-2.326208,66.855400,-27.182724,-79.574394,-28.102093
3.043750,42.093929,-2.326208,66.855400,-27.182724,-79.574394,-28.102093
3.050000,42.093929,-2.326208,66.855400,-27.182724,-79.574394,-28.102093
3.056250,42.093929,-2.326208,66.855400,-27.182724,-79.574394,-28.102093
3.062500,42.093929,-2.326208,66.855400,-27.182724,-79.574394,-28.102093
3.068750,42.093929,-2.326208,66.855400,-27.182724,-79.574394,-28.102093
3.075000,42.093929,-2.326208,66.855400,-27.182724,-79.574394,-28.102093
3.081250,42.093929,-2.326208,66.855400,-27.182724,-79.574394,-28.102093
3.087500,42.093929,-2.326208,66.855400,-27.182724,-79.574394,-28.102093
3.093750,42.093929,-2.328434,66.855400,-26.990543,-79.574394,-27.903690
3.100000,48.020226,-2.331057,63.356129,-26.827019,-79.759850,-27.696592
3.106250,53.946339,-2.333827,58.978737,-26.719366,-79.092194,-27.481241
3.112500,59.873383,-2.336676,52.319717,-26.682966,-77.301048,-27.241486
3.118750,65.800133,-2.339683,45.517815,-26.719677,-74.168144,-26.936255
3.125000,71.725838,-2.342868,39.158787,-26.737947,-69.706802,-26.622250
3.131250,77.650940,-2.346171,32.999023,-26.779900,-63.987965,-26.282173
3.137500,83.575233,-2.349769,27.170317,-26.853149,-56.657185,-25.903782
3.143750,89.497887,-2.353956,21.953373,-26.953203,-47.789326,-25.495348
3.150000,95.420853,-2.358469,17.627098,-27.068064,-39.402359,-25.070904
3.156250,99.451836,-2.362791,14.422556,-27.184456,-30.024839,-24.650822
3.162500,103.211685,-2.366806,12.521632,-27.286791,-20.367718,-24.258526
3.168750,106.166222,-2.370839,12.058088,-27.362091,-11.114821,-23.928642
3.175000,107.822319,-2.375024,13.155398,-27.391930,-2.867627,-23.668110
3.181250,107.753609,-2.379342,14.113650,-27.360188,4.306756,-23.422594
3.187500,105.621422,-2.383465,16.617388,-27.278881,9.633657,-23.228222
3.193750,101.188576,-2.387340,19.977245,-27.155272,12.868971,-23.106812
3.200000,94.332962,-2.390902,23.614756,-26.994776,14.031288,-23.065739
3.206250,85.054649,-2.394085,27.042608,-26.805370,13.179462,-23.102823
3.212500,73.473946,-2.397078,29.824215,-26.599236,10.464100,-23.221991
3.218750,59.826557,-2.400177,31.595287,-26.388786,6.157761,-23.440029
3.225000,44.453262,-2.403230,34.260571,-26.175638,0.368227,-23.661776
3.231250,27.783955,-2.405863,36.290382,-25.958364,-6.630651,-23.903820
3.237500,10.310047,-2.408150,36.117344,-25.741663,-14.216262,-24.166279
3.243750,-7.439908,-2.410633,35.721752,-25.516235,-20.263542,-24.430874
3.250000,-24.920021,-2.413683,34.920944,-25.286180,-26.221859,-24.676825
3.256250,-41.594929,-2.416979,33.272255,-25.094252,-31.478178,-24.892765
3.262500,-56.969185,-2.419967,30.745518,-24.927280,-35.487507,-25.069365
3.268750,-70.616516,-2.422589,27.277334,-24.780104,-37.728264,-25.195499
3.275000,-82.199341,-2.425212,22.692024,-24.651819,-37.814777,-25.265930
3.281250,-91.482506,-2.428258,16.825413,-24.535666,-35.515285,-25.281227
3.287500,-98.342682,-2.431649,9.544694,-24.420818,-30.765638,-25.248577
3.293750,-102.777344,-2.435143,2.950972,-24.285063,-23.680317,-25.169180
3.300000,-104.907112,-2.438529,-4.346992,-24.106041,-14.498513,-25.043575
3.306250,-104.968994,-2.441665,-12.466751,-23.975294,-3.583786,-24.889484
3.312500,-103.304222,-2.444543,-20.671034,-23.859587,8.544741,-24.733356
3.318750,-100.341034,-2.447367,-28.511587,-23.758207,21.288729,-24.598425
3.325000,-96.571693,-2.450002,-35.724667,-23.682867,34.024696,-24.499660
3.331250,-92.527954,-2.452331,-42.070961,-23.650190,48.296238,-24.444559
3.337500,-86.588356,-2.454202,-47.371532,-23.692352,62.122688,-24.436831
3.343750,-80.648216,-2.455711,-51.508629,-23.871004,75.422966,-24.472013
3.350000,-74.708473,-2.456857,-55.180138,-24.035347,86.268700,-24.521414
3.356250,-68.769493,-2.457751,-57.899879,-24.285002,96.233025,-24.579250
3.362500,-62.832062,-2.458349,-57.852604,-24.654871,104.213631,-24.707367
3.368750,-56.896091,-2.458715,-56.807266,-25.139854,110.010056,-24.885668
3.375000,-50.960983,-2.458561,-54.657017,-25.720072,113.243248,-25.126421
3.381250,-45.027355,-2.457961,-51.434662,-26.365690,113.642281,-25.413950
3.387500,-39.098812,-2.457521,-47.254242,-27.042088,111.508690,-25.692961
3.393750,-33.176315,-2.457709,-42.294701,-27.708067,106.551430,-25.972624
3.400000,-27.257183,-2.458341,-36.779701,-28.320284,99.052887,-26.212881
3.406250,-21.337708,-2.458830,-31.010319,-28.850056,89.858154,-26.484833
3.412500,-15.418339,-2.459341,-25.325289,-29.273834,79.858925,-26.750980
3.418750,-9.503137,-2.460575,-19.693932,-29.566301,69.660950,-26.982908
3.425000,-3.591392,-2.462751,-14.106182,-29.715673,58.044231,-27.169853
3.431250,2.321713,-2.465211,-8.832666,-29.723717,47.340302,-27.310783
3.437500,8.238667,-2.467513,-4.084986,-29.590534,38.004742,-27.411736
3.443750,14.155811,-2.470291,0.110846,-29.296980,30.594809,-27.428617
3.450000,20.070692,-2.474034,3.539274,-28.875731,23.594374,-27.371468
3.456250,25.988010,-2.478210,6.080744,-28.361902,18.712023,-27.253021
3.462500,31.912956,-2.481834,7.829785,-27.794523,15.620010,-27.076918
3.468750,37.843498,-2.484828,9.002598,-27.215252,13.985579,-26.840973
3.475000,43.774635,-2.487619,9.853610,-26.671206,13.460322,-26.555197
3.481250,49.704411,-2.490388,10.700691,-26.185804,13.658785,-26.233467
3.487500,55.633507,-2.493270,10.329611,-25.733044,14.183219,-25.874882
3.493750,61.561615,-2.496517,10.464249,-25.361399,14.632903,-25.481833
3.500000,67.489113,-2.500109,10.867874,-25.089346,14.578228,-25.065557
3.506250,73.419312,-2.503611,11.465308,-24.914564,13.674795,-24.636917
3.512500,79.353142,-2.506426,12.182902,-24.819763,11.652285,-24.206406
3.518750,85.288025,-2.508924,12.961240,-24.759497,8.312645,-23.780674
3.525000,91.218269,-2.512092,13.748383,-24.642336,3.520179,-23.365974
3.531250,95.249168,-2.516347,15.338695,-24.602758,-0.673376,-22.974756
3.537500,99.008308,-2.521001,17.237040,-24.549101,-5.699185,-22.623152
3.543750,101.967590,-2.525371,19.524767,-24.462013,-11.093392,-22.328388
3.550000,103.632530,-2.529770,22.378504,-24.328827,-16.541142,-22.052591
3.556250,103.572426,-2.534714,24.145739,-24.133240,-21.746771,-21.777279
3.562500,101.448273,-2.539995,26.514778,-23.895975,-26.276146,-21.527082
3.568750,97.029228,-2.544754,28.969009,-23.643492,-30.511280,-21.368032
3.575000,90.194939,-2.548312,31.099035,-23.401411,-34.190815,-21.292015
3.581250,80.941185,-2.550745,32.531837,-23.201448,-37.446537,-21.325050
3.587500,69.384613,-2.552634,32.925385,-23.078928,-38.801697,-21.418005
3.593750,55.760971,-2.554148,32.067009,-23.042536,-40.530888,-21.574945
3.600000,40.414410,-2.554801,32.080536,-23.088808,-42.105385,-21.819180
3.606250,23.772701,-2.554148,31.352682,-23.234818,-43.473110,-22.146889
3.612500,6.324522,-2.552548,30.268694,-23.478874,-44.670013,-22.535393
3.618750,-11.401567,-2.550488,29.252449,-23.818577,-45.808632,-22.951038
3.625000,-28.858612,-2.547897,28.526911,-24.275791,-47.223808,-23.419706
3.631250,-45.512039,-2.544492,28.516397,-24.820911,-47.012428,-23.916523
3.637500,-60.872406,-2.540616,29.591480,-25.418699,-46.554470,-24.410084
3.643750,-74.516525,-2.536992,31.924046,-26.032066,-45.569359,-24.877008
3.650000,-86.103653,-2.534046,33.662369,-26.619545,-43.889347,-25.297766
3.656250,-95.393967,-2.531673,36.372730,-27.125923,-41.416416,-25.653919
3.662500,-102.264214,-2.529941,39.320320,-27.520279,-38.116928,-25.935175
3.668750,-106.714149,-2.529074,43.520512,-27.830042,-34.051979,-26.143736
3.675000,-108.863678,-2.528969,47.053043,-28.016277,-29.353437,-26.282894
3.681250,-108.947609,-2.529195,49.758049,-28.066391,-24.171041,-26.352541
3.687500,-107.307404,-2.529878,51.391060,-27.985359,-18.716219,-26.355810
3.693750,-104.372246,-2.531652,51.769760,-27.794945,-13.256403,-26.301876
3.700000,-100.633965,-2.534673,50.808540,-27.525063,-8.060096,-26.204985
3.706250,-96.619469,-2.538103,48.648476,-27.169174,-3.343120,-26.071680
3.712500,-90.704224,-2.541332,45.403542,-26.765507,0.782285,-25.896124
3.718750,-84.786873,-2.544725,39.204456,-26.354717,4.181945,-25.682917
3.725000,-78.870766,-2.548753,31.940849,-25.961994,6.783282,-25.433619
3.731250,-72.953201,-2.552965,23.402689,-25.616158,8.825216,-25.196465
3.737500,-67.030861,-2.556792,15.519782,-25.356932,10.657376,-24.991608
3.743750,-61.104401,-2.560230,6.923480,-25.188070,12.399331,-24.832922
3.750000,-55.178116,-2.563576,-1.770742,-25.097855,14.484883,-24.696985
3.756250,-49.252872,-2.566772,-10.077047,-25.079981,15.742938,-24.548800
3.762500,-43.326859,-2.569677,-17.572290,-25.119242,18.002651,-24.379993
3.768750,-37.400547,-2.572462,-23.804180,-25.183683,19.164272,-24.247721
3.775000,-31.475580,-2.575436,-28.447947,-25.263985,21.005650,-24.159988
3.781250,-25.551682,-2.578447,-31.396080,-25.361860,22.748833,-24.094879
3.787500,-19.626534,-2.581127,-32.332062,-25.453558,24.049410,-24.042282
3.793750,-13.701369,-2.583701,-31.091818,-25.534595,24.637241,-24.002005
3.800000,-7.778090,-2.586603,-29.539911,-25.606163,24.332582,-23.973059
3.806250,-1.856554,-2.589796,-25.672045,-25.577663,23.124023,-23.923977
3.812500,4.065256,-2.593144,-20.459673,-25.496363,21.018723,-23.848204
3.818750,9.987459,-2.596766,-14.686934,-25.380840,17.910297,-23.753469
3.825000,15.909174,-2.600781,-8.928440,-25.244078,13.910967,-23.644434
3.831250,21.833298,-2.604748,-1.559786,-25.098051,9.274812,-23.527361
3.837500,27.760763,-2.608281,5.569465,-24.955713,4.339722,-23.418322
3.843750,33.688782,-2.611762,12.560372,-24.821316,-0.519997,-23.341782
3.850000,39.614574,-2.615675,17.699738,-24.685972,-4.593824,-23.215738
3.856250,45.540031,-2.619562,22.714445,-24.555159,-9.490687,-23.084578
3.862500,51.468853,-2.622948,27.137466,-24.432325,-13.397420,-22.964659
3.868750,57.398121,-2.626120,30.614799,-24.310564,-16.399395,-22.858210
3.875000,63.322372,-2.630162,32.845615,-24.171547,-18.612717,-22.759098
3.881250,69.242432,-2.635411,33.561985,-23.992865,-20.205927,-22.653860
3.887500,75.164742,-2.641016,32.384636,-23.798527,-21.428841,-22.536343
3.893750,81.093781,-2.646186,29.085892,-23.576141,-22.647217,-22.414841
3.900000,87.026001,-2.651384,25.873558,-23.309858,-24.178320,-22.285583
3.906250,92.955940,-2.657531,21.338093,-22.996649,-26.307980,-22.145351
3.912500,96.989998,-2.664758,15.964163,-22.637959,-29.374975,-21.991192
3.918750,100.756126,-2.672577,10.244858,-22.239182,-31.811516,-21.815920
3.925000,103.724480,-2.680311,4.598273,-21.818394,-35.553879,-21.603104
3.931250,105.403244,-2.687693,-0.631270,-21.401672,-40.402863,-21.375620
3.937500,105.363861,-2.694707,-5.082273,-21.011280,-44.254414,-21.179029
3.943750,103.264343,-2.701223,-8.431548,-20.669485,-48.019135,-21.014568
3.950000,98.868790,-2.706885,-10.463163,-20.397610,-50.919342,-20.891813
3.956250,92.056015,-2.711065,-11.070637,-20.214489,-52.323723,-20.823921
3.962500,82.824020,-2.713562,-10.236977,-20.132368,-51.694752,-20.823126
3.968750,71.291252,-2.714589,-8.010280,-20.153421,-48.603569,-20.898819
3.975000,57.691078,-2.714328,-6.397347,-20.262045,-42.760834,-21.060244
3.981250,42.362820,-2.712816,-1.790373,-20.436455,-35.933380,-21.345022
3.987500,25.732952,-2.710210,3.210223,-20.750668,-26.428431,-21.673351
3.993750,8.291905,-2.706636,8.690475,-21.135242,-14.749336,-22.090614
4.000000,-9.429040,-2.702379,14.358704,-21.580656,-2.002292,-22.608925
4.006250,-26.883329,-2.697433,19.777746,-22.076103,11.092977,-23.238220
4.012500,-43.540001,-2.692030,24.652233,-22.600889,23.757080,-23.974762
4.018750,-58.909054,-2.686941,28.741169,-23.127748,34.543934,-24.684963
4.025000,-72.563545,-2.682590,31.816620,-23.635050,45.062183,-25.368275
4.031250,-84.159767,-2.678760,33.892162,-24.115671,52.531490,-26.095800
4.037500,-93.458023,-2.675442,35.089497,-24.553612,58.861397,-26.814255
4.043750,-100.338280,-2.673091,35.356785,-24.933525,62.699802,-27.489269
4.050000,-104.799667,-2.671979,34.649075,-25.250244,64.453262,-28.098095
4.056250,-106.959526,-2.671339,32.979137,-25.500620,64.626572,-28.625332
4.062500,-107.051521,-2.670594,30.521603,-25.662287,61.953049,-29.049377
4.068750,-105.420464,-2.670350,27.460451,-25.738470,58.804924,-29.344576
4.075000,-102.499252,-2.671853,23.915564,-25.744633,55.316574,-29.507156
4.081250,-98.775597,-2.674874,20.183592,-25.692350,51.659065,-29.538265
4.087500,-94.773239,-2.678064,16.648323,-25.588459,48.122776,-29.436958
4.093750,-88.866852,-2.680674,11.843150,-25.438618,45.058517,-29.204622
4.100000,-82.959648,-2.683305,7.804869,-25.252180,40.651028,-28.853563
4.106250,-77.056618,-2.686834,4.426951,-25.035681,36.603664,-28.410782
4.112500,-71.155617,-2.691148,1.650062,-24.788027,32.772575,-27.885662
4.118750,-65.252098,-2.695904,-0.605550,-24.512384,29.278011,-27.260542
4.125000,-59.345741,-2.701149,-2.528642,-24.221870,25.776575,-26.581812
4.131250,-53.437965,-2.706981,-4.263054,-23.927719,22.112896,-25.885065
4.137500,-47.526398,-2.713086,-5.898468,-23.636963,18.283880,-25.197990
4.143750,-41.608902,-2.719007,-7.493550,-23.352001,14.325764,-24.541794
4.150000,-35.687878,-2.724921,-9.113018,-23.074650,10.278552,-23.932991
4.156250,-29.765594,-2.731135,-8.666074,-22.804428,6.183920,-23.378334
4.162500,-23.841814,-2.737728,-7.588635,-22.540024,4.252163,-22.853369
4.168750,-17.914877,-2.744393,-7.364525,-22.272217,2.982679,-22.442141
4.175000,-11.984246,-2.751271,-6.043248,-22.007320,1.006976,-22.090485
4.181250,-6.049560,-2.758098,-3.975413,-21.755713,0.382879,-21.807455
4.187500,-0.110280,-2.764661,-1.462993,-21.525433,0.866462,-21.572231
4.193750,5.833826,-2.770813,1.179015,-21.323538,2.257364,-21.356609
4.200000,11.781767,-2.776456,3.626256,-21.157257,5.080466,-21.260664
4.206250,17.732849,-2.781325,5.558482,-21.034191,6.515527,-21.254391
4.212500,23.686953,-2.785129,8.872095,-20.956978,7.590406,-21.286692
4.218750,29.641125,-2.788091,12.003636,-20.916729,9.261134,-21.337475
4.225000,35.592300,-2.790695,15.267709,-20.905855,9.570550,-21.420536
4.231250,41.539383,-2.793095,17.015533,-20.914690,8.428048,-21.530867
4.237500,47.484165,-2.795300,19.095053,-20.932825,5.708528,-21.651701
4.243750,53.426781,-2.797124,21.060852,-20.975216,3.438743,-21.775446
4.250000,59.368313,-2.798566,22.493010,-21.036665,0.089811,-21.904907
4.256250,65.308197,-2.799555,23.113770,-21.098417,-3.833286,-22.027170
4.262500,71.243942,-2.800410,22.550264,-21.144581,-7.804204,-22.128494
4.268750,77.173622,-2.801775,20.448507,-21.163715,-11.374296,-22.194929
4.275000,83.096001,-2.804137,18.667622,-21.148643,-14.148620,-22.216002
4.281250,89.015968,-2.807214,15.576317,-21.090441,-15.791219,-22.180042
4.287500,94.937225,-2.810660,11.445450,-20.980791,-16.035292,-22.065754
4.293750,98.963593,-2.815010,6.500715,-20.827942,-14.792296,-21.880384
4.300000,102.714844,-2.820691,0.951229,-20.641935,-12.398118,-21.670134
4.306250,105.664177,-2.826991,-4.874220,-20.425144,-8.770280,-21.424234
4.312500,107.325356,-2.832753,-10.688072,-20.184532,-4.037068,-21.145836
4.318750,107.269241,-2.837948,-16.248640,-19.930325,1.502330,-20.844873
4.325000,105.147705,-2.843521,-21.359493,-19.678955,7.481903,-20.536903
4.331250,100.723190,-2.849716,-25.865997,-19.449276,13.504519,-20.238134
4.337500,93.880287,-2.855693,-29.636824,-19.264729,19.190029,-19.959295
4.343750,84.622452,-2.860659,-32.595478,-19.191927,24.179304,-19.691221
4.350000,73.068123,-2.864784,-34.001347,-19.089638,28.126421,-19.457624
4.356250,59.451256,-2.868024,-33.984119,-19.081474,32.455929,-19.308039
4.362500,44.112518,-2.869959,-32.726273,-19.181890,35.798336,-19.247759
4.368750,27.478476,-2.870602,-30.149481,-19.388102,38.482533,-19.298309
4.375000,10.035818,-2.870587,-26.332588,-19.691177,40.820297,-19.492918
4.381250,-7.684750,-2.870090,-21.432068,-20.074451,42.616077,-19.713924
4.387500,-25.132986,-2.868568,-15.660542,-20.513807,44.569183,-19.987366
4.393750,-41.776543,-2.865966,-9.312599,-20.987097,47.198139,-20.349705
4.400000,-57.129116,-2.863259,-2.752121,-21.479115,48.877701,-20.805027
4.406250,-70.765366,-2.860822,1.772572,-21.972250,50.907780,-21.317110
4.412500,-82.340446,-2.858106,7.748051,-22.448479,52.959129,-21.860165
4.418750,-91.614967,-2.854896,13.015818,-22.893665,54.801792,-22.413485
4.425000,-98.471329,-2.851930,17.392544,-23.274035,56.288006,-22.946495
4.431250,-102.912621,-2.849802,20.869726,-23.556152,57.402451,-23.413511
4.437500,-105.056442,-2.848081,23.238232,-23.745613,58.020271,-23.799501
4.443750,-105.136734,-2.846536,24.493645,-23.848776,58.049252,-24.093935
4.450000,-103.496651,-2.845869,24.810801,-23.867031,57.571266,-24.285374
4.456250,-100.566002,-2.846813,24.440475,-23.802879,56.738010,-24.366785
4.462500,-96.831482,-2.848839,23.702200,-23.663397,55.721214,-24.337645
4.468750,-92.819962,-2.851261,22.986925,-23.462406,54.726185,-24.206326
4.475000,-86.911095,-2.854250,20.831490,-23.219269,53.999027,-23.995140
4.481250,-81.002373,-2.858130,19.367903,-22.930092,52.053360,-23.671078
4.487500,-75.091339,-2.862514,18.537642,-22.611000,50.875530,-23.262140
4.493750,-69.175262,-2.866830,18.089235,-22.291775,49.946434,-22.807909
4.500000,-63.257839,-2.871771,17.899599,-21.993340,49.020523,-22.338020
4.506250,-57.342110,-2.878228,17.899445,-21.726912,47.908646,-21.875158
4.512500,-51.422672,-2.885382,18.027472,-21.492531,46.436081,-21.436415
4.518750,-45.491169,-2.891789,18.215231,-21.273384,44.422146,-21.036089
4.525000,-39.548695,-2.897045,18.374252,-20.991238,41.664467,-20.696392
4.531250,-33.604214,-2.902128,20.010201,-20.816616,37.880199,-20.463154
4.537500,-27.661650,-2.907663,21.731571,-20.683754,32.527016,-20.269970
4.543750,-21.715815,-2.913151,22.309851,-20.557436,27.396595,-20.144291
4.550000,-15.762381,-2.917745,23.574139,-20.447638,20.928822,-20.081509
4.556250,-9.802829,-2.921378,25.028145,-20.377407,13.451772,-20.045982
4.562500,-3.840859,-2.924320,26.315104,-20.365950,5.913886,-20.153278
4.568750,2.121679,-2.926746,27.119951,-20.435574,-1.553458,-20.377813
4.575000,8.086021,-2.928456,27.150515,-20.620525,-8.670335,-20.685398
4.581250,14.053428,-2.929027,26.160139,-20.940018,-15.527865,-21.026737
4.587500,20.021820,-2.928379,25.084377,-21.311731,-21.225697,-21.434610
4.593750,25.989134,-2.926675,23.286074,-21.786753,-25.516445,-21.908255
4.600000,31.952517,-2.924191,20.798231,-22.370998,-28.328388,-22.431932
4.606250,37.911438,-2.920877,17.652308,-23.090239,-29.727236,-22.995596
4.612500,43.865524,-2.916732,13.899390,-23.900112,-29.959555,-23.597967
4.618750,49.811630,-2.912493,9.975501,-24.772131,-29.195679,-24.216866
4.625000,55.747135,-2.908859,5.779397,-25.692225,-27.686033,-24.833853
4.631250,61.675762,-2.905507,1.493701,-26.631239,-25.782982,-25.434855
4.637500,67.602707,-2.901465,-2.657195,-27.550922,-23.877846,-26.007868
4.643750,73.526352,-2.896869,-8.339076,-28.404707,-22.395304,-26.525539
4.650000,79.438568,-2.893128,-13.720901,-29.140713,-21.777359,-26.946705
4.656250,85.335709,-2.891349,-17.022240,-29.710379,-22.410160,-27.237143
4.662500,91.224442,-2.891351,-20.091303,-30.099691,-22.645319,-27.433510
4.668750,97.111839,-2.892537,-22.916168,-30.292498,-24.369646,-27.526432
4.675000,101.104454,-2.895029,-25.338636,-30.271948,-27.230623,-27.501068
4.681250,104.823753,-2.898949,-27.309402,-30.035236,-31.063431,-27.353167
4.687500,107.739784,-2.903772,-28.859701,-29.599092,-35.710304,-27.089834
4.693750,109.361061,-2.909522,-30.073544,-28.997885,-40.982937,-26.723156
4.700000,109.258301,-2.916894,-31.060581,-28.279747,-46.620674,-26.261179
4.706250,107.091187,-2.926167,-32.086517,-27.446672,-52.316040,-25.703945
4.712500,102.631966,-2.935954,-33.541706,-26.529196,-57.727818,-25.041939
4.718750,95.764915,-2.944833,-35.444473,-25.582745,-62.170238,-24.383305
