Anritsu VNA Frequency[GHz],S21[deg],S21[dB],S11[deg],S11[dB],S22[deg],S22[dB]
1338073988.71,2012_05_27_00:13:08,+41.206,+10.344,+56.569,+10.358,+13.989,+13.800,+14.094,+13.850,10.456915,-18.096
3.006250,34.255711,-1.757999,59.532372,-26.644800,-79.858543,-27.473007
3.012500,34.255711,-1.757999,59.532372,-26.644800,-79.858543,-27.473007
3.018750,34.255711,-1.757999,59.532372,-26.644800,-79.858543,-27.473007
3.025000,34.255711,-1.757999,59.532372,-26.644800,-79.858543,-27.473007
3.031250,34.255711,-1.757999,59.532372,-26.644800,-79.858543,-27.473007
3.037500,34.255711,-1.757999,59.532372,-26.644800,-79.858543,-27.473007
3.043750,34.255711,-1.757999,59.532372,-26.644800,-79.858543,-27.473007
3.050000,34.255711,-1.757999,59.532372,-26.644800,-79.858543,-27.473007
3.056250,34.255711,-1.757999,59.532372,-26.644800,-79.858543,-27.473007
3.062500,34.255711,-1.757999,59.532372,-26.644800,-79.858543,-27.473007
3.068750,34.255711,-1.757999,59.532372,-26.644800,-79.858543,-27.473007
3.075000,34.255711,-1.757999,59.532372,-26.644800,-79.858543,-27.473007
3.081250,34.255711,-1.757999,59.532372,-26.644800,-79.858543,-27.473007
3.087500,34.255711,-1.757999,59.532372,-26.644800,-79.858543,-27.473007
3.093750,34.255711,-1.759867,59.532372,-26.442699,-79.858543,-27.223032
3.100000,40.163139,-1.762063,56.847816,-26.289373,-81.905479,-26.990604
3.106250,46.070522,-1.764289,53.281479,-26.207859,-82.331123,-26.777882
3.112500,51.978252,-1.766591,49.199112,-26.217823,-80.771866,-26.556791
3.118750,57.885193,-1.769084,43.201107,-26.261436,-79.075661,-26.256544
3.125000,63.790817,-1.771759,38.395809,-26.304895,-75.062485,-25.995495
3.131250,69.696136,-1.774549,34.006321,-26.375174,-68.912758,-25.707130
3.137500,75.600388,-1.777671,30.292412,-26.473337,-61.040237,-25.382092
3.143750,81.502800,-1.781324,27.455734,-26.591457,-51.627926,-25.028454
3.150000,87.405899,-1.785302,25.677765,-26.715055,-40.836517,-24.658567
3.156250,93.312180,-1.789000,25.079231,-26.829683,-28.836311,-24.290993
3.162500,97.325958,-1.792455,25.723680,-26.921997,-15.828108,-23.949883
3.168750,101.066399,-1.795979,27.632267,-26.984255,-3.917295,-23.683203
3.175000,104.000290,-1.799737,30.845348,-26.995102,8.354342,-23.437132
3.181250,105.637337,-1.803569,33.603828,-26.941427,20.870367,-23.213825
3.187500,105.551949,-1.807210,37.380264,-26.840843,32.348106,-23.044628
3.193750,103.402985,-1.810580,41.466751,-26.704800,42.358730,-22.945265
3.200000,98.953117,-1.813610,45.292454,-26.541481,50.574482,-22.919756
3.206250,92.080376,-1.816242,48.373974,-26.361290,56.708572,-22.968149
3.212500,82.783134,-1.818668,50.294041,-26.178188,60.569263,-23.097836
3.218750,71.181717,-1.821326,50.742142,-26.002457,62.053795,-23.292923
3.225000,57.514217,-1.823818,51.717464,-25.827789,60.909283,-23.496693
3.231250,42.124065,-1.825789,51.760517,-25.654728,57.418076,-23.718309
3.237500,25.436399,-1.827459,49.378513,-25.483507,53.693241,-23.949619
3.243750,7.939250,-1.829411,46.682819,-25.291931,48.237019,-24.168133
3.250000,-9.834547,-1.831899,43.542580,-25.118752,41.719852,-24.353912
3.256250,-27.334942,-1.834537,39.607544,-24.977951,34.734070,-24.506786
3.262500,-44.026573,-1.836846,35.110924,-24.852556,27.922499,-24.615263
3.268750,-59.418949,-1.838814,29.993296,-24.738867,21.969940,-24.670504
3.275000,-73.088264,-1.840839,24.135059,-24.635689,17.417164,-24.672609
3.281250,-84.694473,-1.843290,17.427324,-24.534016,14.705031,-24.629036
3.287500,-93.998695,-1.846109,9.779601,-24.421291,14.131713,-24.553478
3.293750,-100.877022,-1.849022,1.155115,-24.259895,15.847351,-24.446072
3.300000,-105.329201,-1.851853,-6.272617,-24.092445,19.894062,-24.308857
3.306250,-107.476082,-1.854407,-14.916436,-23.958530,26.132889,-24.167896
3.312500,-107.555756,-1.856723,-23.562466,-23.838537,34.263020,-24.054579
3.318750,-105.909874,-1.858933,-31.919083,-23.739519,43.900513,-23.989647
3.325000,-102.965424,-1.860961,-39.722538,-23.679298,54.598721,-23.984215
3.331250,-99.214195,-1.862626,-46.715248,-23.682644,65.840424,-24.041229
3.337500,-95.189102,-1.863949,-52.714363,-23.814976,77.044952,-24.158958
3.343750,-89.269218,-1.864905,-57.753922,-23.975290,87.634453,-24.322571
3.350000,-83.349823,-1.865461,-62.178921,-24.196249,97.364052,-24.477806
3.356250,-77.431198,-1.865713,-65.606697,-24.520506,105.951233,-24.675829
3.362500,-71.514595,-1.865809,-66.327072,-24.969688,112.192528,-24.925451
3.368750,-65.600029,-1.865648,-65.985352,-25.525045,116.214378,-25.215555
3.375000,-59.685913,-1.864863,-64.459465,-26.160021,117.620003,-25.588940
3.381250,-53.774113,-1.863703,-61.759132,-26.840591,116.243958,-25.924511
3.387500,-47.868519,-1.862885,-57.979160,-27.528435,112.712296,-26.246782
3.393750,-41.969357,-1.862892,-53.276672,-28.178709,106.470482,-26.549320
3.400000,-36.072701,-1.863240,-47.870827,-28.748928,98.079262,-26.822411
3.406250,-30.174543,-1.863426,-42.092838,-29.218393,88.543694,-27.099504
3.412500,-24.277273,-1.863723,-36.271931,-29.561697,78.532150,-27.345751
3.418750,-18.384506,-1.864880,-28.467613,-29.757236,66.681519,-27.540148
3.425000,-12.495049,-1.867005,-22.222353,-29.800665,55.279621,-27.676783
3.431250,-6.602590,-1.869304,-15.683904,-29.706581,44.757515,-27.761564
3.437500,-0.705803,-1.871463,-9.108403,-29.460556,35.568146,-27.798525
3.443750,5.190554,-1.874241,-2.517896,-29.059839,28.391846,-27.736258
3.450000,11.085425,-1.877975,3.572325,-28.549614,21.510210,-27.603762
3.456250,16.984343,-1.881913,8.997536,-27.969084,16.698774,-27.414326
3.462500,22.891771,-1.885687,13.751257,-27.361679,13.663647,-27.170115
3.468750,28.811008,-1.888509,17.914265,-26.773197,12.088261,-26.868557
3.475000,34.723320,-1.891058,21.593773,-26.268560,11.623126,-26.525473
3.481250,40.635208,-1.893476,25.045792,-25.802156,11.873235,-26.155247
3.487500,46.546295,-1.895894,27.008972,-25.402443,12.472766,-25.752764
3.493750,52.455982,-1.898701,28.867689,-25.106018,12.987143,-25.324888
3.500000,58.364971,-1.901914,30.446522,-24.918406,12.981945,-24.883898
3.506250,64.277046,-1.904874,31.641272,-24.824734,12.125799,-24.439571
3.512500,70.193199,-1.906995,32.359303,-24.791758,10.148823,-24.001175
3.518750,76.109444,-1.908856,32.570965,-24.728317,6.851255,-23.573523
3.525000,82.019630,-1.911583,32.469917,-24.713308,2.081907,-23.162832
3.531250,87.925468,-1.915405,32.589283,-24.701857,-2.134029,-22.783260
3.537500,93.833618,-1.919493,32.590290,-24.657854,-7.252017,-22.450996
3.543750,97.852707,-1.923223,32.724102,-24.571547,-12.845909,-22.162809
3.550000,101.601433,-1.927137,33.327370,-24.416739,-18.632282,-21.881559
3.556250,104.543106,-1.931786,32.845707,-24.193970,-24.135868,-21.556694
3.562500,106.189751,-1.936716,32.983498,-23.932474,-29.068201,-21.314552
3.568750,106.120537,-1.940838,33.400272,-23.659065,-32.209114,-21.143507
3.575000,103.995102,-1.943638,33.815613,-23.400599,-34.564323,-21.044048
3.581250,99.570488,-1.945358,33.946922,-23.191467,-35.865898,-21.030910
3.587500,92.720222,-1.946698,33.534187,-23.067631,-36.133385,-21.063389
3.593750,83.444557,-1.947621,32.465900,-23.018286,-35.245300,-21.163748
3.600000,71.869247,-1.947513,30.683811,-23.055819,-33.044731,-21.346964
3.606250,58.231365,-1.946065,30.035477,-23.193546,-29.687397,-21.607134
3.612500,42.866608,-1.943780,29.067415,-23.418625,-25.452288,-21.917957
3.618750,26.198725,-1.941125,28.185595,-23.746687,-20.735153,-22.253946
3.625000,8.721564,-1.937844,27.503883,-24.189222,-16.320299,-22.657240
3.631250,-9.031033,-1.933746,27.625685,-24.709116,-10.407369,-23.090818
3.637500,-26.515539,-1.929358,28.855396,-25.270769,-4.727181,-23.526150
3.643750,-43.203747,-1.925310,31.334229,-25.836964,0.701426,-23.943106
3.650000,-58.602551,-1.921977,33.199326,-26.363092,5.789995,-24.324284
3.656250,-72.281364,-1.919288,36.013210,-26.774467,10.451883,-24.653610
3.662500,-83.898933,-1.917326,38.954933,-27.114695,14.592673,-24.925991
3.668750,-93.217476,-1.916297,42.939053,-27.363298,18.069141,-25.147337
3.675000,-100.113228,-1.915889,46.289486,-27.491619,20.796463,-25.316948
3.681250,-104.584084,-1.915664,48.735184,-27.496655,22.720461,-25.432800
3.687500,-106.753281,-1.915887,50.036545,-27.390936,23.765564,-25.498117
3.693750,-106.860855,-1.917380,50.044628,-27.201077,23.880442,-25.522078
3.700000,-105.245705,-1.919982,48.757927,-26.932613,23.069504,-25.515594
3.706250,-102.328560,-1.922775,46.337238,-26.602665,21.462927,-25.471945
3.712500,-98.599968,-1.925258,42.764698,-26.250820,19.282843,-25.384163
3.718750,-94.597466,-1.928064,36.333069,-25.904427,16.678291,-25.257917
3.725000,-88.701759,-1.931508,28.967373,-25.579744,13.976794,-25.108147
3.731250,-82.804207,-1.934968,20.396553,-25.320974,11.784099,-24.973829
3.737500,-76.901306,-1.937893,12.559490,-25.152275,10.515924,-24.867094
3.743750,-70.996185,-1.940570,4.203458,-25.059338,10.579830,-24.810953
3.750000,-65.092163,-1.943316,-4.118629,-25.030642,10.562773,-24.720791
3.756250,-59.189373,-1.945989,-12.005739,-25.061630,10.463253,-24.615753
3.762500,-53.285324,-1.948428,-19.039061,-25.131567,11.597835,-24.496197
3.768750,-47.381252,-1.950833,-24.777092,-25.204275,13.706058,-24.411436
3.775000,-41.478657,-1.953567,-28.984535,-25.291513,16.336222,-24.350609
3.781250,-35.576450,-1.956332,-31.557470,-25.380102,18.887098,-24.297941
3.787500,-29.672722,-1.958810,-32.139755,-25.449877,20.994667,-24.245958
3.793750,-23.769070,-1.961378,-30.645872,-25.514740,22.353788,-24.198565
3.800000,-17.867237,-1.964347,-28.998377,-25.519590,22.767818,-24.148382
3.806250,-11.966107,-1.967629,-24.844175,-25.437668,22.254301,-24.059231
3.812500,-6.063562,-1.971068,-19.697292,-25.309095,20.678753,-23.938641
3.818750,-0.160752,-1.974831,-14.102205,-25.150583,17.936165,-23.797157
3.825000,5.742686,-1.978976,-8.597715,-24.976288,14.153185,-23.642031
3.831250,11.650180,-1.982769,-1.531711,-24.800539,9.595177,-23.484283
3.837500,17.560976,-1.986022,5.278345,-24.637411,4.587447,-23.359699
3.843750,23.471502,-1.989343,11.986259,-24.482052,-0.527138,-23.223623
3.850000,29.378969,-1.993217,16.904709,-24.328531,-6.448166,-23.058239
3.856250,35.287216,-1.996925,21.713015,-24.186344,-11.972025,-22.902544
3.862500,41.199661,-1.999840,25.989407,-24.054012,-17.082205,-22.765518
3.868750,47.111549,-2.002679,29.400988,-23.918571,-21.759304,-22.644167
3.875000,53.016567,-2.006543,31.627909,-23.757845,-26.029976,-22.527384
3.881250,58.917622,-2.011659,32.321415,-23.577057,-29.964737,-22.399782
3.887500,64.822327,-2.016883,31.079304,-23.379248,-33.747013,-22.265106
3.893750,70.733841,-2.021692,27.830629,-23.146276,-37.636326,-22.129213
3.900000,76.646812,-2.026738,24.652527,-22.868120,-41.766361,-21.984322
3.906250,82.557106,-2.032847,20.094368,-22.544382,-44.439667,-21.828390
3.912500,88.467567,-2.039941,14.628225,-22.176414,-47.525536,-21.657413
3.918750,94.384529,-2.047445,8.718532,-21.771656,-50.735748,-21.458569
3.925000,98.415504,-2.054762,2.732893,-21.357891,-53.825203,-21.204288
3.931250,102.181602,-2.061689,-2.985281,-20.960623,-56.847874,-20.983374
3.937500,105.148598,-2.068169,-8.011535,-20.599934,-57.622982,-20.793211
3.943750,106.823753,-2.073973,-12.017964,-20.298464,-57.220592,-20.641760
3.950000,106.781044,-2.078676,-14.785724,-20.078638,-55.171799,-20.542831
3.956250,104.679634,-2.081675,-16.189762,-19.958529,-51.123837,-20.511927
3.962500,100.279343,-2.082985,-16.171425,-19.948084,-44.824341,-20.561232
3.968750,93.454994,-2.082831,-14.728667,-20.044855,-36.136066,-20.699238
3.975000,84.203827,-2.081339,-13.812757,-20.215492,-25.064108,-20.935911
3.981250,72.646553,-2.078559,-9.728894,-20.508549,-11.769789,-21.303867
3.987500,59.018929,-2.074645,-5.390029,-20.909159,2.127430,-21.710838
3.993750,43.659397,-2.069900,-0.121092,-21.373468,17.298271,-22.221159
4.000000,26.994417,-2.064510,5.440200,-21.896942,32.931423,-22.841555
4.006250,9.516376,-2.058458,10.943574,-22.463236,48.160370,-23.602272
4.012500,-8.244036,-2.052260,16.119476,-23.044355,61.938484,-24.364290
4.018750,-25.742807,-2.046728,20.720306,-23.607368,74.899406,-25.100368
4.025000,-42.446274,-2.042122,24.460094,-24.137383,85.116516,-25.846180
4.031250,-57.857319,-2.037972,29.203402,-24.624315,93.511726,-26.605934
4.037500,-71.547035,-2.034382,31.579742,-25.047516,99.198563,-27.326017
4.043750,-83.178230,-2.032104,33.632019,-25.394407,102.464661,-27.976423
4.050000,-92.511787,-2.031162,35.214325,-25.664661,103.706779,-28.540237
4.056250,-99.419983,-2.030621,36.256504,-25.848841,103.449463,-29.007730
4.062500,-103.900368,-2.029846,36.834221,-25.929241,100.494728,-29.346689
4.068750,-106.081039,-2.029879,36.892952,-25.922846,97.244995,-29.542456
4.075000,-106.204300,-2.031819,36.450241,-25.846558,93.755043,-29.602865
4.081250,-104.603745,-2.035033,35.686108,-25.714050,90.252831,-29.532263
4.087500,-101.697105,-2.038116,34.856880,-25.534241,84.899017,-29.332302
4.093750,-97.976227,-2.040586,34.262909,-25.315825,79.420891,-29.008436
4.100000,-93.983337,-2.043280,32.325527,-25.073318,73.675102,-28.581593
4.106250,-88.099648,-2.046832,31.038305,-24.811638,67.561531,-28.090162
4.112500,-82.216721,-2.050945,30.303101,-24.522272,61.162415,-27.493620
4.118750,-76.330681,-2.055357,29.866026,-24.221052,54.648430,-26.826786
4.125000,-70.443390,-2.060407,29.432186,-23.923658,47.758953,-26.130238
4.131250,-64.554970,-2.066065,28.836372,-23.638964,40.640675,-25.434196
4.137500,-58.662086,-2.071829,27.964064,-23.370436,33.493530,-24.761837
4.143750,-52.762676,-2.077284,26.728910,-23.117306,26.529762,-24.130859
4.150000,-46.860397,-2.082784,25.045597,-22.878466,19.940693,-23.554464
4.156250,-40.957756,-2.088693,25.010920,-22.650057,13.900780,-23.033718
4.162500,-35.053600,-2.094948,25.215294,-22.421358,8.556623,-22.576351
4.168750,-29.145937,-2.101361,24.234755,-22.182228,5.610730,-22.193073
4.175000,-23.234026,-2.107872,23.940285,-21.950634,2.509570,-21.877632
4.181250,-17.317972,-2.114332,24.133715,-21.731653,0.962067,-21.624336
4.187500,-11.397100,-2.120454,24.616047,-21.530272,0.850247,-21.373957
4.193750,-5.471482,-2.126201,25.164583,-21.352648,2.201724,-21.232061
4.200000,0.458170,-2.131345,25.547686,-21.206629,3.149643,-21.175291
4.206250,6.391346,-2.135576,25.550238,-21.099352,4.349619,-21.181271
4.212500,12.327240,-2.138687,25.008528,-21.028278,6.827516,-21.206100
4.218750,18.262165,-2.141029,25.982862,-20.982590,8.358485,-21.254900
4.225000,24.193624,-2.143053,25.067417,-20.957846,8.933900,-21.328075
4.231250,30.120842,-2.144952,24.239681,-20.942890,8.411770,-21.411413
4.237500,36.045750,-2.146577,23.292835,-20.937061,6.624584,-21.482443
4.243750,41.968056,-2.147901,21.891243,-20.956881,5.491663,-21.549385
4.250000,47.888943,-2.148859,19.874603,-20.987459,3.390357,-21.612446
4.256250,53.807713,-2.149395,17.099892,-21.011318,0.847670,-21.655146
4.262500,59.721954,-2.150008,13.336315,-21.014030,-1.723779,-21.665958
4.268750,65.628601,-2.151379,8.382856,-20.984926,-3.969889,-21.634518
4.275000,71.528381,-2.153914,2.063196,-20.916876,-5.577833,-21.554058
4.281250,77.427483,-2.157076,-3.619867,-20.797363,-6.278871,-21.412107
4.287500,83.328140,-2.160684,-10.195404,-20.623466,-5.873962,-21.180403
4.293750,89.228355,-2.165430,-17.404091,-20.417849,-4.459838,-20.927872
4.300000,95.127464,-2.171552,-24.875959,-20.182652,-2.311359,-20.657736
4.306250,99.138687,-2.177892,-32.165474,-19.921062,0.762505,-20.367369
4.312500,102.888298,-2.183392,-38.957706,-19.643734,4.554644,-20.066235
4.318750,105.839256,-2.188406,-44.983147,-19.365057,8.799463,-19.767941
4.325000,107.491074,-2.193922,-50.039867,-19.106005,13.191442,-19.490170
4.331250,107.419113,-2.199797,-53.983219,-18.889465,17.418818,-19.247906
4.337500,105.289856,-2.204963,-56.713711,-18.761251,21.210466,-19.044123
4.343750,100.867226,-2.208987,-58.242504,-18.638260,24.342619,-18.822598
4.350000,94.025154,-2.212031,-57.596779,-18.584194,26.362486,-18.703743
4.356250,84.761475,-2.213989,-55.648788,-18.636312,28.910028,-18.670229
4.362500,73.197906,-2.214355,-52.202110,-18.794338,30.754826,-18.732567
4.368750,59.569588,-2.213498,-47.347591,-19.049994,32.256542,-18.916716
4.375000,44.210381,-2.212167,-41.289391,-19.390724,33.670235,-19.165564
4.381250,27.547798,-2.210376,-34.300919,-19.795197,35.026203,-19.457672
4.387500,10.078285,-2.207441,-26.706465,-20.237438,37.140221,-19.800837
4.393750,-7.666793,-2.203608,-18.920094,-20.700603,38.342342,-20.223879
4.400000,-25.148590,-2.200101,-11.395826,-21.171915,40.186497,-20.701914
4.406250,-41.833679,-2.197058,-2.339272,-21.633495,42.257603,-21.208544
4.412500,-57.224358,-2.193604,4.667334,-22.071733,44.259956,-21.725119
4.418750,-70.892616,-2.189909,11.469797,-22.481131,45.978596,-22.237963
4.425000,-82.502892,-2.186857,17.893093,-22.801109,47.324154,-22.700180
4.431250,-91.819740,-2.184868,23.768980,-23.030064,48.315170,-23.082605
4.437500,-98.715088,-2.183320,28.710859,-23.179813,48.713928,-23.381844
4.443750,-103.186836,-2.181928,32.667316,-23.257545,48.518116,-23.591299
4.450000,-105.360588,-2.181617,35.704597,-23.265177,47.855453,-23.703461
4.456250,-105.474579,-2.182837,37.953228,-23.207491,46.895199,-23.716776
4.462500,-103.863113,-2.184845,39.614285,-23.094627,45.819920,-23.637493
4.468750,-100.948891,-2.187156,40.976181,-22.945740,44.850422,-23.487667
4.475000,-97.227776,-2.190275,40.523712,-22.760006,44.281658,-23.253939
4.481250,-93.233376,-2.194231,40.420040,-22.530632,42.840500,-22.921618
4.487500,-87.338905,-2.198222,40.330135,-22.289162,42.061565,-22.537571
4.493750,-81.438889,-2.201931,40.062248,-22.057344,41.642616,-22.131687
4.500000,-75.540024,-2.206500,39.549824,-21.846310,41.367352,-21.725578
4.506250,-69.643944,-2.212677,38.766933,-21.656830,41.027565,-21.334023
4.512500,-63.742634,-2.219274,37.707455,-21.476688,40.407749,-20.966257
4.518750,-57.828377,-2.224819,36.368343,-21.253403,39.261875,-20.632025
4.525000,-51.905388,-2.229391,34.762360,-21.065792,37.275898,-20.366852
4.531250,-45.982952,-2.234216,34.015106,-20.927111,34.003586,-20.159344
4.537500,-40.062683,-2.239627,33.591980,-20.793512,30.800922,-19.987373
4.543750,-34.136688,-2.244797,32.084667,-20.653181,26.172850,-19.861366
4.550000,-28.202173,-2.248939,31.222849,-20.532885,20.441193,-19.758312
4.556250,-22.262098,-2.252178,30.716156,-20.454630,13.997458,-19.734798
4.562500,-16.320667,-2.254895,30.346277,-20.437893,7.576528,-19.810692
4.568750,-10.378054,-2.257062,29.886948,-20.507811,1.143005,-19.983257
4.575000,-4.432997,-2.258440,29.112148,-20.719149,-5.121972,-20.199091
4.581250,1.515655,-2.258605,27.828459,-21.000711,-10.908219,-20.468487
4.587500,7.464653,-2.257496,24.789093,-21.364843,-15.707736,-20.804798
4.593750,13.412079,-2.255511,22.848648,-21.833797,-19.336325,-21.200764
4.600000,19.355463,-2.252682,20.138750,-22.410572,-21.745255,-21.636322
4.606250,25.294786,-2.248891,16.542713,-23.166519,-23.074909,-22.122101
4.612500,31.229774,-2.244143,12.960582,-23.956753,-23.603081,-22.649525
4.618750,37.154945,-2.239388,8.777772,-24.820877,-23.395449,-23.195835
4.625000,43.067856,-2.235461,4.324725,-25.739820,-22.736519,-23.745779
4.631250,48.974564,-2.231710,-0.111626,-26.679708,-21.944548,-24.285990
4.637500,54.880032,-2.227128,-4.267427,-27.597530,-21.383869,-24.800074
4.643750,60.780876,-2.222213,-7.895391,-28.439972,-21.418667,-25.252625
4.650000,66.668190,-2.218538,-12.687238,-29.146221,-22.401445,-25.596155
4.656250,72.541351,-2.216908,-14.777150,-29.686964,-24.710339,-25.836733
4.662500,78.408676,-2.216874,-16.208849,-30.053484,-26.916708,-25.997530
4.668750,84.275017,-2.218086,-16.851542,-30.215183,-30.402386,-26.051344
4.675000,90.141228,-2.220785,-16.725548,-30.158718,-34.928253,-25.990038
4.681250,94.113503,-2.224810,-15.960887,-29.886503,-40.286327,-25.814104
4.687500,97.817108,-2.229566,-14.756870,-29.421337,-46.254292,-25.534550
4.693750,100.718674,-2.235333,-13.358373,-28.800920,-52.565479,-25.163212
4.700000,102.322357,-2.243062,-12.056606,-28.054138,-58.875576,-24.702215
4.706250,102.204033,-2.252525,-11.338546,-27.184780,-64.815231,-24.143717
4.712500,100.034027,-2.261974,-11.452720,-26.234974,-69.950226,-23.539976
4.718750,95.578934,-2.270175,-12.740842,-25.280039,-75.685570,-22.947853
