Anritsu VNA Frequency[GHz],S21[deg],S21[dB],S11[deg],S11[dB],S22[deg],S22[dB]
1338059913.52,2012_05_26_20:18:33,+56.114,+134.91,+113.63,+135.16,+140.67,+142.82,+138.21,+139.91,135.227615,-7.188
3.006250,41.920139,-2.316714,66.680733,-27.188431,-79.725304,-28.091255
3.012500,41.920139,-2.316714,66.680733,-27.188431,-79.725304,-28.091255
3.018750,41.920139,-2.316714,66.680733,-27.188431,-79.725304,-28.091255
3.025000,41.920139,-2.316714,66.680733,-27.188431,-79.725304,-28.091255
3.031250,41.920139,-2.316714,66.680733,-27.188431,-79.725304,-28.091255
3.037500,41.920139,-2.316714,66.680733,-27.188431,-79.725304,-28.091255
3.043750,41.920139,-2.316714,66.680733,-27.188431,-79.725304,-28.091255
3.050000,41.920139,-2.316714,66.680733,-27.188431,-79.725304,-28.091255
3.056250,41.920139,-2.316714,66.680733,-27.188431,-79.725304,-28.091255
3.062500,41.920139,-2.316714,66.680733,-27.188431,-79.725304,-28.091255
3.068750,41.920139,-2.316714,66.680733,-27.188431,-79.725304,-28.091255
3.075000,41.920139,-2.316714,66.680733,-27.188431,-79.725304,-28.091255
3.081250,41.920139,-2.316714,66.680733,-27.188431,-79.725304,-28.091255
3.087500,41.920139,-2.316714,66.680733,-27.188431,-79.725304,-28.091255
3.093750,41.920139,-2.318930,66.680733,-26.995539,-79.725304,-27.891275
3.100000,47.845539,-2.321505,63.197613,-26.831358,-79.904877,-27.682791
3.106250,53.770569,-2.324219,58.834312,-26.723022,-79.227058,-27.467033
3.112500,59.696236,-2.326975,52.191978,-26.685987,-77.420273,-27.227537
3.118750,65.621780,-2.329863,45.408768,-26.722631,-74.267990,-26.921917
3.125000,71.546303,-2.332909,39.069695,-26.739941,-69.786926,-26.608793
3.131250,77.470314,-2.336069,32.923763,-26.781197,-64.049423,-26.269676
3.137500,83.393089,-2.339485,27.109198,-26.853437,-56.696873,-25.892252
3.143750,89.314224,-2.343496,21.906811,-26.952923,-47.808601,-25.484631
3.150000,95.235985,-2.347811,17.590733,-27.067390,-39.403103,-25.061178
3.156250,99.265839,-2.351948,14.395194,-27.182917,-30.009039,-24.641684
3.162500,103.024635,-2.355806,12.500804,-27.284788,-20.340174,-24.250395
3.168750,105.978348,-2.359710,12.038692,-27.360155,-11.081374,-23.920921
3.175000,107.633072,-2.363872,13.133368,-27.390081,-2.831985,-23.660995
3.181250,107.563255,-2.368095,14.089225,-27.358253,4.342967,-23.415424
3.187500,105.430397,-2.372204,16.583267,-27.277224,9.668289,-23.222042
3.193750,100.996605,-2.376123,19.932123,-27.154282,12.897440,-23.101086
3.200000,94.140327,-2.379769,23.554356,-26.994783,14.047602,-23.060299
3.206250,84.861206,-2.383075,26.967279,-26.806744,13.181807,-23.097481
3.212500,73.279610,-2.386169,29.733719,-26.602196,10.450725,-23.217112
3.218750,59.631500,-2.389430,31.488392,-26.393538,6.131628,-23.434912
3.225000,44.257652,-2.392661,34.140659,-26.182102,0.320563,-23.656588
3.231250,27.587803,-2.395439,36.158520,-25.967039,-6.693929,-23.898268
3.237500,10.113436,-2.397857,35.978432,-25.751909,-14.297948,-24.160082
3.243750,-7.636895,-2.400440,35.581703,-25.527719,-20.362543,-24.424213
3.250000,-25.117500,-2.403578,34.779484,-25.299213,-26.341740,-24.669252
3.256250,-41.792690,-2.406919,33.132431,-25.108776,-31.622009,-24.884676
3.262500,-57.167156,-2.409984,30.611635,-24.943136,-35.656673,-25.060648
3.268750,-70.814713,-2.412639,27.155943,-24.796610,-37.922447,-25.186455
3.275000,-82.397842,-2.415276,22.584850,-24.668911,-38.036972,-25.256893
3.281250,-91.681183,-2.418270,16.733540,-24.552977,-35.762779,-25.272722
3.287500,-98.541389,-2.421664,9.469779,-24.438318,-31.039080,-25.241337
3.293750,-102.976166,-2.425176,2.893633,-24.302206,-23.979332,-25.164433
3.300000,-105.106102,-2.428588,-4.390162,-24.122515,-14.818007,-25.041395
3.306250,-105.168236,-2.431714,-12.498481,-23.991787,-3.922438,-24.890858
3.312500,-103.503914,-2.434599,-20.690813,-23.875910,8.193066,-24.739172
3.318750,-100.541016,-2.437429,-28.525837,-23.774710,20.925381,-24.609406
3.325000,-96.771759,-2.440069,-35.737095,-23.700014,33.657803,-24.516348
3.331250,-92.728439,-2.442418,-42.081890,-23.668751,47.932270,-24.467583
3.337500,-86.789299,-2.444331,-47.389484,-23.714537,61.765499,-24.466431
3.343750,-80.849724,-2.445886,-51.530006,-23.880070,75.079247,-24.507692
3.350000,-74.910873,-2.447044,-55.261410,-24.043970,85.946602,-24.563110
3.356250,-68.972382,-2.447856,-57.995041,-24.290415,95.937347,-24.625654
3.362500,-63.035519,-2.448517,-57.982586,-24.654106,103.944832,-24.757841
3.368750,-57.100842,-2.448864,-56.979805,-25.129475,109.768791,-24.939510
3.375000,-51.166607,-2.448716,-54.883614,-25.696978,113.034393,-25.183722
3.381250,-45.234192,-2.448101,-51.721222,-26.327265,113.464172,-25.472988
3.387500,-39.306973,-2.447646,-47.603962,-26.985929,111.368126,-25.751635
3.393750,-33.385941,-2.447840,-42.708847,-27.633144,106.441544,-26.030020
3.400000,-27.468100,-2.448463,-37.255737,-28.226257,98.971207,-26.268787
3.406250,-21.549770,-2.448940,-31.545448,-28.737385,89.808556,-26.538488
3.412500,-15.631696,-2.449474,-25.909628,-29.143858,79.836166,-26.801622
3.418750,-9.717623,-2.450727,-20.320135,-29.421354,69.664772,-27.030266
3.425000,-3.807057,-2.452931,-14.763605,-29.558931,58.071110,-27.213715
3.431250,2.105169,-2.455368,-9.509792,-29.558699,47.388527,-27.350822
3.437500,8.021646,-2.457693,-4.771015,-29.421394,38.072556,-27.447813
3.443750,13.938411,-2.460477,-0.573535,-29.127670,30.679127,-27.461426
3.450000,19.853321,-2.464203,2.872295,-28.710701,23.692654,-27.400700
3.456250,25.770748,-2.468318,5.436979,-28.205208,18.822294,-27.278904
3.462500,31.696138,-2.471948,7.217182,-27.650198,15.736035,-27.099957
3.468750,37.627022,-2.474912,8.428104,-27.086603,14.104622,-26.861303
3.475000,43.558678,-2.477626,9.320919,-26.561293,13.582336,-26.572525
3.481250,49.489117,-2.480322,10.220081,-26.094090,13.780560,-26.248812
3.487500,55.418880,-2.483143,9.901819,-25.660902,14.305810,-25.887798
3.493750,61.347431,-2.486314,10.085701,-25.308142,14.751574,-25.492802
3.500000,67.275490,-2.489856,10.537974,-25.053240,14.692633,-25.074816
3.506250,73.205444,-2.493358,11.180823,-24.892494,13.784204,-24.644884
3.512500,79.139236,-2.496130,11.936853,-24.807386,11.757133,-24.212921
3.518750,85.073860,-2.498641,12.752714,-24.750496,8.414088,-23.785664
3.525000,91.003380,-2.501796,13.560432,-24.650738,3.617106,-23.369629
3.531250,95.033470,-2.506059,15.223698,-24.613550,-0.580824,-22.977303
3.537500,98.791466,-2.510744,17.145515,-24.560574,-5.613828,-22.625360
3.543750,101.749374,-2.515147,19.460899,-24.472912,-11.016642,-22.330652
3.550000,103.413315,-2.519573,22.341990,-24.338270,-16.476938,-22.055063
3.556250,103.351524,-2.524498,24.135395,-24.140413,-21.695221,-21.778250
3.562500,101.226143,-2.529842,26.527267,-23.900229,-26.237247,-21.527121
3.568750,96.805801,-2.534588,28.997284,-23.644533,-30.500183,-21.368126
3.575000,89.970825,-2.538142,31.141409,-23.399054,-34.207821,-21.291983
3.581250,80.716118,-2.540528,32.579483,-23.196222,-37.494835,-21.323816
3.587500,69.158737,-2.542391,32.974823,-23.070772,-38.888336,-21.416185
3.593750,55.534481,-2.543836,32.109703,-23.032982,-40.655273,-21.572620
3.600000,40.187294,-2.544440,32.108589,-23.077454,-42.269230,-21.815771
3.606250,23.545662,-2.543707,31.365639,-23.222712,-43.675510,-22.142204
3.612500,6.097421,-2.542050,30.256420,-23.467268,-44.910583,-22.529503
3.618750,-11.628748,-2.539934,29.210386,-23.808691,-46.083946,-22.944386
3.625000,-29.085964,-2.537251,28.456789,-24.268852,-47.528584,-23.412092
3.631250,-45.739716,-2.533813,28.411068,-24.818155,-47.338764,-23.908648
3.637500,-61.100090,-2.529947,29.453819,-25.420887,-46.895767,-24.402401
3.643750,-74.744545,-2.526311,31.755156,-26.039585,-45.915466,-24.869762
3.650000,-86.332123,-2.523364,33.466434,-26.632092,-44.231987,-25.290972
3.656250,-95.623062,-2.521039,36.153385,-27.142767,-41.748833,-25.647942
3.662500,-102.494202,-2.519378,39.073563,-27.543112,-38.431110,-25.930346
3.668750,-106.945274,-2.518589,43.248386,-27.857363,-34.345257,-26.140471
3.675000,-109.095978,-2.518583,46.762787,-28.047609,-29.620186,-26.281490
3.681250,-109.181290,-2.518951,49.451969,-28.100868,-24.404474,-26.353004
3.687500,-107.542145,-2.519711,51.073784,-28.022020,-18.917191,-26.358177
3.693750,-104.608391,-2.521649,51.443958,-27.833172,-13.424386,-26.306055
3.700000,-100.871689,-2.524745,50.479210,-27.564293,-8.198368,-26.210798
3.706250,-96.858727,-2.528291,48.324299,-27.208134,-3.453076,-26.078999
3.712500,-90.944618,-2.531638,45.083519,-26.803852,0.696574,-25.904766
3.718750,-85.028427,-2.535111,38.894833,-26.392004,4.116997,-25.692562
3.725000,-79.113068,-2.539190,31.646250,-25.998037,6.735704,-25.443703
3.731250,-73.196175,-2.543460,23.124851,-25.651146,8.795503,-25.206989
3.737500,-67.273972,-2.547307,15.265818,-25.390888,10.638437,-25.003054
3.743750,-61.347771,-2.550712,6.696835,-25.221069,12.385739,-24.845669
3.750000,-55.421204,-2.554023,-1.963341,-25.130255,14.481278,-24.709066
3.756250,-49.495697,-2.557162,-10.235279,-25.112133,15.748832,-24.560890
3.762500,-43.568916,-2.560037,-17.691666,-25.150854,18.012568,-24.393209
3.768750,-37.641842,-2.562736,-23.887543,-25.215015,19.183035,-24.261417
3.775000,-31.715946,-2.565631,-28.492632,-25.293900,21.029398,-24.173990
3.781250,-25.790764,-2.568535,-31.403324,-25.391258,22.778671,-24.109192
3.787500,-19.864922,-2.571153,-32.309254,-25.482176,24.085833,-24.056955
3.793750,-13.938519,-2.573669,-31.037464,-25.561939,24.682081,-24.016905
3.800000,-8.014280,-2.576457,-29.455837,-25.631100,24.383884,-23.987835
3.806250,-2.091779,-2.579602,-25.564690,-25.599857,23.182549,-23.938145
3.812500,3.830983,-2.582907,-20.338417,-25.515457,21.081436,-23.861330
3.818750,9.753787,-2.586503,-14.554716,-25.396694,17.974703,-23.765442
3.825000,15.675952,-2.590526,-8.791204,-25.256296,13.972829,-23.654640
3.831250,21.600576,-2.594506,-1.424806,-25.106922,9.332135,-23.536034
3.837500,27.528181,-2.598047,5.697153,-24.961473,4.388321,-23.425957
3.843750,33.456364,-2.601612,12.678598,-24.824139,-0.483977,-23.347267
3.850000,39.382061,-2.605610,17.807129,-24.686277,-4.557178,-23.219515
3.856250,45.307571,-2.609651,22.808699,-24.553236,-9.467307,-23.086756
3.862500,51.236221,-2.613130,27.217588,-24.428759,-13.387926,-22.965637
3.868750,57.165012,-2.616453,30.682474,-24.306044,-16.399998,-22.858076
3.875000,63.088509,-2.620609,32.902714,-24.166494,-18.621519,-22.758112
3.881250,69.007812,-2.626035,33.609676,-23.987263,-20.218517,-22.652143
3.887500,74.929649,-2.631771,32.420998,-23.793339,-21.442749,-22.534298
3.893750,80.857880,-2.637054,29.116983,-23.571470,-22.661499,-22.412577
3.900000,86.789261,-2.642342,25.899542,-23.305826,-24.190123,-22.283371
3.906250,92.718040,-2.648562,21.359812,-22.993433,-26.318363,-22.143641
3.912500,96.751022,-2.655822,15.983001,-22.635427,-29.380865,-21.989887
3.918750,100.516098,-2.663658,10.257795,-22.237595,-31.813803,-21.814701
3.925000,103.483330,-2.671378,4.602963,-21.817919,-35.552944,-21.601362
3.931250,105.160835,-2.678728,-0.638750,-21.402477,-40.404404,-21.375399
3.937500,105.120209,-2.685671,-5.105110,-21.013664,-44.263390,-21.180029
3.943750,103.019600,-2.692147,-8.473999,-20.673672,-48.035351,-21.016916
3.950000,98.622726,-2.697710,-10.525387,-20.403994,-50.948658,-20.895765
3.956250,91.808601,-2.701834,-11.157246,-20.223417,-52.369495,-20.829742
3.962500,82.575409,-2.704228,-10.351668,-20.144136,-51.760483,-20.831240
3.968750,71.041481,-2.705180,-8.154337,-20.168108,-48.690208,-20.909819
3.975000,57.439693,-2.704810,-6.569156,-20.279882,-42.869991,-21.074114
3.981250,42.110226,-2.703266,-1.987885,-20.458456,-36.061150,-21.360313
3.987500,25.479227,-2.700550,2.989928,-20.775719,-26.581343,-21.691372
3.993750,8.036875,-2.696910,8.459638,-21.163433,-14.923603,-22.110678
4.000000,-9.685012,-2.692574,14.117187,-21.611401,-2.192840,-22.631115
4.006250,-27.140215,-2.687528,19.534056,-22.109364,10.888460,-23.262943
4.012500,-43.797695,-2.682016,24.415649,-22.635780,23.536139,-23.998163
4.018750,-59.167130,-2.676854,28.523264,-23.163298,34.313805,-24.706284
4.025000,-72.822021,-2.672404,31.622398,-23.670347,44.829845,-25.388208
4.031250,-84.418236,-2.668557,33.727135,-24.149719,52.278790,-26.113121
4.037500,-93.716217,-2.665193,34.960762,-24.585545,58.599762,-26.827951
4.043750,-100.596329,-2.662835,35.268536,-24.962503,62.429375,-27.498566
4.050000,-105.057396,-2.661712,34.600258,-25.275503,64.170647,-28.102388
4.056250,-107.216560,-2.661166,32.970654,-25.521490,64.331711,-28.624197
4.062500,-107.307823,-2.660460,30.551901,-25.678041,61.645313,-29.043270
4.068750,-105.676170,-2.660338,27.523098,-25.749311,58.487080,-29.333044
4.075000,-102.754379,-2.661961,24.004387,-25.750679,54.989311,-29.490889
4.081250,-99.030327,-2.665122,20.292442,-25.693783,51.323318,-29.517946
4.087500,-95.027328,-2.668468,16.771534,-25.585720,47.783669,-29.413509
4.093750,-89.120682,-2.671217,11.972017,-25.432270,44.719402,-29.179028
4.100000,-83.213287,-2.673974,7.933244,-25.242733,40.318275,-28.827057
4.106250,-77.310127,-2.677583,4.548064,-25.024063,36.282955,-28.384752
4.112500,-71.409012,-2.681959,1.761801,-24.774672,32.466881,-27.860086
4.118750,-65.505234,-2.686741,-0.507442,-24.498043,28.996174,-27.236153
4.125000,-59.599087,-2.691960,-2.448306,-24.207380,25.517191,-26.559605
4.131250,-53.691162,-2.697763,-4.204383,-23.914074,21.880304,-25.865351
4.137500,-47.779522,-2.703736,-5.860582,-23.624792,18.080656,-25.180843
4.143750,-41.862122,-2.709561,-7.472854,-23.341820,14.151878,-24.527161
4.150000,-35.941059,-2.715298,-9.105478,-23.066755,10.131328,-23.920111
4.156250,-30.018433,-2.721375,-8.668929,-22.799109,6.060827,-23.366846
4.162500,-24.094742,-2.727743,-7.600885,-22.536716,4.145904,-22.845181
4.168750,-18.167814,-2.734291,-7.381037,-22.271605,2.893471,-22.434414
4.175000,-12.237084,-2.740982,-6.064782,-22.008631,0.934208,-22.083761
4.181250,-6.302748,-2.747637,-3.997657,-21.759413,0.313727,-21.800524
4.187500,-0.363732,-2.754036,-1.484587,-21.531075,0.797612,-21.563658
4.193750,5.579786,-2.760103,1.160105,-21.330866,2.190043,-21.349136
4.200000,11.527101,-2.765670,3.608594,-21.165958,5.010567,-21.253681
4.206250,17.477568,-2.770488,5.545635,-21.043636,6.434238,-21.247572
4.212500,23.430428,-2.774244,8.863264,-20.966743,7.497075,-21.279018
4.218750,29.383226,-2.777198,11.998309,-20.926414,9.156025,-21.329561
4.225000,35.333168,-2.779783,15.264878,-20.914877,9.453309,-21.412554
4.231250,41.278793,-2.782275,17.014627,-20.922415,8.298359,-21.522917
4.237500,47.221809,-2.784493,19.094164,-20.938887,5.562776,-21.643745
4.243750,53.162861,-2.786416,21.057188,-20.979845,3.276588,-21.766798
4.250000,59.102673,-2.787941,22.486177,-21.039429,-0.092355,-21.896023
4.256250,65.040756,-2.788982,23.103411,-21.098902,-4.034538,-22.017841
4.262500,70.975006,-2.789943,22.534962,-21.143213,-8.025057,-22.118456
4.268750,76.902847,-2.791394,20.426359,-21.160244,-11.612304,-22.183781
4.275000,82.823624,-2.793853,18.637539,-21.143177,-14.402856,-22.203470
4.281250,88.742210,-2.797001,15.536567,-21.083033,-16.059284,-22.165987
4.287500,94.662262,-2.800529,11.395955,-20.971510,-16.316635,-22.049633
4.293750,98.687378,-2.804960,6.436751,-20.817442,-15.082498,-21.863102
4.300000,102.437622,-2.810712,0.870062,-20.630537,-12.698179,-21.651949
4.306250,105.386223,-2.817072,-4.971279,-20.413204,-9.074519,-21.404999
4.312500,107.046738,-2.822906,-10.802534,-20.172310,-4.342029,-21.126026
4.318750,106.990257,-2.828158,-16.380882,-19.918205,1.198398,-20.824867
4.325000,104.868362,-2.833789,-21.509455,-19.667547,7.182949,-20.517214
4.331250,100.443665,-2.840055,-26.034645,-19.439089,13.213617,-20.219337
4.337500,93.600563,-2.846040,-29.822620,-19.256363,18.909605,-19.941860
4.343750,84.342857,-2.851096,-32.796284,-19.182407,23.912615,-19.674673
4.350000,72.788673,-2.855209,-34.173161,-19.081066,27.876659,-19.443363
4.356250,59.171886,-2.858448,-34.166317,-19.074472,32.216255,-19.296280
4.362500,43.833282,-2.860352,-32.899181,-19.175863,35.575272,-19.238667
4.368750,27.199434,-2.860949,-30.298117,-19.382298,38.276730,-19.292593
4.375000,9.756897,-2.860844,-26.443855,-19.684904,40.630096,-19.487743
4.381250,-7.963468,-2.860274,-21.495667,-20.067116,42.437267,-19.710262
4.387500,-25.412283,-2.858625,-15.666875,-20.504856,44.403713,-19.984432
4.393750,-42.055878,-2.855870,-9.255828,-20.976141,47.049210,-20.347736
4.400000,-57.408955,-2.852993,-2.631388,-21.465834,48.742134,-20.802641
4.406250,-71.045815,-2.850449,1.958674,-21.956602,50.781387,-21.313314
4.412500,-82.621597,-2.847556,7.996035,-22.430468,52.839394,-21.854321
4.418750,-91.896690,-2.844217,13.319316,-22.873474,54.687271,-22.405001
4.425000,-98.754074,-2.841101,17.743877,-23.251579,56.176281,-22.935026
4.431250,-103.196587,-2.838823,21.258211,-23.531862,57.292805,-23.398365
4.437500,-105.341476,-2.837091,23.649017,-23.720211,57.909012,-23.780827
4.443750,-105.422783,-2.835498,24.914242,-23.822666,57.935463,-24.072018
4.450000,-103.783569,-2.834790,25.227949,-23.841009,57.452026,-24.260672
4.456250,-100.853661,-2.835719,24.842093,-23.777567,56.613770,-24.340004
4.462500,-97.120056,-2.837776,24.076269,-23.639618,55.591312,-24.309515
4.468750,-93.109169,-2.840233,23.323828,-23.440544,54.591541,-24.178059
4.475000,-87.200546,-2.843273,21.125446,-23.200098,53.862408,-23.967522
4.481250,-81.292191,-2.847215,19.617285,-22.913139,51.921608,-23.643833
4.487500,-75.381165,-2.851654,18.737972,-22.596804,50.745853,-23.236843
4.493750,-69.465057,-2.856005,18.243137,-22.280523,49.821281,-22.785275
4.500000,-63.547604,-2.861034,18.011694,-21.984797,48.904636,-22.318409
4.506250,-57.632027,-2.867551,17.977669,-21.720566,47.806408,-21.858812
4.512500,-51.712307,-2.874732,18.082607,-21.487450,46.350475,-21.423119
4.518750,-45.780659,-2.881166,18.258242,-21.268101,44.356316,-21.025507
4.525000,-39.838417,-2.886443,18.418913,-20.988285,41.618328,-20.688261
4.531250,-33.893955,-2.891525,20.016848,-20.814306,37.850349,-20.457098
4.537500,-27.951641,-2.897088,21.747379,-20.680864,32.507507,-20.264465
4.543750,-22.005812,-2.902585,22.333591,-20.553436,27.386961,-20.138918
4.550000,-16.052731,-2.907214,23.602661,-20.442801,20.922747,-20.074846
4.556250,-10.093379,-2.910847,25.060394,-20.371883,13.440601,-20.040533
4.562500,-4.132084,-2.913756,26.349112,-20.359932,5.892676,-20.147346
4.568750,1.830071,-2.916167,27.154276,-20.429451,-1.591380,-20.371424
4.575000,7.793770,-2.917840,27.182640,-20.615253,-8.738109,-20.677156
4.581250,13.760592,-2.918385,26.189983,-20.934347,-15.621958,-21.017754
4.587500,19.728384,-2.917673,25.103588,-21.305960,-21.352058,-21.425053
4.593750,25.694935,-2.915926,23.296030,-21.781576,-25.681374,-21.898153
4.600000,31.657335,-2.913346,20.796017,-22.366755,-28.529308,-22.421396
4.606250,37.615135,-2.909981,17.631933,-23.087025,-29.966063,-22.984299
4.612500,43.568264,-2.905779,13.861670,-23.898066,-30.233913,-23.587040
4.618750,49.513073,-2.901392,9.919869,-24.770695,-29.503876,-24.205429
4.625000,55.446991,-2.897673,5.705304,-25.691429,-28.023426,-24.821898
4.631250,61.373993,-2.894226,1.400422,-26.630436,-26.142967,-25.422325
4.637500,67.299179,-2.890094,-2.767684,-27.549799,-24.257790,-25.994640
4.643750,73.221207,-2.885430,-8.461587,-28.402599,-22.790379,-26.511147
4.650000,79.131660,-2.881605,-13.851629,-29.137064,-22.181425,-26.930265
4.656250,85.027199,-2.879772,-17.158115,-29.704353,-22.819796,-27.218493
4.662500,90.914612,-2.879740,-20.232378,-30.091774,-23.063679,-27.413488
4.668750,96.800667,-2.880890,-23.057209,-30.282145,-24.788937,-27.504236
4.675000,100.792229,-2.883364,-25.476465,-30.258949,-27.648775,-27.476341
4.681250,104.510696,-2.887253,-27.442429,-30.019705,-31.479359,-27.326012
4.687500,107.426331,-2.892028,-28.987854,-29.581291,-36.124016,-27.060240
4.693750,109.047241,-2.897789,-30.197378,-28.978233,-41.394058,-26.691429
4.700000,108.944344,-2.905173,-31.179918,-28.258457,-47.028927,-26.227516
4.706250,106.777550,-2.914423,-32.209743,-27.423597,-52.718872,-25.668253
4.712500,102.318497,-2.924211,-33.668388,-26.505121,-58.123444,-25.005077
4.718750,95.451828,-2.933062,-35.577045,-25.558702,-62.552608,-24.346493
