Anritsu VNA Frequency[GHz],S21[deg],S21[dB],S11[deg],S11[dB],S22[deg],S22[dB]
1338071699.72,2012_05_26_23:34:59,+41.966,+10.625,+58.321,+10.663,+14.522,+14.329,+14.604,+14.397,10.990754,-17.941
3.006250,35.010071,-1.809839,60.300518,-26.708883,-78.971855,-27.571163
3.012500,35.010071,-1.809839,60.300518,-26.708883,-78.971855,-27.571163
3.018750,35.010071,-1.809839,60.300518,-26.708883,-78.971855,-27.571163
3.025000,35.010071,-1.809839,60.300518,-26.708883,-78.971855,-27.571163
3.031250,35.010071,-1.809839,60.300518,-26.708883,-78.971855,-27.571163
3.037500,35.010071,-1.809839,60.300518,-26.708883,-78.971855,-27.571163
3.043750,35.010071,-1.809839,60.300518,-26.708883,-78.971855,-27.571163
3.050000,35.010071,-1.809839,60.300518,-26.708883,-78.971855,-27.571163
3.056250,35.010071,-1.809839,60.300518,-26.708883,-78.971855,-27.571163
3.062500,35.010071,-1.809839,60.300518,-26.708883,-78.971855,-27.571163
3.068750,35.010071,-1.809839,60.300518,-26.708883,-78.971855,-27.571163
3.075000,35.010071,-1.809839,60.300518,-26.708883,-78.971855,-27.571163
3.081250,35.010071,-1.809839,60.300518,-26.708883,-78.971855,-27.571163
3.087500,35.010071,-1.809839,60.300518,-26.708883,-78.971855,-27.571163
3.093750,35.010071,-1.811784,60.300518,-26.509190,-78.971855,-27.309908
3.100000,40.919598,-1.814081,57.545586,-26.356659,-81.100586,-27.068195
3.106250,46.829380,-1.816387,53.919155,-26.275410,-81.593140,-26.847809
3.112500,52.739590,-1.818804,49.792847,-26.283577,-80.096672,-26.624249
3.118750,58.648994,-1.821386,43.771980,-26.329620,-78.460541,-26.308109
3.125000,64.557556,-1.824119,38.923679,-26.372169,-74.556076,-26.041952
3.131250,70.465729,-1.826941,34.514297,-26.440632,-68.440781,-25.749590
3.137500,76.372734,-1.830095,30.786854,-26.536901,-60.617271,-25.420856
3.143750,82.277992,-1.833789,27.950125,-26.652584,-51.252689,-25.063393
3.150000,88.183670,-1.837770,26.181072,-26.773527,-40.505154,-24.689783
3.156250,94.092651,-1.841517,25.596760,-26.885590,-28.543875,-24.318184
3.162500,98.108864,-1.844951,26.261074,-26.976614,-15.568974,-23.972961
3.168750,101.851654,-1.848459,28.186893,-27.035208,-3.684009,-23.700260
3.175000,104.787788,-1.852202,31.417982,-27.042221,8.567662,-23.452438
3.181250,106.426842,-1.856008,34.184082,-26.984148,21.064240,-23.226334
3.187500,106.343384,-1.859635,37.970413,-26.878412,32.539757,-23.053514
3.193750,104.196281,-1.863007,42.066776,-26.736565,42.550892,-22.950941
3.200000,99.748108,-1.866034,45.895092,-26.566523,50.775288,-22.921940
3.206250,92.877274,-1.868681,48.968395,-26.378756,56.925629,-22.966969
3.212500,83.581978,-1.871123,50.869648,-26.187122,60.810589,-23.093122
3.218750,71.982529,-1.873784,51.286755,-26.002701,62.328827,-23.287350
3.225000,58.317410,-1.876310,52.217365,-25.820324,61.226803,-23.489925
3.231250,42.929462,-1.878304,52.206871,-25.639971,57.775761,-23.710777
3.237500,26.244276,-1.880005,49.768627,-25.461845,54.097229,-23.941961
3.243750,8.749559,-1.881972,47.012489,-25.265175,48.697834,-24.162006
3.250000,-9.021803,-1.884524,43.808834,-25.086721,42.239273,-24.351192
3.256250,-26.519592,-1.887237,39.814835,-24.942438,35.323883,-24.507572
3.262500,-43.208900,-1.889602,35.257065,-24.814968,28.587156,-24.620243
3.268750,-58.598812,-1.891612,30.087170,-24.700548,22.705818,-24.680384
3.275000,-72.265739,-1.893753,24.186203,-24.598042,18.221519,-24.687363
3.281250,-83.869995,-1.896267,17.449408,-24.498369,15.574324,-24.648062
3.287500,-93.172493,-1.899163,9.786294,-24.388752,15.057662,-24.575134
3.293750,-100.049301,-1.902137,1.160970,-24.233143,16.820332,-24.469662
3.300000,-104.499855,-1.905046,-6.264602,-24.067833,20.898479,-24.332935
3.306250,-106.645523,-1.907721,-14.864033,-23.937162,27.154678,-24.190077
3.312500,-106.724037,-1.910126,-23.458099,-23.819958,35.287193,-24.072145
3.318750,-105.076920,-1.912434,-31.747129,-23.722740,44.913940,-24.000124
3.325000,-102.131462,-1.914535,-39.470367,-23.662642,55.582966,-23.985764
3.331250,-98.378975,-1.916290,-46.369949,-23.664677,66.776581,-24.032227
3.337500,-94.352760,-1.917670,-52.260815,-23.797461,77.918877,-24.139004
3.343750,-88.431458,-1.918711,-57.093861,-23.955845,88.434975,-24.292017
3.350000,-82.510643,-1.919372,-61.418617,-24.175436,98.083305,-24.438887
3.356250,-76.590317,-1.919691,-64.708145,-24.496758,106.586021,-24.626076
3.362500,-70.671898,-1.919868,-65.267975,-24.942938,112.752853,-24.867296
3.368750,-64.755440,-1.919778,-64.760765,-25.496706,116.702217,-25.149990
3.375000,-58.839458,-1.919105,-63.073162,-26.131701,118.050514,-25.510685
3.381250,-52.925255,-1.918056,-60.223053,-26.813671,116.622536,-25.846180
3.387500,-47.017578,-1.917309,-56.310898,-27.504416,113.045692,-26.166950
3.393750,-41.116096,-1.917370,-51.501534,-28.159725,106.778732,-26.468670
3.400000,-35.216835,-1.917820,-46.016430,-28.736485,98.372902,-26.739681
3.406250,-29.316854,-1.918089,-40.188179,-29.212830,88.828232,-27.015888
3.412500,-23.417154,-1.918477,-34.349586,-29.563913,78.822311,-27.262562
3.418750,-17.522427,-1.919720,-26.564724,-29.767973,66.982773,-27.458452
3.425000,-11.630766,-1.921922,-20.368570,-29.819321,55.592400,-27.597174
3.431250,-5.736431,-1.924303,-13.905331,-29.730663,45.081894,-27.684368
3.437500,0.162061,-1.926531,-7.426728,-29.491320,35.900475,-27.726448
3.443750,6.060297,-1.929378,-0.971973,-29.095644,28.715176,-27.669390
3.450000,11.956610,-1.933167,4.982414,-28.588049,21.834414,-27.542330
3.456250,17.856945,-1.937151,10.265395,-28.007467,17.018137,-27.359131
3.462500,23.765678,-1.940522,14.871923,-27.397131,13.968926,-27.122349
3.468750,29.679596,-1.943226,18.887421,-26.802742,12.372109,-26.829514
3.475000,35.594070,-1.945694,22.425699,-26.286688,11.878624,-26.495232
3.481250,41.507839,-1.948026,25.729078,-25.813694,12.098441,-26.134642
3.487500,47.420906,-1.950364,27.563688,-25.404488,12.664136,-25.742119
3.493750,53.332584,-1.953133,29.318686,-25.096954,13.146778,-25.324299
3.500000,59.243488,-1.956258,30.811035,-24.898312,13.112274,-24.892546
3.506250,65.157394,-1.959184,31.939743,-24.795374,12.230253,-24.456648
3.512500,71.075302,-1.961332,32.610638,-24.755148,10.233976,-24.025494
3.518750,76.993576,-1.963235,32.787689,-24.683664,6.922227,-23.603451
3.525000,82.905952,-1.965960,32.562775,-24.664368,2.145146,-23.196743
3.531250,88.813995,-1.969794,32.675930,-24.650785,-2.069444,-22.819849
3.537500,94.724182,-1.973930,32.655495,-24.607412,-7.172751,-22.488104
3.543750,98.745544,-1.977733,32.770042,-24.523607,-12.733768,-22.200512
3.550000,102.496811,-1.981711,33.345886,-24.374105,-18.480528,-21.919558
3.556250,105.441177,-1.986355,32.844452,-24.157372,-23.942719,-21.602341
3.562500,107.090347,-1.991361,32.972290,-23.902548,-28.813272,-21.357096
3.568750,107.023560,-1.995593,33.383083,-23.636194,-33.761780,-21.185963
3.575000,104.900772,-1.998456,33.799519,-23.384369,-36.294209,-21.087303
3.581250,100.478676,-2.000301,33.931389,-23.181225,-38.290058,-21.077648
3.587500,93.631378,-2.001702,33.521347,-23.063324,-39.722240,-21.114408
3.593750,84.358116,-2.002717,32.454296,-23.021688,-40.435741,-21.219463
3.600000,72.785332,-2.002756,30.677732,-23.064745,-40.171356,-21.407953
3.606250,59.149879,-2.001454,30.037327,-23.209103,-38.983303,-21.674610
3.612500,43.787682,-1.999279,29.069109,-23.442596,-37.039696,-21.993006
3.618750,27.121927,-1.996761,28.184486,-23.777189,-34.617878,-22.335066
3.625000,9.646631,-1.993621,27.518221,-24.226736,-32.369568,-22.744915
3.631250,-8.104210,-1.989682,27.644661,-24.754887,-28.417795,-23.185028
3.637500,-25.587305,-1.985397,28.876980,-25.325701,-24.371449,-23.626226
3.643750,-42.274151,-1.981458,31.358994,-25.902071,-20.171091,-24.048382
3.650000,-57.671730,-1.978223,33.229824,-26.439512,-15.834696,-24.434149
3.656250,-71.349770,-1.975598,36.048214,-26.866398,-11.412755,-24.766697
3.662500,-82.966431,-1.973674,39.016296,-27.214949,-6.986062,-25.040136
3.668750,-92.284409,-1.972660,43.028580,-27.472082,-2.706123,-25.260839
3.675000,-99.179665,-1.972258,46.403847,-27.607664,1.297741,-25.427528
3.681250,-103.649841,-1.972021,48.880032,-27.617239,4.910504,-25.539106
3.687500,-105.818420,-1.972237,50.213921,-27.512247,7.972692,-25.597971
3.693750,-105.924896,-1.973657,50.249157,-27.318916,10.331605,-25.613380
3.700000,-104.308739,-1.976197,48.976074,-27.046810,11.877373,-25.597195
3.706250,-101.390289,-1.978952,46.561382,-26.708908,12.616874,-25.543943
3.712500,-97.659889,-1.981416,42.996281,-26.345402,12.655720,-25.446196
3.718750,-93.655144,-1.984161,36.556774,-25.985260,12.032077,-25.309549
3.725000,-87.757057,-1.987553,29.162380,-25.646400,10.960728,-25.147953
3.731250,-81.856987,-1.990998,20.557175,-25.371696,9.967404,-25.002029
3.737500,-75.951492,-1.994007,12.668928,-25.187708,9.408572,-24.883860
3.743750,-70.043137,-1.996677,4.243365,-25.082479,9.651579,-24.816265
3.750000,-64.135651,-1.999449,-4.157628,-25.043852,11.406323,-24.720606
3.756250,-58.229591,-2.002180,-12.125857,-25.067957,11.204195,-24.610874
3.762500,-52.322426,-2.004661,-19.235380,-25.134670,12.234700,-24.485552
3.768750,-46.415501,-2.007155,-25.044586,-25.207331,14.226398,-24.396040
3.775000,-40.509979,-2.009929,-29.312122,-25.295168,16.757624,-24.331991
3.781250,-34.604965,-2.012772,-31.935184,-25.388315,19.214369,-24.277563
3.787500,-28.698839,-2.015327,-32.557884,-25.463808,21.232588,-24.224855
3.793750,-22.793039,-2.017952,-31.082674,-25.533867,22.511112,-24.176975
3.800000,-16.889456,-2.020931,-29.426804,-25.550520,22.853174,-24.127930
3.806250,-10.986834,-2.024268,-25.260214,-25.477785,22.270826,-24.041311
3.812500,-5.082896,-2.027735,-20.071350,-25.356911,20.651747,-23.923244
3.818750,0.821097,-2.031528,-14.414481,-25.205294,17.879892,-23.784733
3.825000,6.725343,-2.035675,-8.831716,-25.036589,14.084177,-23.632147
3.831250,12.633694,-2.039539,-1.675074,-24.864923,9.524248,-23.476496
3.837500,18.545389,-2.042806,5.233644,-24.703918,4.527423,-23.352358
3.843750,24.456566,-2.046190,12.039330,-24.550400,-0.555966,-23.222094
3.850000,30.365301,-2.050050,17.052042,-24.397608,-6.461203,-23.059565
3.856250,36.274746,-2.053732,21.951525,-24.254940,-11.946052,-22.906811
3.862500,42.188442,-2.056729,26.307289,-24.121695,-17.011902,-22.772648
3.868750,48.101990,-2.059596,29.783882,-23.985994,-21.642221,-22.655052
3.875000,54.008896,-2.063487,32.065887,-23.826019,-25.865690,-22.543356
3.881250,59.912003,-2.068590,32.812447,-23.642609,-29.751957,-22.421234
3.887500,65.818794,-2.073847,31.613909,-23.442745,-33.481529,-22.291382
3.893750,71.732468,-2.078675,28.386993,-23.208643,-37.318943,-22.160110
3.900000,77.648003,-2.083742,25.222645,-22.929718,-41.403255,-22.019604
3.906250,83.560493,-2.089878,20.676405,-22.605005,-44.034382,-21.867781
3.912500,89.473320,-2.097009,15.219259,-22.236320,-47.082043,-21.700483
3.918750,95.392769,-2.104558,9.320316,-21.830774,-50.255112,-21.505896
3.925000,99.425713,-2.111935,3.353534,-21.414650,-53.314663,-21.257221
3.931250,103.193756,-2.118945,-2.340351,-21.014359,-56.276661,-21.036400
3.937500,106.162689,-2.125520,-7.341073,-20.650005,-57.006298,-20.845823
3.943750,107.839539,-2.131452,-11.318072,-20.344410,-56.559307,-20.693153
3.950000,107.798485,-2.136246,-14.050651,-20.119661,-54.465179,-20.592104
3.956250,105.698677,-2.139413,-15.415706,-19.994173,-50.365421,-20.557695
3.962500,101.299797,-2.140811,-15.358114,-19.978107,-44.014511,-20.602234
3.968750,94.477104,-2.140809,-13.879672,-20.069399,-35.272842,-20.734356
3.975000,85.227463,-2.139404,-12.930960,-20.236725,-24.149544,-20.964796
3.981250,73.671997,-2.136749,-8.831047,-20.519604,-10.805601,-21.328373
3.987500,60.046055,-2.132897,-4.481493,-20.914738,3.117216,-21.728704
3.993750,44.688084,-2.128244,0.772386,-21.374134,18.331228,-22.231709
4.000000,28.024824,-2.122927,6.314292,-21.892563,33.993927,-22.843966
4.006250,10.548802,-2.116941,11.780394,-22.454134,49.245201,-23.590691
4.012500,-7.210028,-2.110750,16.900385,-23.031588,63.086456,-24.351936
4.018750,-24.706890,-2.105239,21.426670,-23.592955,76.047310,-25.086294
4.025000,-41.408211,-2.100574,25.082674,-24.121815,86.262192,-25.824059
4.031250,-56.817703,-2.096418,29.734682,-24.609045,94.686806,-26.578239
4.037500,-70.505852,-2.092853,32.010895,-25.034252,100.400124,-27.293770
4.043750,-82.135193,-2.090494,33.962921,-25.384590,103.699463,-27.940712
4.050000,-91.467155,-2.089500,35.447823,-25.659046,104.981583,-28.502003
4.056250,-98.373901,-2.088915,36.397907,-25.849703,104.770180,-28.967800
4.062500,-102.852936,-2.088098,36.890697,-25.937464,101.856659,-29.307673
4.068750,-105.032051,-2.088009,36.882431,-25.938334,98.644318,-29.505671
4.075000,-105.153397,-2.089883,36.389210,-25.869322,95.194328,-29.569241
4.081250,-103.551460,-2.093011,35.589973,-25.743742,91.722572,-29.502998
4.087500,-100.643234,-2.096020,34.739964,-25.570072,86.386360,-29.308308
4.093750,-96.920769,-2.098395,34.142464,-25.356882,80.910492,-28.990555
4.100000,-92.925957,-2.101026,32.215191,-25.118177,75.147316,-28.569748
4.106250,-87.040558,-2.104524,30.947935,-24.858761,68.998070,-28.083876
4.112500,-81.155891,-2.108578,30.236469,-24.571089,62.521637,-27.496218
4.118750,-75.268303,-2.112969,29.835882,-24.269674,55.927723,-26.836685
4.125000,-69.379051,-2.117958,29.450647,-23.969828,48.943478,-26.146475
4.131250,-63.488625,-2.123616,28.903809,-23.680805,41.714119,-25.455694
4.137500,-57.593864,-2.129381,28.079073,-23.406372,34.441154,-24.787918
4.143750,-51.692730,-2.134881,26.887392,-23.146263,27.343643,-24.160770
4.150000,-45.788570,-2.140357,25.243258,-22.899515,20.618237,-23.587376
4.156250,-39.884029,-2.146305,25.239582,-22.662840,14.447396,-23.068365
4.162500,-33.978062,-2.152595,25.463501,-22.426554,8.983225,-22.604696
4.168750,-28.068382,-2.159042,24.493780,-22.181211,5.920100,-22.220808
4.175000,-22.154510,-2.165598,24.214163,-21.942860,2.739506,-21.901970
4.181250,-16.236694,-2.172083,24.414379,-21.717438,1.135765,-21.644215
4.187500,-10.314264,-2.178271,24.895229,-21.510527,0.984105,-21.396093
4.193750,-4.386616,-2.184052,25.436495,-21.328495,2.255620,-21.244047
4.200000,1.544582,-2.189230,25.807903,-21.178898,3.189709,-21.179682
4.206250,7.479214,-2.193540,25.793348,-21.069147,4.387832,-21.181377
4.212500,13.416651,-2.196718,25.228165,-20.997343,6.880568,-21.202753
4.218750,19.353134,-2.199090,26.178259,-20.952599,8.423068,-21.248686
4.225000,25.285749,-2.201176,25.235720,-20.930195,9.025069,-21.320482
4.231250,31.214314,-2.203110,24.384222,-20.919294,8.542298,-21.404608
4.237500,37.140335,-2.204747,23.418133,-20.917467,6.807453,-21.479061
4.243750,43.063969,-2.206118,22.005758,-20.941622,5.745487,-21.550228
4.250000,48.986237,-2.207129,19.981421,-20.977566,3.730448,-21.618952
4.256250,54.905914,-2.207665,17.203947,-21.007202,1.276504,-21.668777
4.262500,60.821411,-2.208264,13.446231,-21.016134,-1.200172,-21.688202
4.268750,66.729660,-2.209625,8.508287,-20.993479,-3.349321,-21.666100
4.275000,72.630928,-2.212143,2.210319,-20.931990,-4.862614,-21.595268
4.281250,78.531471,-2.215298,-3.442244,-20.819342,-5.473101,-21.463673
4.287500,84.434021,-2.218854,-9.975842,-20.652338,-4.984579,-21.242865
4.293750,90.336182,-2.223554,-17.124334,-20.452026,-3.473785,-20.996544
4.300000,96.237473,-2.229638,-24.529428,-20.221470,-1.253072,-20.732225
4.306250,100.250618,-2.235962,-31.750780,-19.963657,1.877184,-20.446005
4.312500,104.002312,-2.241483,-38.469486,-19.689224,5.713452,-20.148096
4.318750,106.955643,-2.246493,-44.418957,-19.412077,9.999309,-19.848669
4.325000,108.610161,-2.251982,-49.400406,-19.152887,14.403057,-19.567352
4.331250,108.540840,-2.257846,-53.271690,-18.934237,18.623228,-19.319113
4.337500,106.414055,-2.263042,-55.938210,-18.797270,22.386587,-19.108215
4.343750,101.993919,-2.267065,-57.398811,-18.676037,25.467335,-18.883448
4.350000,95.154404,-2.270135,-56.701733,-18.614553,27.477160,-18.754080
4.356250,85.892967,-2.272123,-54.703144,-18.657228,29.974087,-18.710806
4.362500,74.331894,-2.272516,-51.222664,-18.804848,31.769117,-18.763088
4.368750,60.706245,-2.271663,-46.344383,-19.049892,33.223919,-18.936914
4.375000,45.349457,-2.270349,-40.274872,-19.379976,34.618439,-19.181246
4.381250,28.689396,-2.268598,-33.287663,-19.774897,35.938313,-19.468487
4.387500,11.222396,-2.265680,-25.705511,-20.208794,38.021652,-19.805902
4.393750,-6.520430,-2.261872,-17.937832,-20.664865,39.201382,-20.225090
4.400000,-23.999777,-2.258407,-10.441420,-21.130611,41.049725,-20.701618
4.406250,-40.682510,-2.255403,-1.417987,-21.588699,43.137249,-21.208763
4.412500,-56.071091,-2.252079,5.550587,-22.025099,45.167099,-21.727165
4.418750,-69.736961,-2.248490,12.312724,-22.432964,46.917953,-22.243334
4.425000,-81.344826,-2.245532,18.680641,-22.756462,48.293583,-22.711956
4.431250,-90.659332,-2.243662,24.504953,-22.989574,49.314617,-23.101332
4.437500,-97.552361,-2.242244,29.401117,-23.143850,49.749268,-23.407919
4.443750,-102.021835,-2.241036,33.312290,-23.226240,49.582264,-23.624849
4.450000,-104.193542,-2.240841,36.304993,-23.238762,48.938030,-23.744341
4.456250,-104.305290,-2.242216,38.509369,-23.185532,47.986717,-23.764580
4.462500,-102.691994,-2.244332,40.127174,-23.076170,46.907417,-23.691132
4.468750,-99.775940,-2.246790,41.447205,-22.929016,45.921818,-23.544165
4.475000,-96.052521,-2.249970,40.948772,-22.745926,45.315742,-23.316532
4.481250,-92.056053,-2.253937,40.789711,-22.518026,43.816875,-22.987354
4.487500,-86.159706,-2.257997,40.659431,-22.276245,42.983410,-22.603880
4.493750,-80.258087,-2.261709,40.353470,-22.042444,42.499214,-22.196848
4.500000,-74.357231,-2.266223,39.802200,-21.828608,42.149403,-21.788462
4.506250,-68.459206,-2.272286,38.979549,-21.636032,41.727879,-21.393904
4.512500,-62.556240,-2.278832,37.879452,-21.453600,41.026134,-21.022961
4.518750,-56.640545,-2.284325,36.501480,-21.235506,39.805313,-20.685339
4.525000,-50.715748,-2.288846,34.845657,-21.042692,37.763184,-20.415236
4.531250,-44.791485,-2.293559,34.073849,-20.902540,34.466347,-20.207773
4.537500,-38.869415,-2.298858,33.612362,-20.772383,31.253307,-20.034321
4.543750,-32.941700,-2.303998,32.070862,-20.635296,26.628780,-19.908361
4.550000,-27.005728,-2.308152,31.191904,-20.517878,20.930002,-19.808178
4.556250,-21.064121,-2.311419,30.673777,-20.442772,14.524202,-19.783873
4.562500,-15.120697,-2.314145,30.298935,-20.428991,8.186864,-19.861429
4.568750,-9.176390,-2.316373,29.840929,-20.501846,1.863223,-20.039013
4.575000,-3.229390,-2.317823,29.073309,-20.711723,-4.263049,-20.261070
4.581250,2.721308,-2.318061,27.802097,-20.998144,-9.923844,-20.536587
4.587500,8.672515,-2.317048,24.773592,-21.365021,-14.586934,-20.879288
4.593750,14.622246,-2.315080,22.856873,-21.835072,-18.076180,-21.282619
4.600000,20.567984,-2.312309,20.183594,-22.412891,-20.346889,-21.726393
4.606250,26.509832,-2.308537,16.653444,-23.177008,-21.535553,-22.218821
4.612500,32.447361,-2.303797,13.052522,-23.969021,-21.934223,-22.753000
4.618750,38.375332,-2.299057,8.914169,-24.836889,-21.618540,-23.305813
4.625000,44.290932,-2.295068,4.494136,-25.761942,-20.867779,-23.861530
4.631250,50.200447,-2.291284,0.076886,-26.710247,-20.007790,-24.406630
4.637500,56.108295,-2.286671,-4.076498,-27.638996,-19.400654,-24.924803
4.643750,62.011715,-2.281750,-7.720159,-28.495258,-19.413233,-25.381861
4.650000,67.901772,-2.278025,-12.544747,-29.218021,-20.399559,-25.731146
4.656250,73.777122,-2.276405,-14.674929,-29.774487,-22.725470,-25.972071
4.662500,79.646484,-2.276443,-16.142443,-30.156569,-24.952225,-26.133347
4.668750,85.514702,-2.277713,-16.836576,-30.333412,-28.482723,-26.187584
4.675000,91.382698,-2.280490,-16.762587,-30.290844,-33.059082,-26.126009
4.681250,95.356583,-2.284656,-16.044388,-30.029921,-38.471218,-25.948977
4.687500,99.061554,-2.289636,-14.876036,-29.572849,-44.492817,-25.667334
4.693750,101.964325,-2.295573,-13.495993,-28.956839,-50.857777,-25.293230
4.700000,103.569649,-2.303467,-12.188224,-28.213720,-57.221958,-24.829908
4.706250,103.452690,-2.313106,-11.437777,-27.344549,-63.218781,-24.269354
4.712500,101.283463,-2.322784,-11.507611,-26.391731,-68.420738,-23.658161
4.718750,96.829559,-2.331230,-12.710619,-25.427589,-74.219315,-23.059261
