Anritsu VNA Frequency[GHz],S21[deg],S21[dB],S11[deg],S11[dB],S22[deg],S22[dB]
1338095885.55,2012_05_27_06:18:05,+40.529,+10.249,+54.810,+10.259,+13.899,+13.709,+14.004,+13.755,10.350095,-16.066
3.006250,33.108040,-1.743027,58.405170,-26.685287,-81.262184,-27.426943
3.012500,33.108040,-1.743027,58.405170,-26.685287,-81.262184,-27.426943
3.018750,33.108040,-1.743027,58.405170,-26.685287,-81.262184,-27.426943
3.025000,33.108040,-1.743027,58.405170,-26.685287,-81.262184,-27.426943
3.031250,33.108040,-1.743027,58.405170,-26.685287,-81.262184,-27.426943
3.037500,33.108040,-1.743027,58.405170,-26.685287,-81.262184,-27.426943
3.043750,33.108040,-1.743027,58.405170,-26.685287,-81.262184,-27.426943
3.050000,33.108040,-1.743027,58.405170,-26.685287,-81.262184,-27.426943
3.056250,33.108040,-1.743027,58.405170,-26.685287,-81.262184,-27.426943
3.062500,33.108040,-1.743027,58.405170,-26.685287,-81.262184,-27.426943
3.068750,33.108040,-1.743027,58.405170,-26.685287,-81.262184,-27.426943
3.075000,33.108040,-1.743027,58.405170,-26.685287,-81.262184,-27.426943
3.081250,33.108040,-1.743027,58.405170,-26.685287,-81.262184,-27.426943
3.087500,33.108040,-1.743027,58.405170,-26.685287,-81.262184,-27.426943
3.093750,33.108040,-1.744731,58.405170,-26.486227,-81.262184,-27.175545
3.100000,39.012516,-1.746759,55.747204,-26.339495,-83.219765,-26.941750
3.106250,44.917084,-1.748806,52.214363,-26.264967,-83.571190,-26.726868
3.112500,50.822399,-1.750896,48.157398,-26.283188,-81.960999,-26.503155
3.118750,56.726460,-1.753203,42.177540,-26.331951,-80.230812,-26.200634
3.125000,62.629520,-1.755693,37.394909,-26.380993,-76.143959,-25.937876
3.131250,68.532501,-1.758290,33.025318,-26.456528,-69.970062,-25.648102
3.137500,74.434364,-1.761197,29.335203,-26.559797,-62.079239,-25.321934
3.143750,80.334633,-1.764666,26.521757,-26.681242,-52.655479,-24.968119
3.150000,86.235832,-1.768424,24.761316,-26.806332,-41.853497,-24.599216
3.156250,92.140205,-1.771919,24.176090,-26.920395,-29.843611,-24.233507
3.162500,96.152176,-1.775194,24.833492,-27.010336,-16.823645,-23.894482
3.168750,99.891174,-1.778561,26.753136,-27.068914,-3.003938,-23.632313
3.175000,102.823341,-1.782202,29.981007,-27.074907,9.551725,-23.388189
3.181250,104.458412,-1.785878,32.759350,-27.015997,22.885139,-23.168041
3.187500,104.371262,-1.789410,36.546093,-26.909122,35.668976,-23.002247
3.193750,102.220596,-1.792667,40.638000,-26.766569,47.412067,-22.907244
3.200000,97.768753,-1.795581,44.468269,-26.597145,57.700108,-22.886005
3.206250,90.893890,-1.798160,47.555222,-26.411236,66.148270,-22.938478
3.212500,81.594429,-1.800553,49.480686,-26.223570,72.438766,-23.072273
3.218750,69.990646,-1.803153,49.934147,-26.044411,76.346741,-23.269894
3.225000,56.320873,-1.805591,50.912258,-25.867939,77.502296,-23.476650
3.231250,40.928219,-1.807513,50.953960,-25.694061,76.075943,-23.700674
3.237500,24.237965,-1.809144,48.566673,-25.522608,74.071251,-23.933842
3.243750,6.738154,-1.811062,45.865463,-25.329992,69.903679,-24.153597
3.250000,-11.038492,-1.813554,42.716312,-25.157503,64.175179,-24.340504
3.256250,-28.541418,-1.816163,38.760567,-25.017317,57.442734,-24.493805
3.262500,-45.235737,-1.818411,34.241623,-24.892096,50.335270,-24.603418
3.268750,-60.631023,-1.820322,29.103424,-24.778444,43.554596,-24.658606
3.275000,-74.303299,-1.822337,23.225227,-24.675375,37.678249,-24.660362
3.281250,-85.912498,-1.824736,16.494663,-24.573801,33.213367,-24.616478
3.287500,-95.219757,-1.827512,8.819491,-24.460737,30.542566,-24.540968
3.293750,-102.101379,-1.830346,0.164255,-24.296566,29.926291,-24.433020
3.300000,-106.556786,-1.833082,-7.294617,-24.128883,31.527555,-24.294918
3.306250,-108.707176,-1.835561,-15.972888,-23.994078,35.324455,-24.153154
3.312500,-108.790382,-1.837778,-24.650536,-23.873116,41.132870,-24.039820
3.318750,-107.147964,-1.839909,-33.039272,-23.774088,48.690472,-23.975348
3.325000,-104.207375,-1.841841,-40.871128,-23.713392,57.656296,-23.970091
3.331250,-100.459908,-1.843439,-47.896351,-23.716955,67.600937,-24.026550
3.337500,-96.438431,-1.844696,-53.928467,-23.848652,78.005569,-24.143288
3.343750,-90.522308,-1.845590,-58.950619,-24.011005,88.330307,-24.306337
3.350000,-84.606674,-1.846166,-63.381863,-24.232962,98.069656,-24.457880
3.356250,-78.691750,-1.846379,-66.815948,-24.557932,106.951302,-24.654617
3.362500,-72.778358,-1.846485,-67.533363,-25.007854,114.013451,-24.902018
3.368750,-66.867172,-1.846343,-67.170349,-25.563650,119.347908,-25.189634
3.375000,-60.956295,-1.845646,-65.611610,-26.198603,122.491882,-25.563360
3.381250,-55.047516,-1.844580,-62.872398,-26.878422,123.203270,-25.895962
3.387500,-49.144753,-1.843855,-59.048351,-27.564886,121.982445,-26.216057
3.393750,-43.248245,-1.843904,-54.298664,-28.212919,118.172913,-26.516251
3.400000,-37.354187,-1.844341,-48.846409,-28.780643,112.215576,-26.789240
3.406250,-31.458761,-1.844559,-43.026073,-29.246681,104.990776,-27.066095
3.412500,-25.563732,-1.844926,-37.166485,-29.586317,97.045532,-27.312748
3.418750,-19.673498,-1.846166,-29.329515,-29.777956,86.917320,-27.508101
3.425000,-13.786296,-1.848354,-23.059755,-29.817591,76.808899,-27.645952
3.431250,-7.896213,-1.850644,-16.502075,-29.720430,67.087624,-27.732323
3.437500,-2.001952,-1.852853,-9.913658,-29.471012,58.162189,-27.770931
3.443750,3.891979,-1.855692,-3.314250,-29.067850,50.706509,-27.709761
3.450000,9.784169,-1.859486,2.775194,-28.556377,43.007832,-27.578327
3.456250,15.680781,-1.863467,8.192207,-27.974886,36.884365,-27.389826
3.462500,21.585705,-1.866802,12.933556,-27.366892,32.110569,-27.146029
3.468750,27.495693,-1.869511,17.086353,-26.778744,28.459974,-26.843719
3.475000,33.405876,-1.872005,20.758722,-26.275183,25.685003,-26.499998
3.481250,39.315643,-1.874368,24.207642,-25.810211,23.500910,-26.129250
3.487500,45.224632,-1.876774,26.167025,-25.412897,21.667219,-25.725657
3.493750,51.132053,-1.879607,28.024918,-25.118208,19.875473,-25.296230
3.500000,57.038528,-1.882841,29.606270,-24.931362,17.804016,-24.852987
3.506250,62.948273,-1.885823,30.804232,-24.838587,15.225327,-24.406395
3.512500,68.862129,-1.887961,31.533360,-24.805752,11.953275,-23.966072
3.518750,74.775841,-1.889932,31.764288,-24.743259,7.855921,-23.536718
3.525000,80.683495,-1.892762,31.631283,-24.725880,2.823024,-23.124102
3.531250,86.586823,-1.896663,31.743399,-24.712477,-3.273748,-22.743362
3.537500,92.492737,-1.900833,31.739920,-24.666471,-8.385114,-22.411022
3.543750,96.509590,-1.904719,31.863361,-24.578474,-13.973625,-22.123013
3.550000,100.256203,-1.908726,32.452271,-24.421051,-19.754536,-21.841787
3.556250,103.195946,-1.913447,31.947721,-24.195755,-25.254229,-21.514368
3.562500,104.840851,-1.918490,32.061047,-23.932339,-30.198154,-21.273062
3.568750,104.769958,-1.922750,32.450363,-23.657877,-33.348114,-21.103054
3.575000,102.642731,-1.925640,32.840240,-23.398643,-35.721336,-21.005596
3.581250,98.216446,-1.927466,32.947826,-23.189199,-37.051258,-20.993792
3.587500,91.364365,-1.928910,32.514809,-23.065069,-37.362301,-21.027409
3.593750,82.086693,-1.929949,31.430983,-23.016390,-36.515045,-21.129442
3.600000,70.509331,-1.929928,29.638422,-23.053955,-34.358868,-21.314608
3.606250,56.869316,-1.928580,28.984880,-23.192801,-31.052036,-21.576513
3.612500,41.502296,-1.926391,28.010632,-23.418339,-26.871540,-21.889076
3.618750,24.831963,-1.923770,27.119177,-23.747126,-22.210676,-22.227322
3.625000,7.352106,-1.920533,26.416161,-24.189220,-17.856472,-22.633842
3.631250,-10.402898,-1.916429,26.515696,-24.707113,-11.997164,-23.069712
3.637500,-27.890305,-1.911959,27.723948,-25.266375,-6.358005,-23.507029
3.643750,-44.581520,-1.907924,30.180626,-25.830013,-0.962584,-23.925995
3.650000,-59.983040,-1.904504,32.020451,-26.352978,4.098835,-24.310055
3.656250,-73.664719,-1.901681,34.802551,-26.761307,8.740100,-24.641748
3.662500,-85.284882,-1.899612,37.705704,-27.098347,12.870409,-24.916037
3.668750,-94.606125,-1.898424,41.653488,-27.343781,16.346762,-25.139055
3.675000,-101.504623,-1.897826,44.967865,-27.469629,19.082830,-25.310072
3.681250,-105.977829,-1.897376,47.381512,-27.472736,21.020037,-25.427410
3.687500,-108.149323,-1.897401,48.655262,-27.366480,22.082741,-25.494112
3.693750,-108.259399,-1.898711,48.645573,-27.177427,22.218174,-25.518831
3.700000,-106.646751,-1.901074,47.355572,-26.910425,21.431812,-25.512821
3.706250,-103.731873,-1.903657,44.944618,-26.583605,19.852137,-25.468184
3.712500,-100.005554,-1.905948,41.393780,-26.235895,17.696728,-25.379026
3.718750,-96.005417,-1.908540,34.997578,-25.894625,15.114008,-25.250515
3.725000,-90.112389,-1.911746,27.679049,-25.575071,12.434033,-25.098204
3.731250,-84.217239,-1.915029,19.160551,-25.322332,10.264841,-24.961708
3.737500,-78.316956,-1.917864,11.386296,-25.159149,9.017269,-24.852676
3.743750,-72.414398,-1.920345,3.098868,-25.071304,9.102361,-24.793568
3.750000,-66.513222,-1.922911,-5.149824,-25.046021,9.119215,-24.698530
3.756250,-60.613152,-1.925460,-12.969721,-25.079245,9.043612,-24.588793
3.762500,-54.712139,-1.927771,-19.938118,-25.149847,10.204850,-24.465008
3.768750,-48.811104,-1.930130,-25.617851,-25.222315,12.353279,-24.376259
3.775000,-42.911427,-1.932792,-29.776897,-25.307568,15.019625,-24.311478
3.781250,-37.012180,-1.935547,-32.315838,-25.393175,17.608204,-24.254620
3.787500,-31.111393,-1.938006,-32.880775,-25.457905,19.755686,-24.199314
3.793750,-25.210531,-1.940579,-31.384365,-25.515060,21.156197,-24.148916
3.800000,-19.311722,-1.943632,-27.852144,-25.513807,21.616014,-24.095570
3.806250,-13.413244,-1.946986,-23.446144,-25.424562,21.148741,-24.002607
3.812500,-7.513210,-1.950548,-17.524885,-25.288797,19.612167,-23.879744
3.818750,-1.612696,-1.954482,-10.677011,-25.123356,16.897114,-23.736881
3.825000,4.288960,-1.958753,-3.505693,-24.942434,13.133412,-23.580826
3.831250,10.194664,-1.962721,5.559613,-24.760668,8.593005,-23.421951
3.837500,16.104113,-1.966120,14.601693,-24.592123,3.596928,-23.297726
3.843750,22.013060,-1.969636,23.663425,-24.432785,-1.516990,-23.161112
3.850000,27.919199,-1.973646,30.942081,-24.276327,-7.437945,-22.996149
3.856250,33.826698,-1.977441,37.993153,-24.132729,-12.974977,-22.841543
3.862500,39.738377,-1.980495,44.281258,-24.000467,-18.102959,-22.705561
3.868750,45.648964,-1.983416,49.373936,-23.866467,-22.801537,-22.584803
3.875000,51.552685,-1.987397,52.862873,-23.708227,-27.096590,-22.468807
3.881250,57.452625,-1.992582,54.331142,-23.531622,-31.060205,-22.341534
3.887500,63.355812,-1.997819,53.337170,-23.338530,-34.874939,-22.208241
3.893750,69.265701,-2.002610,49.798927,-23.110645,-38.798012,-22.073442
3.900000,75.176460,-2.007664,45.803497,-22.837660,-42.958305,-21.929726
3.906250,81.084328,-2.013799,39.944111,-22.519669,-45.659695,-21.775579
3.912500,86.992180,-2.020916,32.754337,-22.158125,-48.770927,-21.606104
3.918750,92.906334,-2.028378,24.783825,-21.760662,-52.002373,-21.407907
3.925000,96.934303,-2.035691,16.498980,-21.353743,-55.112480,-21.154808
3.931250,100.697174,-2.042595,8.353056,-20.962217,-58.167141,-20.936598
3.937500,103.660927,-2.049056,0.900806,-20.606510,-58.964512,-20.748697
3.943750,105.333076,-2.054871,-5.406871,-20.309525,-58.578552,-20.599295
3.950000,105.287346,-2.059564,-10.238690,-20.093348,-56.547287,-20.502417
3.956250,103.182877,-2.062531,-13.365644,-19.976011,-52.515102,-20.473326
3.962500,98.779938,-2.063789,-14.641864,-19.967690,-46.231686,-20.524426
3.968750,91.952797,-2.063642,-14.001984,-20.065706,-37.557682,-20.663450
3.975000,82.699066,-2.062150,-13.352728,-20.238596,-26.495804,-20.901587
3.981250,71.139427,-2.059361,-11.160521,-20.532202,-13.213943,-21.261169
3.987500,57.509369,-2.055449,-6.814811,-20.933882,0.698357,-21.666130
3.993750,42.147373,-2.050716,-1.534206,-21.398687,15.864366,-22.172667
4.000000,25.480438,-2.045390,4.035405,-21.923508,31.500963,-22.787951
4.006250,7.999944,-2.039367,9.544950,-22.491533,46.742794,-23.540768
4.012500,-9.763161,-2.033234,14.722681,-23.075401,60.517002,-24.292055
4.018750,-27.264557,-2.027845,19.321566,-23.642286,73.506065,-25.016434
4.025000,-43.970795,-2.023333,23.055645,-24.176134,83.754257,-25.751202
4.031250,-59.384609,-2.019341,27.785023,-24.667166,92.167191,-26.499363
4.037500,-73.077431,-2.015951,30.141819,-25.093992,97.872459,-27.207771
4.043750,-84.711655,-2.013853,32.170624,-25.443699,101.149658,-27.847418
4.050000,-94.048553,-2.013148,33.725342,-25.715895,102.396545,-28.401819
4.056250,-100.960121,-2.012828,34.739159,-25.900761,102.138718,-28.861399
4.062500,-105.444084,-2.012296,35.287807,-25.980625,99.179344,-29.193380
4.068750,-107.628128,-2.012521,35.321697,-25.972357,95.916382,-29.384508
4.075000,-107.754730,-2.014752,34.858959,-25.893150,92.406998,-29.442446
4.081250,-106.157349,-2.018226,34.083645,-25.756702,88.881050,-29.371426
4.087500,-103.253311,-2.021492,33.247345,-25.571917,83.501610,-29.172543
4.093750,-99.535439,-2.024095,32.653114,-25.347395,77.996826,-28.851528
4.100000,-95.545189,-2.026937,30.716833,-25.097599,72.223976,-28.429718
4.106250,-89.664276,-2.030647,29.437637,-24.828138,66.087334,-27.944614
4.112500,-83.783417,-2.034878,28.722332,-24.531710,59.674618,-27.355112
4.118750,-77.899193,-2.039382,28.311062,-24.224276,53.150486,-26.695797
4.125000,-72.013542,-2.044463,27.904089,-23.921686,46.252739,-26.007778
4.131250,-66.126511,-2.050109,27.334219,-23.633274,39.134029,-25.320488
4.137500,-60.234669,-2.055843,26.484419,-23.362415,31.993752,-24.656704
4.143750,-54.336487,-2.061238,25.266474,-23.108503,25.045443,-24.033323
4.150000,-48.435261,-2.066624,23.596273,-22.870533,18.479132,-23.463610
4.156250,-42.533916,-2.072440,23.566742,-22.644642,12.465403,-22.947378
4.162500,-36.630875,-2.078573,23.772474,-22.419344,7.152411,-22.504868
4.168750,-30.724195,-2.084826,22.796942,-22.183947,4.236219,-22.126408
4.175000,-24.813326,-2.091183,22.498713,-21.958027,1.161445,-21.816637
4.181250,-18.899019,-2.097431,22.685637,-21.745491,-0.360287,-21.568714
4.187500,-12.979948,-2.103421,23.160044,-21.551470,-0.445534,-21.325018
4.193750,-7.055945,-2.108972,23.701464,-21.381630,0.956658,-21.190966
4.200000,-1.128685,-2.113924,24.078587,-21.243385,1.932697,-21.140694
4.206250,4.802069,-2.117965,24.075090,-21.143982,3.159122,-21.152052
4.212500,10.735150,-2.120907,23.529408,-21.080256,5.665811,-21.182497
4.218750,16.666893,-2.123114,24.503748,-21.040831,7.222351,-21.236288
4.225000,22.594669,-2.125049,23.590199,-21.021759,7.822255,-21.313232
4.231250,28.518297,-2.126861,22.767365,-21.011234,7.316370,-21.399246
4.237500,34.439617,-2.128374,21.827461,-21.008932,5.535706,-21.471806
4.243750,40.358345,-2.129629,20.438065,-21.031122,4.395255,-21.540482
4.250000,46.275742,-2.130550,18.437449,-21.063086,2.276504,-21.604084
4.256250,52.190693,-2.131018,15.680152,-21.087444,-0.293741,-21.646456
4.262500,58.101433,-2.131558,11.931208,-21.089521,-2.902548,-21.656202
4.268750,64.004532,-2.132887,6.992347,-21.058220,-5.195220,-21.623013
4.275000,69.901207,-2.135399,0.682593,-20.986938,-6.857199,-21.540239
4.281250,75.797546,-2.138510,-4.990345,-20.863400,-7.614942,-21.395451
4.287500,81.695946,-2.142028,-11.558044,-20.684891,-7.269991,-21.160900
4.293750,87.593727,-2.146684,-18.763483,-20.474449,-5.922290,-20.905859
4.300000,93.490868,-2.152732,-26.236900,-20.234325,-3.835689,-20.633167
4.306250,97.500244,-2.158968,-33.535923,-19.967546,-0.817481,-20.340225
4.312500,101.248459,-2.164330,-40.342510,-19.685102,2.925651,-20.036894
4.318750,104.197693,-2.169188,-46.385044,-19.401766,7.130476,-19.736576
4.325000,105.847961,-2.174618,-51.461426,-19.138914,11.493533,-19.457096
4.331250,105.774750,-2.180425,-55.424347,-18.919758,15.704827,-19.213091
4.337500,103.644234,-2.185526,-58.173748,-18.795853,19.493595,-19.006662
4.343750,99.220184,-2.189462,-59.729156,-18.666355,22.637272,-18.780317
4.350000,92.376625,-2.192527,-59.087921,-18.611208,24.647980,-18.659494
4.356250,83.111122,-2.194530,-57.145447,-18.664940,27.212584,-18.623817
4.362500,71.546219,-2.194973,-53.699261,-18.825890,29.080215,-18.683487
4.368750,57.916054,-2.194177,-48.835915,-19.085606,30.601894,-18.866446
4.375000,42.554806,-2.193049,-42.759789,-19.430613,32.022152,-19.109552
4.381250,25.890644,-2.191393,-35.743671,-19.839319,33.394470,-19.397064
4.387500,8.419914,-2.188645,-28.112141,-20.285145,35.526535,-19.737019
4.393750,-9.326776,-2.185016,-20.283655,-20.751396,36.736320,-20.156424
4.400000,-26.809942,-2.181716,-12.714430,-21.225739,38.578999,-20.630890
4.406250,-43.496727,-2.178848,-3.611116,-21.689930,40.637863,-21.134541
4.412500,-58.888657,-2.175540,3.442777,-22.130230,42.621399,-21.648638
4.418750,-72.557869,-2.171937,10.288898,-22.541012,44.316387,-22.159575
4.425000,-84.169327,-2.168962,16.755400,-22.860258,45.643589,-22.618401
4.431250,-93.487221,-2.167043,22.668091,-23.087523,46.607063,-22.998659
4.437500,-100.383331,-2.165416,27.637363,-23.234686,46.979351,-23.296310
4.443750,-104.856110,-2.163961,31.617901,-23.309313,46.759964,-23.504486
4.450000,-107.031181,-2.163552,34.676304,-23.313675,46.080421,-23.615837
4.456250,-107.146545,-2.164654,36.942314,-23.252419,45.108097,-23.629053
4.462500,-105.536537,-2.166477,38.617077,-23.135899,44.027119,-23.550186
4.468750,-102.623924,-2.168600,39.989017,-22.984020,43.060242,-23.401596
4.475000,-98.904419,-2.171548,39.542095,-22.795523,42.506214,-23.167711
4.481250,-94.911995,-2.175340,39.447735,-22.563314,41.086010,-22.836941
4.487500,-89.019371,-2.179102,39.362206,-22.320587,40.331375,-22.455053
4.493750,-83.121513,-2.182624,39.096046,-22.088861,39.943901,-22.051800
4.500000,-77.225044,-2.187119,38.582275,-21.879324,39.705265,-21.648527
4.506250,-71.331291,-2.193228,37.797436,-21.692398,39.404259,-21.259951
4.512500,-65.432335,-2.199791,36.733753,-21.515038,38.822041,-20.895388
4.518750,-59.520237,-2.205275,35.389854,-21.287605,37.709385,-20.565065
4.525000,-53.599541,-2.209880,33.791615,-21.107197,35.747448,-20.304565
4.531250,-47.679737,-2.214745,33.025742,-20.974560,32.481510,-20.100765
4.537500,-41.761959,-2.220244,32.588142,-20.844694,29.280453,-19.932604
4.543750,-35.838348,-2.225496,31.075417,-20.708498,24.643518,-19.810720
4.550000,-29.906094,-2.229758,30.198193,-20.592905,18.892790,-19.709507
4.556250,-23.968317,-2.233080,29.673443,-20.520161,12.437753,-19.692310
4.562500,-18.029068,-2.235907,29.285313,-20.509554,5.984822,-19.774033
4.568750,-12.088846,-2.238171,28.808020,-20.586721,-0.496545,-19.952152
4.575000,-6.145931,-2.239634,28.020117,-20.810263,-6.824079,-20.171530
4.581250,-0.199705,-2.239834,26.741890,-21.096722,-12.660784,-20.446419
4.587500,5.747460,-2.238773,23.682453,-21.467316,-17.509745,-20.788534
4.593750,11.693037,-2.236745,21.736912,-21.942169,-21.189320,-21.190237
4.600000,17.634398,-2.233937,19.029184,-22.525692,-23.646873,-21.630945
4.606250,23.572151,-2.230078,15.429177,-23.275316,-25.031300,-22.122553
4.612500,29.505196,-2.225231,11.839136,-24.063974,-25.603622,-22.654943
4.618750,35.428398,-2.220457,7.659384,-24.922462,-25.437332,-23.205725
4.625000,41.339382,-2.216456,3.210603,-25.830505,-24.808531,-23.759480
4.631250,47.244133,-2.212627,-1.220479,-26.754585,-24.039066,-24.302618
4.637500,53.147865,-2.207920,-5.370930,-27.652115,-23.491278,-24.817881
4.643750,59.046597,-2.202922,-8.993176,-28.470673,-23.528904,-25.269640
4.650000,64.931168,-2.199236,-13.779251,-29.149643,-24.502773,-25.610353
4.656250,70.801407,-2.197595,-15.863526,-29.661961,-26.795551,-25.848637
4.662500,76.665840,-2.197504,-17.297972,-30.000738,-28.976173,-26.004866
4.668750,82.529083,-2.198696,-17.944551,-30.135805,-32.429688,-26.052849
4.675000,88.391846,-2.201402,-17.825817,-30.055361,-36.920746,-25.984568
4.681250,94.255409,-2.205428,-17.072010,-29.762554,-42.244736,-25.801111
4.687500,98.228371,-2.210162,-15.885018,-29.281712,-48.179611,-25.513697
4.693750,101.931915,-2.215845,-14.507303,-28.651598,-54.457253,-25.134176
4.700000,104.829544,-2.223523,-13.230949,-27.900854,-60.734013,-24.664753
4.706250,106.432549,-2.232890,-12.553483,-27.031361,-66.645554,-24.098000
4.712500,106.324852,-2.242188,-12.710319,-26.085405,-71.746552,-23.488878
4.718750,104.169357,-2.250152,-14.048054,-25.140291,-77.452637,-22.892145
