Anritsu VNA Frequency[GHz],S21[deg],S21[dB],S11[deg],S11[dB],S22[deg],S22[dB]
1338097520.46,2012_05_27_06:45:20,+40.494,+10.286,+54.751,+10.302,+13.914,+13.725,+14.019,+13.771,10.384972,-16.029
3.006250,33.055065,-1.742967,58.394501,-26.688072,-81.400482,-27.437124
3.012500,33.055065,-1.742967,58.394501,-26.688072,-81.400482,-27.437124
3.018750,33.055065,-1.742967,58.394501,-26.688072,-81.400482,-27.437124
3.025000,33.055065,-1.742967,58.394501,-26.688072,-81.400482,-27.437124
3.031250,33.055065,-1.742967,58.394501,-26.688072,-81.400482,-27.437124
3.037500,33.055065,-1.742967,58.394501,-26.688072,-81.400482,-27.437124
3.043750,33.055065,-1.742967,58.394501,-26.688072,-81.400482,-27.437124
3.050000,33.055065,-1.742967,58.394501,-26.688072,-81.400482,-27.437124
3.056250,33.055065,-1.742967,58.394501,-26.688072,-81.400482,-27.437124
3.062500,33.055065,-1.742967,58.394501,-26.688072,-81.400482,-27.437124
3.068750,33.055065,-1.742967,58.394501,-26.688072,-81.400482,-27.437124
3.075000,33.055065,-1.742967,58.394501,-26.688072,-81.400482,-27.437124
3.081250,33.055065,-1.742967,58.394501,-26.688072,-81.400482,-27.437124
3.087500,33.055065,-1.742967,58.394501,-26.688072,-81.400482,-27.437124
3.093750,33.055065,-1.744738,58.394501,-26.489187,-81.400482,-27.184452
3.100000,38.959770,-1.746830,55.735584,-26.342890,-83.347404,-26.949451
3.106250,44.864529,-1.748922,52.205917,-26.269783,-83.691231,-26.733261
3.112500,50.769966,-1.751027,48.146778,-26.289167,-82.073990,-26.508661
3.118750,56.674480,-1.753344,42.162399,-26.339191,-80.343140,-26.204782
3.125000,62.578217,-1.755805,37.377037,-26.389162,-76.241699,-25.941610
3.131250,68.481590,-1.758363,33.007442,-26.466005,-70.063248,-25.650984
3.137500,74.383644,-1.761250,29.310602,-26.570528,-62.170471,-25.324207
3.143750,80.284348,-1.764681,26.487904,-26.693430,-52.742786,-24.969868
3.150000,86.185768,-1.768374,24.721075,-26.819393,-41.935421,-24.600046
3.156250,92.090477,-1.771807,24.126549,-26.934225,-29.920742,-24.233410
3.162500,96.102333,-1.774992,24.773167,-27.024755,-16.897997,-23.893368
3.168750,99.841255,-1.778276,26.680668,-27.083893,-3.074886,-23.630247
3.175000,102.773201,-1.781816,29.897982,-27.090029,9.484220,-23.385107
3.181250,104.408218,-1.785449,32.665691,-27.030886,22.822060,-23.163521
3.187500,104.320900,-1.788923,36.441883,-26.923563,35.605820,-22.996735
3.193750,102.169861,-1.792134,40.525448,-26.780437,47.348022,-22.901407
3.200000,97.717834,-1.795026,44.349720,-26.609869,57.638885,-22.879202
3.206250,90.842896,-1.797544,47.433250,-26.422947,66.085999,-22.930607
3.212500,81.543427,-1.799906,49.358204,-26.233860,72.374832,-23.064186
3.218750,69.939743,-1.802503,49.812172,-26.053101,76.284561,-23.261766
3.225000,56.270008,-1.804961,50.796108,-25.875284,77.438416,-23.468285
3.231250,40.877499,-1.806895,50.844948,-25.699738,76.010971,-23.692450
3.237500,24.187557,-1.808539,48.467579,-25.526739,74.005707,-23.925781
3.243750,6.688029,-1.810468,45.777317,-25.332155,69.838760,-24.145905
3.250000,-11.088067,-1.813004,42.639744,-25.157892,64.109238,-24.333445
3.256250,-28.590433,-1.815698,38.695267,-25.016354,57.377254,-24.487383
3.262500,-45.284389,-1.817988,34.189365,-24.890005,50.270287,-24.596855
3.268750,-60.679077,-1.819958,29.063395,-24.775253,43.485569,-24.652817
3.275000,-74.351044,-1.822056,23.195082,-24.671286,37.607849,-24.655184
3.281250,-85.960037,-1.824503,16.473335,-24.569128,33.142323,-24.611681
3.287500,-95.267181,-1.827325,8.804883,-24.455282,30.469397,-24.536337
3.293750,-102.148720,-1.830195,0.154828,-24.290703,29.851547,-24.428972
3.300000,-106.604103,-1.832980,-7.298085,-24.122780,31.453369,-24.291142
3.306250,-108.754822,-1.835479,-15.974220,-23.988195,35.251270,-24.149469
3.312500,-108.838531,-1.837759,-24.652046,-23.867294,41.059357,-24.036051
3.318750,-107.196609,-1.839849,-33.039696,-23.767998,48.615719,-23.971125
3.325000,-104.256676,-1.841776,-40.873943,-23.708347,57.583290,-23.965069
3.331250,-100.509888,-1.843333,-47.899090,-23.711832,67.529526,-24.020672
3.337500,-96.489716,-1.844498,-53.934082,-23.836376,77.938553,-24.136654
3.343750,-90.574371,-1.845285,-58.972469,-23.998894,88.267830,-24.298660
3.350000,-84.659790,-1.845734,-63.409309,-24.218386,98.011284,-24.449701
3.356250,-78.745590,-1.845861,-66.851028,-24.539282,106.898315,-24.645056
3.362500,-72.833527,-1.845837,-67.577415,-24.983580,113.966286,-24.891478
3.368750,-66.922989,-1.845526,-67.231064,-25.532581,119.312950,-25.178291
3.375000,-61.012806,-1.844648,-65.689194,-26.160130,122.462265,-25.551462
3.381250,-55.104553,-1.843384,-62.969936,-26.832241,123.176521,-25.883177
3.387500,-49.202328,-1.842514,-59.164864,-27.511055,121.961685,-26.202892
3.393750,-43.306328,-1.842484,-54.435032,-28.152170,118.155640,-26.502504
3.400000,-37.412338,-1.842769,-49.000183,-28.713579,112.200958,-26.775023
3.406250,-31.517067,-1.842890,-43.197365,-29.174427,104.978790,-27.051895
3.412500,-25.621946,-1.843158,-37.351944,-29.510359,97.035568,-27.298639
3.418750,-19.731522,-1.844334,-29.528658,-29.699909,86.908440,-27.494213
3.425000,-13.844052,-1.846494,-23.268641,-29.739073,76.799873,-27.632401
3.431250,-7.953609,-1.848796,-16.717184,-29.643843,67.076973,-27.719151
3.437500,-2.059172,-1.851001,-10.129846,-29.397438,58.150299,-27.758516
3.443750,3.834980,-1.853846,-3.530452,-28.999098,50.690048,-27.697815
3.450000,9.727416,-1.857670,2.564273,-28.493622,42.986423,-27.566790
3.456250,15.624201,-1.861668,7.988479,-27.919241,36.859165,-27.378820
3.462500,21.529520,-1.865050,12.738832,-27.319054,32.079021,-27.135704
3.468750,27.439827,-1.867801,16.903254,-26.739361,28.423626,-26.834064
3.475000,33.350456,-1.870370,20.588453,-26.244270,25.642998,-26.490864
3.481250,39.260464,-1.872808,24.049734,-25.787245,23.451555,-26.120298
3.487500,45.169716,-1.875291,26.021864,-25.396534,21.609919,-25.716816
3.493750,51.077538,-1.878179,27.891146,-25.107880,19.810795,-25.287315
3.500000,56.984615,-1.881542,29.480209,-24.925827,17.733639,-24.844122
3.506250,62.894436,-1.884616,30.685328,-24.835209,15.148194,-24.397566
3.512500,68.808601,-1.886869,31.414679,-24.803764,11.870940,-23.957302
3.518750,74.722816,-1.888952,31.645742,-24.749092,7.768968,-23.527897
3.525000,80.630508,-1.891954,31.524155,-24.731209,2.732505,-23.115360
3.531250,86.533966,-1.896019,31.636292,-24.717676,-3.365889,-22.734161
3.537500,92.439781,-1.900318,31.630621,-24.671902,-8.479488,-22.401901
3.543750,96.456543,-1.904291,31.751400,-24.584305,-14.066306,-22.113743
3.550000,100.202576,-1.908460,32.341228,-24.426807,-19.845808,-21.832787
3.556250,103.141716,-1.913320,31.840904,-24.201380,-25.343351,-21.505217
3.562500,104.785919,-1.918465,31.956650,-23.937874,-30.282681,-21.264275
3.568750,104.714211,-1.922806,32.350494,-23.663197,-33.428722,-21.094231
3.575000,102.586426,-1.925741,32.746162,-23.403477,-35.797787,-20.996813
3.581250,98.159096,-1.927620,32.859966,-23.193272,-37.123875,-20.985262
3.587500,91.306274,-1.929122,32.434071,-23.068348,-37.429886,-21.018948
3.593750,82.027863,-1.930202,31.357733,-23.018953,-36.579388,-21.121264
3.600000,70.449875,-1.930228,29.572294,-23.056021,-34.419758,-21.306440
3.606250,56.809608,-1.928916,28.925694,-23.193943,-31.112349,-21.568756
3.612500,41.442413,-1.926778,27.961744,-23.417845,-26.933735,-21.881929
3.618750,24.772034,-1.924213,27.074623,-23.745375,-22.277241,-22.220930
3.625000,7.292486,-1.921025,26.377602,-24.186058,-17.926182,-22.628204
3.631250,-10.462124,-1.916977,26.480820,-24.702465,-12.070260,-23.065071
3.637500,-27.948906,-1.912581,27.691309,-25.260059,-6.434108,-23.502750
3.643750,-44.639523,-1.908580,30.149855,-25.822243,-1.042269,-23.922497
3.650000,-60.040325,-1.905199,31.989185,-26.343822,4.012745,-24.307261
3.656250,-73.721283,-1.902412,34.771549,-26.750624,8.649817,-24.639519
3.662500,-85.340691,-1.900329,37.675171,-27.086542,12.776585,-24.913986
3.668750,-94.661194,-1.899141,41.622826,-27.331217,16.251890,-25.137241
3.675000,-101.559029,-1.898517,44.936302,-27.456472,18.987701,-25.307856
3.681250,-106.031853,-1.898008,47.350124,-27.459528,20.926922,-25.424608
3.687500,-108.202820,-1.897955,48.625011,-27.353491,21.991463,-25.490435
3.693750,-108.312538,-1.899176,48.615257,-27.164631,22.129469,-25.514240
3.700000,-106.699715,-1.901503,47.326233,-26.898531,21.345388,-25.506643
3.706250,-103.784706,-1.903972,44.916553,-26.572968,19.770691,-25.460609
3.712500,-100.058228,-1.906170,41.366344,-26.226772,17.619778,-25.370258
3.718750,-96.058182,-1.908742,34.970028,-25.887131,15.042368,-25.240374
3.725000,-90.164909,-1.911989,27.649984,-25.569288,12.366621,-25.087675
3.731250,-84.269775,-1.915241,19.130993,-25.318300,10.201184,-24.950367
3.737500,-78.369492,-1.918049,11.351841,-25.156971,8.957705,-24.840872
3.743750,-72.467094,-1.920624,3.058488,-25.070679,9.046279,-24.781424
3.750000,-66.565788,-1.923230,-5.199016,-25.046762,9.065877,-24.686966
3.756250,-60.666008,-1.925819,-13.027406,-25.081169,8.995425,-24.577662
3.762500,-54.764847,-1.928239,-20.007315,-25.153122,10.160443,-24.454432
3.768750,-48.863930,-1.930640,-25.698996,-25.226646,12.310349,-24.366697
3.775000,-42.964447,-1.933369,-29.872442,-25.312311,14.979070,-24.302734
3.781250,-37.065365,-1.936135,-32.422497,-25.397869,17.567085,-24.247255
3.787500,-31.164946,-1.938599,-32.998131,-25.462656,19.714783,-24.193110
3.793750,-25.264502,-1.941118,-31.515621,-25.519705,21.115990,-24.144075
3.800000,-19.366224,-1.944067,-27.992279,-25.518122,21.576956,-24.091562
3.806250,-13.468750,-1.947326,-23.594149,-25.428198,21.109165,-23.999315
3.812500,-7.569811,-1.950738,-17.679052,-25.291702,19.571306,-23.877098
3.818750,-1.670457,-1.954498,-10.834922,-25.125521,16.851568,-23.735493
3.825000,4.229595,-1.958593,-3.664232,-24.943737,13.084184,-23.580214
3.831250,10.133732,-1.962381,5.401761,-24.761002,8.541440,-23.422037
3.837500,16.041441,-1.965610,14.446064,-24.591600,3.542179,-23.298655
3.843750,21.948521,-1.968939,23.512239,-24.431124,-1.576098,-23.162378
3.850000,27.852850,-1.972790,30.794399,-24.273762,-7.502819,-22.997726
3.856250,33.758461,-1.976471,37.852158,-24.129362,-13.043321,-22.843534
3.862500,39.668228,-1.979428,44.146549,-23.996250,-18.176214,-22.707743
3.868750,45.577232,-1.982249,49.244946,-23.861551,-22.878565,-22.587112
3.875000,51.479568,-1.986180,52.741772,-23.703091,-27.177240,-22.470886
3.881250,57.378250,-1.991321,54.216572,-23.526150,-31.143269,-22.343628
3.887500,63.280773,-1.996563,53.228790,-23.332800,-34.960941,-22.209938
3.893750,69.189934,-2.001374,49.696369,-23.104927,-38.885475,-22.074665
3.900000,75.100456,-2.006410,45.707626,-22.831951,-43.048183,-21.930725
3.906250,81.008095,-2.012528,39.853016,-22.513962,-45.751804,-21.775928
3.912500,86.916100,-2.019661,32.667980,-22.153076,-48.864647,-21.605835
3.918750,92.830757,-2.027146,24.701025,-21.755915,-52.097153,-21.407537
3.925000,96.859276,-2.034405,16.421619,-21.349598,-55.207726,-21.154171
3.931250,100.622635,-2.041301,8.281244,-20.958675,-58.263313,-20.935778
3.937500,103.586899,-2.047762,0.833448,-20.603521,-59.061462,-20.747910
3.943750,105.259369,-2.053556,-5.472245,-20.307177,-58.677765,-20.598862
3.950000,105.214302,-2.058217,-10.300360,-20.091520,-56.647255,-20.502306
3.956250,103.110168,-2.061158,-13.423550,-19.974777,-52.616791,-20.473965
3.962500,98.707520,-2.062404,-14.697145,-19.966986,-46.334309,-20.525492
3.968750,91.880623,-2.062218,-14.054482,-20.065605,-37.660904,-20.665480
3.975000,82.626900,-2.060719,-13.404546,-20.238708,-26.601295,-20.904362
3.981250,71.067268,-2.057921,-11.211582,-20.532557,-13.320941,-21.264269
3.987500,57.437199,-2.053996,-6.866246,-20.934040,0.585770,-21.670296
3.993750,42.075077,-2.049249,-1.584060,-21.399008,15.751011,-22.176876
4.000000,25.407732,-2.043888,3.984415,-21.923622,31.383686,-22.792532
4.006250,7.927272,-2.037845,9.491966,-22.491583,46.624474,-23.547289
4.012500,-9.835912,-2.031664,14.669136,-23.075142,60.390484,-24.298706
4.018750,-27.337545,-2.026193,19.266809,-23.641537,73.378090,-25.022949
4.025000,-44.043900,-2.021631,22.997442,-24.175123,83.622551,-25.758480
4.031250,-59.457935,-2.017570,27.724915,-24.665838,92.032387,-26.507513
4.037500,-73.151123,-2.014089,30.080160,-25.092459,97.732170,-27.216879
4.043750,-84.785583,-2.011872,32.106548,-25.442013,101.006920,-27.857433
4.050000,-94.122536,-2.011092,33.658978,-25.714020,102.250977,-28.412867
4.056250,-101.034309,-2.010690,34.670475,-25.899035,101.992889,-28.873407
4.062500,-105.518234,-2.010062,35.217148,-25.979067,99.033600,-29.206303
4.068750,-107.702599,-2.010245,35.248878,-25.971094,95.768219,-29.398275
4.075000,-107.828995,-2.012411,34.785793,-25.892250,92.260841,-29.456768
4.081250,-106.231728,-2.015882,34.008625,-25.756262,88.736931,-29.385988
4.087500,-103.327370,-2.019147,33.172661,-25.571939,83.360939,-29.186878
4.093750,-99.609253,-2.021784,32.577480,-25.348030,77.860184,-28.865652
4.100000,-95.618622,-2.024694,30.642063,-25.098963,72.091019,-28.442932
4.106250,-89.737244,-2.028523,29.362436,-24.830025,65.959976,-27.957287
4.112500,-83.855927,-2.032837,28.647345,-24.533922,59.549706,-27.366068
4.118750,-77.971283,-2.037466,28.235518,-24.227142,53.030067,-26.705360
4.125000,-72.085167,-2.042680,27.831408,-23.924938,46.136829,-26.015627
4.131250,-66.197891,-2.048486,27.262037,-23.636818,39.021526,-25.326767
4.137500,-60.305614,-2.054327,26.412640,-23.366091,31.884295,-24.661257
4.143750,-54.407333,-2.059845,25.194679,-23.112165,24.937399,-24.036827
4.150000,-48.506268,-2.065379,23.524057,-22.874004,18.371063,-23.465775
4.156250,-42.605141,-2.071247,23.495647,-22.647730,12.357607,-22.948214
4.162500,-36.702736,-2.077463,23.700520,-22.422199,7.042777,-22.505022
4.168750,-30.796694,-2.083748,22.725487,-22.186459,4.134361,-22.125778
4.175000,-24.886793,-2.090151,22.426023,-21.959759,1.059432,-21.816557
4.181250,-18.973297,-2.096438,22.613237,-21.746874,-0.460221,-21.568939
4.187500,-13.055120,-2.102355,23.087719,-21.552193,-0.545719,-21.323650
4.193750,-7.132342,-2.107892,23.628586,-21.381884,0.866908,-21.189857
4.200000,-1.206150,-2.112816,24.004833,-21.243301,1.846974,-21.139721
4.206250,4.723757,-2.116818,24.001978,-21.143579,3.083051,-21.151260
4.212500,10.656107,-2.119704,23.457052,-21.079559,5.601683,-21.181410
4.218750,16.587454,-2.121858,24.431469,-21.039993,7.170882,-21.234825
4.225000,22.514898,-2.123765,23.519096,-21.020838,7.782216,-21.311605
4.231250,28.438440,-2.125542,22.697948,-21.010410,7.289358,-21.397373
4.237500,34.359821,-2.127016,21.759277,-21.008104,5.519939,-21.469849
4.243750,40.278934,-2.128246,20.372622,-21.030462,4.389395,-21.538385
4.250000,46.196869,-2.129137,18.374153,-21.062515,2.283295,-21.601997
4.256250,52.112339,-2.129597,15.618322,-21.086878,-0.279676,-21.644464
4.262500,58.023857,-2.130140,11.872259,-21.088879,-2.882742,-21.654278
4.268750,63.927799,-2.131469,6.934588,-21.057795,-5.171929,-21.621557
4.275000,69.825424,-2.133972,0.627350,-20.986357,-6.833368,-21.539206
4.281250,75.722427,-2.137051,-5.045501,-20.862537,-7.592853,-21.394899
4.287500,81.621513,-2.140521,-11.610946,-20.683722,-7.252647,-21.160524
4.293750,87.519958,-2.145218,-18.816507,-20.473200,-5.907853,-20.905991
4.300000,93.417694,-2.151255,-26.289999,-20.232578,-3.829394,-20.633692
4.306250,97.427643,-2.157495,-33.589695,-19.965431,-0.819611,-20.341040
4.312500,101.176300,-2.162850,-40.397320,-19.682688,2.914694,-20.037781
4.318750,104.125816,-2.167756,-46.441376,-19.398964,7.110688,-19.737480
4.325000,105.776260,-2.173240,-51.519363,-19.135847,11.464350,-19.457830
4.331250,105.703186,-2.179055,-55.484112,-18.916540,15.668013,-19.213367
4.337500,103.572746,-2.184227,-58.236446,-18.793158,19.449755,-19.006649
4.343750,99.148766,-2.188214,-59.791527,-18.663136,22.589214,-18.780025
4.350000,92.304977,-2.191331,-59.151787,-18.608500,24.590591,-18.658766
4.356250,83.039429,-2.193371,-57.211269,-18.662521,27.149225,-18.622187
4.362500,71.474136,-2.193826,-53.764782,-18.823961,29.013077,-18.681156
4.368750,57.843658,-2.193082,-48.900490,-19.084414,30.532209,-18.862835
4.375000,42.482349,-2.191915,-42.822891,-19.430208,31.946711,-19.104950
4.381250,25.817719,-2.190268,-35.804771,-19.839693,33.317047,-19.391523
4.387500,8.346376,-2.187460,-28.171227,-20.286289,35.444725,-19.729982
4.393750,-9.400998,-2.183779,-20.339184,-20.753361,36.648113,-20.147858
4.400000,-26.884727,-2.180391,-12.766285,-21.228437,38.485878,-20.620823
4.406250,-43.571926,-2.177439,-3.659239,-21.693390,40.539417,-21.122730
4.412500,-58.964390,-2.174053,3.398372,-22.134802,42.517094,-21.635073
4.418750,-72.634201,-2.170407,10.247271,-22.545841,44.206509,-22.144157
4.425000,-84.246483,-2.167389,16.716539,-22.865446,45.527634,-22.601593
4.431250,-93.564781,-2.165379,22.630919,-23.092958,46.483921,-22.980478
4.437500,-100.461464,-2.163744,27.600893,-23.240398,46.850845,-23.277008
4.443750,-104.934654,-2.162291,31.580206,-23.315245,46.627041,-23.484505
4.450000,-107.110161,-2.161893,34.636688,-23.319429,45.942871,-23.595390
4.456250,-107.225731,-2.163005,36.899666,-23.258018,44.969368,-23.608688
4.462500,-105.615776,-2.164874,38.570282,-23.141172,43.886620,-23.530195
4.468750,-102.703255,-2.167035,39.937080,-22.988729,42.920017,-23.382227
4.475000,-98.983772,-2.169999,39.484245,-22.799719,42.366756,-23.149576
4.481250,-94.991203,-2.173794,39.382236,-22.567186,40.950069,-22.820112
4.487500,-89.098122,-2.177574,39.290108,-22.323923,40.199242,-22.439816
4.493750,-83.199936,-2.181108,39.016861,-22.091703,39.816788,-22.038403
4.500000,-77.302864,-2.185575,38.497299,-21.881844,39.584003,-21.637011
4.506250,-71.408569,-2.191616,37.705982,-21.694559,39.291050,-21.250320
4.512500,-65.508980,-2.198130,36.636456,-21.517059,38.716236,-20.887825
4.518750,-59.596260,-2.203556,35.288563,-21.289011,37.611557,-20.559069
4.525000,-53.674767,-2.208097,33.685459,-21.108824,35.655758,-20.300392
4.531250,-47.754311,-2.212924,32.916687,-20.976528,32.396221,-20.098206
4.537500,-41.835800,-2.218372,32.477692,-20.847284,29.199478,-19.931377
4.543750,-35.911686,-2.223564,30.964947,-20.711267,24.565495,-19.810701
4.550000,-29.978951,-2.227803,30.089050,-20.596201,18.816809,-19.711187
4.556250,-24.041155,-2.231149,29.564993,-20.524260,12.363598,-19.695446
4.562500,-18.101959,-2.233945,29.177010,-20.514519,5.907968,-19.778229
4.568750,-12.162000,-2.236235,28.702675,-20.592785,-0.575452,-19.956739
4.575000,-6.219395,-2.237714,27.916700,-20.817196,-6.910410,-20.177202
4.581250,-0.273896,-2.237966,26.648373,-21.102880,-12.754097,-20.452602
4.587500,5.672238,-2.236911,23.591063,-21.473661,-17.611069,-20.795269
4.593750,11.616635,-2.234910,21.647379,-21.948044,-21.299381,-21.197090
4.600000,17.556814,-2.232114,18.945339,-22.530525,-23.768539,-21.637396
4.606250,23.493233,-2.228263,15.355412,-23.277205,-25.161943,-22.128454
4.612500,29.424770,-2.223469,11.767638,-24.063091,-25.743404,-22.659735
4.618750,35.346600,-2.218734,7.593853,-24.917936,-25.584187,-23.209473
4.625000,41.256302,-2.214784,3.151078,-25.821556,-24.961687,-23.761591
4.631250,47.159943,-2.211007,-1.274144,-26.740633,-24.197165,-24.303354
4.637500,53.062634,-2.206363,-5.420784,-27.632740,-23.651806,-24.816900
4.643750,58.960514,-2.201471,-9.040070,-28.445728,-23.691044,-25.266979
4.650000,64.844528,-2.197889,-13.824271,-29.119547,-24.662373,-25.606176
4.656250,70.714401,-2.196389,-15.907537,-29.626900,-26.950064,-25.843029
4.662500,76.578903,-2.196508,-17.341234,-29.961361,-29.126175,-25.998079
4.668750,82.442291,-2.197858,-17.988335,-30.093121,-32.571423,-26.045097
4.675000,88.305443,-2.200732,-17.871107,-30.010378,-37.054916,-25.976091
4.681250,94.169373,-2.204947,-17.119886,-29.716486,-42.371151,-25.792229
4.687500,98.143204,-2.209888,-15.936183,-29.235615,-48.299149,-25.504765
4.693750,101.847618,-2.215757,-14.562329,-28.606844,-54.570656,-25.125282
4.700000,104.745995,-2.223620,-13.289907,-27.858360,-60.842949,-24.656296
4.706250,106.349693,-2.233157,-12.616531,-26.992119,-66.750359,-24.090021
4.712500,106.242874,-2.242574,-12.775749,-26.049576,-71.848824,-23.481356
4.718750,104.087814,-2.250666,-14.116947,-25.108566,-77.552231,-22.885330
