Anritsu VNA Frequency[GHz],S21[deg],S21[dB],S11[deg],S11[dB],S22[deg],S22[dB]
1338052369.77,2012_05_26_18:12:49,+65.465,+191.07,+177.65,+191.41,+197.18,+199.29,+193.39,+194.96,175.649338,-5.524
3.006250,48.073498,-2.532577,72.453323,-27.752382,-74.621719,-28.680750
3.012500,48.073498,-2.532577,72.453323,-27.752382,-74.621719,-28.680750
3.018750,48.073498,-2.532577,72.453323,-27.752382,-74.621719,-28.680750
3.025000,48.073498,-2.532577,72.453323,-27.752382,-74.621719,-28.680750
3.031250,48.073498,-2.532577,72.453323,-27.752382,-74.621719,-28.680750
3.037500,48.073498,-2.532577,72.453323,-27.752382,-74.621719,-28.680750
3.043750,48.073498,-2.532577,72.453323,-27.752382,-74.621719,-28.680750
3.050000,48.073498,-2.532577,72.453323,-27.752382,-74.621719,-28.680750
3.056250,48.073498,-2.532577,72.453323,-27.752382,-74.621719,-28.680750
3.062500,48.073498,-2.532577,72.453323,-27.752382,-74.621719,-28.680750
3.068750,48.073498,-2.532577,72.453323,-27.752382,-74.621719,-28.680750
3.075000,48.073498,-2.532577,72.453323,-27.752382,-74.621719,-28.680750
3.081250,48.073498,-2.532577,72.453323,-27.752382,-74.621719,-28.680750
3.087500,48.073498,-2.532577,72.453323,-27.752382,-74.621719,-28.680750
3.093750,48.073498,-2.534790,72.453323,-27.555559,-74.621719,-28.531931
3.100000,54.011932,-2.537441,68.464088,-27.373995,-75.063492,-28.354057
3.106250,59.949944,-2.540297,63.556797,-27.230518,-74.706192,-28.148024
3.112500,65.889168,-2.543235,56.389423,-27.143433,-73.274132,-27.904364
3.118750,71.828270,-2.546309,49.112850,-27.137560,-70.547310,-27.596565
3.125000,77.766724,-2.549580,42.069653,-27.112644,-66.444641,-27.248060
3.131250,83.704346,-2.552962,35.452869,-27.105844,-61.049873,-26.868734
3.137500,89.641281,-2.556676,29.170626,-27.130188,-54.079315,-26.445950
3.143750,95.576714,-2.560931,23.504419,-27.185793,-45.543880,-25.988144
3.150000,99.617577,-2.565601,18.739479,-27.263020,-37.446705,-25.511265
3.156250,103.387787,-2.570164,15.122183,-27.349573,-28.304819,-25.036932
3.162500,106.354630,-2.574512,12.846931,-27.430887,-18.825451,-24.588947
3.168750,108.024162,-2.578826,12.052953,-27.491774,-9.693908,-24.197937
3.175000,107.968140,-2.583352,12.848927,-27.512941,-1.533565,-23.902523
3.181250,105.846481,-2.587996,13.511889,-27.478777,5.395786,-23.624201
3.187500,101.424065,-2.592508,15.820150,-27.398226,10.683860,-23.394533
3.193750,94.579483,-2.596836,19.077374,-27.275362,13.861949,-23.239628
3.200000,85.312309,-2.600923,22.661163,-27.114439,14.984041,-23.173733
3.206250,73.743881,-2.604633,26.073542,-26.922474,14.083879,-23.192543
3.212500,60.110363,-2.608048,28.875685,-26.710360,11.307994,-23.297602
3.218750,44.750957,-2.611558,30.692160,-26.490808,6.948936,-23.508781
3.225000,28.093018,-2.615021,33.418846,-26.269173,1.267484,-23.743307
3.231250,10.630815,-2.618088,35.520859,-26.043962,-5.750589,-23.994923
3.237500,-7.103095,-2.620724,35.443985,-25.819824,-13.271419,-24.270960
3.243750,-24.565922,-2.623421,35.153755,-25.592817,-21.051962,-24.556034
3.250000,-41.226604,-2.626612,34.469906,-25.356403,-27.021605,-24.827847
3.256250,-56.589886,-2.630079,33.050243,-25.153774,-32.712872,-25.070616
3.262500,-70.225601,-2.633293,30.693735,-24.980585,-37.551632,-25.274572
3.268750,-81.793610,-2.636073,27.399412,-24.829067,-40.990616,-25.427923
3.275000,-91.059738,-2.638782,23.006727,-24.698051,-42.569424,-25.522440
3.281250,-97.904633,-2.641864,17.355169,-24.580984,-41.968334,-25.555874
3.287500,-102.327057,-2.645401,10.309699,-24.467916,-39.029808,-25.531277
3.293750,-104.445717,-2.649113,3.960772,-24.341349,-33.772949,-25.451185
3.300000,-104.496407,-2.652730,-3.081075,-24.157673,-26.338957,-25.315176
3.306250,-102.819923,-2.656111,-10.661320,-24.014435,-17.002974,-25.138004
3.312500,-99.843857,-2.659307,-18.475876,-23.884441,-6.187463,-24.943268
3.318750,-96.061691,-2.662477,-25.885490,-23.762247,5.568574,-24.755402
3.325000,-92.006157,-2.665535,-32.625317,-23.655863,17.683666,-24.592676
3.331250,-86.054314,-2.668342,-38.480427,-23.578440,31.729168,-24.465517
3.337500,-80.100975,-2.670682,-43.282955,-23.554096,45.734478,-24.381258
3.343750,-74.146881,-2.672596,-46.935074,-23.628901,59.606445,-24.341177
3.350000,-68.193039,-2.674154,-49.398849,-23.744551,71.378464,-24.329311
3.356250,-62.239689,-2.675397,-51.599503,-23.906778,82.592476,-24.310030
3.362500,-56.287510,-2.676388,-50.849689,-24.166893,92.311531,-24.368240
3.368750,-50.336784,-2.677094,-48.982990,-24.536516,99.875092,-24.485697
3.375000,-44.386795,-2.677259,-45.936855,-25.003807,104.993195,-24.668211
3.381250,-38.438057,-2.676901,-41.766102,-25.545732,107.281425,-24.926640
3.387500,-32.493736,-2.676536,-36.625626,-26.133202,106.787971,-25.190435
3.393750,-26.555424,-2.676755,-30.740137,-26.731087,103.408241,-25.468719
3.400000,-20.620462,-2.677377,-24.371723,-27.299614,97.164009,-25.721514
3.406250,-14.686159,-2.677899,-17.852890,-27.808998,88.649017,-26.006241
3.412500,-8.751906,-2.678404,-11.558831,-28.237501,79.001778,-26.306599
3.418750,-2.821417,-2.679475,-5.508092,-28.560873,68.633675,-26.586887
3.425000,3.105283,-2.681498,0.297881,-28.763968,58.492271,-26.831024
3.431250,9.032507,-2.683887,5.579197,-28.842949,47.410500,-27.032597
3.437500,14.963132,-2.686132,10.109492,-28.801476,37.747665,-27.195286
3.443750,20.894171,-2.688729,13.817047,-28.616911,30.004662,-27.285685
3.450000,26.822937,-2.692296,16.610584,-28.307644,22.778898,-27.294731
3.456250,32.753010,-2.696411,18.347075,-27.904587,17.768787,-27.234892
3.462500,38.689976,-2.700150,19.129848,-27.441656,14.613576,-27.110250
3.468750,44.632931,-2.703229,19.203863,-26.954987,12.971478,-26.920107
3.475000,50.576908,-2.706057,18.872732,-26.483471,12.491798,-26.670498
3.481250,56.518967,-2.708945,18.482389,-26.068007,12.775510,-26.376188
3.487500,62.460209,-2.712044,16.746756,-25.670706,13.415172,-26.038712
3.493750,68.400719,-2.715462,15.706858,-25.330391,14.010528,-25.658764
3.500000,74.341148,-2.719232,15.032288,-25.071884,14.134638,-25.247637
3.506250,80.283691,-2.723016,14.673574,-24.898409,13.423049,-24.817177
3.512500,86.229500,-2.726146,14.603563,-24.799692,11.590855,-24.379877
3.518750,92.176895,-2.728917,14.791354,-24.744705,8.433329,-23.944304
3.525000,96.225189,-2.732282,15.210167,-24.666458,3.813929,-23.517416
3.531250,99.995537,-2.736721,15.808531,-24.604565,-0.202652,-23.111053
3.537500,102.960785,-2.741709,17.518103,-24.550262,-5.037420,-22.740425
3.543750,104.633514,-2.746414,19.670731,-24.469013,-10.220890,-22.426006
3.550000,104.585747,-2.751037,22.421463,-24.350365,-15.371585,-22.152067
3.556250,102.472229,-2.756130,24.103745,-24.174410,-20.296566,-21.883522
3.562500,98.057343,-2.761638,26.475288,-23.951296,-24.511608,-21.622766
3.568750,91.224648,-2.766768,28.991627,-23.706686,-28.164267,-21.452587
3.575000,81.977348,-2.770780,31.217876,-23.466108,-31.282839,-21.368382
3.581250,70.432564,-2.773641,32.760799,-23.260178,-33.871075,-21.388647
3.587500,56.823208,-2.775845,33.267582,-23.122566,-34.380562,-21.497061
3.593750,41.487541,-2.777675,32.480232,-23.077749,-35.240974,-21.658840
3.600000,24.855631,-2.778750,32.486782,-23.116787,-35.914871,-21.906158
3.606250,7.421526,-2.778504,31.783545,-23.252741,-36.342216,-22.240417
3.612500,-10.285200,-2.777211,30.683184,-23.492804,-36.597851,-22.643082
3.618750,-27.722977,-2.775399,29.600681,-23.830227,-36.822994,-23.080761
3.625000,-44.359123,-2.773078,28.832041,-24.286331,-37.308746,-23.562523
3.631250,-59.699718,-2.769943,28.696180,-24.842470,-36.284725,-24.078424
3.637500,-73.319450,-2.766261,29.601534,-25.463388,-35.156944,-24.595104
3.643750,-84.881653,-2.762716,29.855227,-26.111612,-33.631245,-25.086601
3.650000,-94.150169,-2.759813,31.139189,-26.746157,-31.548899,-25.532448
3.656250,-101.001007,-2.757515,32.878185,-27.316189,-28.822487,-25.913591
3.662500,-105.431831,-2.755828,34.415886,-27.766132,-25.408781,-26.215330
3.668750,-107.564423,-2.754954,36.990284,-28.126945,-21.351730,-26.435530
3.675000,-107.634636,-2.754910,38.509537,-28.364500,-16.778107,-26.578566
3.681250,-105.980759,-2.755374,39.034306,-28.457945,-11.833840,-26.644716
3.687500,-103.029610,-2.756288,38.444324,-28.406116,-6.705784,-26.636621
3.693750,-99.275589,-2.758259,36.660347,-28.225037,-1.633049,-26.561636
3.700000,-95.251556,-2.761518,33.671444,-27.951965,3.131551,-26.433638
3.706250,-89.330414,-2.765347,29.619856,-27.594051,7.374282,-26.265789
3.712500,-83.403069,-2.769042,24.915386,-27.162189,10.975162,-26.056778
3.718750,-77.472893,-2.772791,17.659195,-26.708544,13.856377,-25.808477
3.725000,-71.543167,-2.777162,9.737876,-26.268768,15.937254,-25.522491
3.731250,-65.612831,-2.781826,0.990808,-25.868256,17.362741,-25.230310
3.737500,-59.677090,-2.786098,-6.604127,-25.549603,18.591484,-24.975662
3.743750,-53.736561,-2.789891,-14.498640,-25.329521,19.740921,-24.767832
3.750000,-47.794861,-2.793456,-22.104053,-25.200466,21.182110,-24.606573
3.756250,-41.854256,-2.796815,-28.946970,-25.155161,21.710396,-24.442686
3.762500,-35.912807,-2.799809,-34.662277,-25.180723,23.314989,-24.272791
3.768750,-29.971130,-2.802581,-38.894051,-25.249018,23.729301,-24.120644
3.775000,-24.030464,-2.805447,-41.375313,-25.334244,24.867195,-24.030640
3.781250,-18.090637,-2.808339,-42.064487,-25.441710,25.943190,-23.974684
3.787500,-12.150270,-2.810926,-40.871834,-25.550903,26.595512,-23.938650
3.793750,-6.209753,-2.813288,-39.569813,-25.646368,26.580460,-23.918800
3.800000,-0.271025,-2.815875,-36.592876,-25.737726,25.725391,-23.914034
3.806250,5.665434,-2.818789,-32.448658,-25.740698,24.002737,-23.901028
3.812500,11.601842,-2.821937,-27.645254,-25.674744,21.484806,-23.859293
3.818750,17.538397,-2.825349,-23.202778,-25.562714,18.097797,-23.795248
3.825000,23.474073,-2.829220,-17.497215,-25.419205,13.913158,-23.712225
3.831250,29.411547,-2.833191,-12.332181,-25.256830,9.176433,-23.614077
3.837500,35.351933,-2.836854,-7.558445,-25.088812,4.221696,-23.510691
3.843750,41.293713,-2.840436,-2.974438,-24.926167,-0.590563,-23.426125
3.850000,47.233948,-2.844378,1.697292,-24.764608,-4.771766,-23.312958
3.856250,53.173679,-2.848510,4.828252,-24.606239,-9.583719,-23.175327
3.862500,59.115917,-2.852163,8.210810,-24.458662,-13.379507,-23.038305
3.868750,65.059059,-2.855549,11.521053,-24.320559,-16.303688,-22.909157
3.875000,70.998177,-2.859636,14.472690,-24.180492,-18.484732,-22.787390
3.881250,76.933014,-2.864907,16.799444,-24.008253,-20.087458,-22.663752
3.887500,82.869240,-2.870620,18.165222,-23.810762,-21.335657,-22.529284
3.893750,88.811714,-2.875942,18.014664,-23.602736,-22.556717,-22.389967
3.900000,94.758156,-2.881082,18.478342,-23.361269,-24.096731,-22.248243
3.906250,98.807808,-2.886995,18.022203,-23.077366,-26.233887,-22.101511
3.912500,102.582108,-2.894008,16.939398,-22.750061,-29.273340,-21.946802
3.918750,105.554329,-2.901756,15.520591,-22.382133,-33.524281,-21.777870
3.925000,107.235840,-2.909540,13.986164,-21.986464,-37.387726,-21.582735
3.931250,107.200638,-2.917019,12.499233,-21.585304,-42.783352,-21.359089
3.937500,105.106316,-2.924151,11.216455,-21.200686,-47.499268,-21.163969
3.943750,100.714241,-2.930990,10.304289,-20.854063,-52.540001,-21.000322
3.950000,93.903961,-2.937187,9.874308,-20.565887,-56.972610,-20.874025
3.956250,84.676468,-2.942086,9.961543,-20.355219,-60.064476,-20.796906
3.962500,73.152061,-2.945375,10.549552,-20.235489,-61.186214,-20.780821
3.968750,59.564407,-2.947216,11.602693,-20.212362,-61.709911,-20.835468
3.975000,44.250404,-2.947854,13.338022,-20.277512,-59.631672,-20.969801
3.981250,27.636120,-2.947311,15.939343,-20.397058,-55.256397,-21.207418
3.987500,10.212957,-2.945658,19.092134,-20.640591,-48.990509,-21.501978
3.993750,-7.487958,-2.942944,22.437469,-20.969250,-41.053925,-21.870005
4.000000,-24.921471,-2.939503,26.107685,-21.360132,-32.445316,-22.328514
4.006250,-41.555191,-2.935268,29.757236,-21.804523,-23.669199,-22.882580
4.012500,-56.897984,-2.930406,33.142460,-22.286697,-15.271029,-23.557461
4.018750,-70.524849,-2.925605,36.085072,-22.784121,-7.889933,-24.239201
4.025000,-82.096298,-2.921363,38.420773,-23.272938,-2.694678,-24.893902
4.031250,-91.373047,-2.917640,38.057396,-23.743727,2.139836,-25.569790
4.037500,-98.230537,-2.914289,38.616119,-24.185844,6.177362,-26.257456
4.043750,-102.669640,-2.911765,38.174065,-24.583305,8.311842,-26.919916
4.050000,-104.811531,-2.910389,36.732834,-24.927576,9.081092,-27.532894
4.056250,-104.889824,-2.909600,34.336693,-25.216000,9.044081,-28.078983
4.062500,-103.241608,-2.908806,31.153595,-25.430359,6.926096,-28.541222
4.068750,-100.297302,-2.908375,27.446711,-25.561983,5.050975,-28.891870
4.075000,-96.554565,-2.909531,23.368685,-25.623829,3.529457,-29.119497
4.081250,-92.543304,-2.912358,19.201334,-25.626419,2.414676,-29.222857
4.087500,-86.633522,-2.915653,15.333884,-25.575975,1.839547,-29.199829
4.093750,-80.714935,-2.918436,10.299222,-25.475985,1.983177,-29.049181
4.100000,-74.793953,-2.921064,6.138284,-25.332928,3.025390,-28.777805
4.106250,-68.877205,-2.924524,2.730676,-25.153131,2.958737,-28.404755
4.112500,-62.963711,-2.928914,-0.009557,-24.939249,3.303497,-27.956360
4.118750,-57.048157,-2.933871,-2.159786,-24.689894,3.856866,-27.401817
4.125000,-51.129303,-2.939218,-3.885535,-24.414438,4.299426,-26.775904
4.131250,-45.208401,-2.945093,-5.369595,-24.125158,4.130216,-26.117023
4.137500,-39.284325,-2.951312,-6.735740,-23.830536,3.140154,-25.453823
4.143750,-33.355068,-2.957439,-8.064375,-23.534981,1.212693,-24.808336
4.150000,-27.421600,-2.963519,-9.435870,-23.241488,0.452905,-24.197510
4.156250,-21.486168,-2.969838,-8.772559,-22.952261,-0.517865,-23.630411
4.162500,-15.549555,-2.976521,-7.521416,-22.667538,-1.177081,-23.092382
4.168750,-9.609952,-2.983387,-7.177121,-22.387856,-1.114155,-22.663485
4.175000,-3.666486,-2.990486,-5.757996,-22.106339,-2.018726,-22.290668
4.181250,2.280799,-2.997563,-3.574739,-21.835596,-1.575876,-21.986387
4.187500,8.232794,-3.004414,-0.986952,-21.586727,-0.233774,-21.746689
4.193750,14.189729,-3.010907,1.691397,-21.367771,1.734846,-21.520895
4.200000,20.150784,-3.016899,4.140564,-21.186535,4.152595,-21.391888
4.206250,26.115002,-3.022173,6.046982,-21.050360,7.468609,-21.363827
4.212500,32.082150,-3.026381,9.303174,-20.964594,8.709985,-21.419239
4.218750,38.049988,-3.029728,12.341183,-20.923691,10.617417,-21.481133
4.225000,44.015514,-3.032603,15.498614,-20.917774,11.169268,-21.577225
4.231250,49.977283,-3.035220,17.148575,-20.938086,10.384263,-21.708729
4.237500,55.936287,-3.037582,19.141842,-20.972218,8.135284,-21.862169
4.243750,61.893250,-3.039520,21.081900,-21.027245,6.456696,-22.023216
4.250000,67.849197,-3.041001,22.509180,-21.106695,3.820387,-22.192327
4.256250,73.803352,-3.041972,23.140347,-21.192240,0.660818,-22.359907
4.262500,79.753563,-3.042727,22.636467,-21.267250,-2.522856,-22.510620
4.268750,85.697670,-3.043784,20.649122,-21.318041,-5.299449,-22.628469
4.275000,91.634430,-3.045751,19.047981,-21.336851,-7.300402,-22.700531
4.281250,95.672783,-3.048514,16.204809,-21.315487,-8.222726,-22.715321
4.287500,99.438316,-3.051656,12.401203,-21.244102,-7.827960,-22.654949
4.293750,102.397903,-3.055598,7.883476,-21.122684,-6.011238,-22.501900
4.300000,104.057274,-3.060883,2.851187,-20.962311,-3.000848,-22.309059
4.306250,103.993309,-3.067085,-2.420331,-20.766438,1.019896,-22.073160
4.312500,101.872238,-3.073040,-7.649152,-20.540184,6.024791,-21.793276
4.318750,97.457146,-3.078450,-12.605469,-20.291609,11.720552,-21.477518
4.325000,90.618782,-3.084205,-17.112061,-20.034794,17.742676,-21.140659
4.331250,81.355156,-3.090760,-21.039516,-19.787123,23.690350,-20.800163
4.337500,69.793724,-3.097461,-24.281567,-19.567623,29.179651,-20.470150
4.343750,56.176418,-3.103400,-26.784111,-19.415379,33.849079,-20.156717
4.350000,40.841656,-3.108442,-26.348225,-19.280121,37.384281,-19.848476
4.356250,24.212666,-3.112759,-25.750116,-19.195328,41.399658,-19.621222
4.362500,6.781766,-3.115891,-23.639107,-19.201763,44.290344,-19.478598
4.368750,-10.918300,-3.117755,-19.955620,-19.304417,46.512741,-19.439806
4.375000,-28.345745,-3.118737,-14.809286,-19.500280,48.420143,-19.564360
4.381250,-44.971115,-3.119164,-8.417637,-19.779297,50.274891,-19.737295
4.387500,-60.299664,-3.118541,-1.063072,-20.123507,51.878922,-19.972692
4.393750,-73.902893,-3.116666,6.897052,-20.513268,54.246811,-20.270649
4.400000,-85.445923,-3.114284,15.031117,-20.934111,55.837486,-20.689632
4.406250,-94.694305,-3.112024,21.003786,-21.373032,58.022297,-21.184021
4.412500,-101.523888,-3.109438,28.214890,-21.813711,60.359825,-21.723413
4.418750,-105.931427,-3.106165,34.447174,-22.240263,62.588478,-22.283371
4.425000,-108.041580,-3.102756,39.441681,-22.632528,64.516266,-22.839264
4.431250,-108.095627,-3.100015,43.117550,-22.948299,66.062828,-23.345449
4.437500,-106.431526,-3.097774,45.359570,-23.182816,67.159554,-23.775061
4.443750,-103.472847,-3.095676,46.099682,-23.340975,67.656090,-24.116171
4.450000,-99.713371,-3.094326,45.507236,-23.423391,67.570541,-24.355701
4.456250,-95.688774,-3.094560,43.865543,-23.428957,67.023613,-24.484184
4.462500,-89.773628,-3.096153,41.544556,-23.360483,66.167969,-24.497633
4.468750,-83.855309,-3.098336,39.001179,-23.225470,65.194389,-24.398916
4.475000,-77.933517,-3.100995,34.844929,-23.040956,64.331207,-24.205923
4.481250,-72.012100,-3.104529,31.248587,-22.813166,63.882999,-23.914719
4.487500,-66.089485,-3.108856,28.298050,-22.541693,62.456680,-23.518486
4.493750,-60.162823,-3.113320,25.885036,-22.252867,61.727962,-23.060289
4.500000,-54.233948,-3.118413,23.921120,-21.970011,61.357674,-22.574535
4.506250,-48.305893,-3.124919,22.402090,-21.707556,61.111412,-22.088125
4.512500,-42.374557,-3.132358,21.334042,-21.469984,60.769581,-21.621723
4.518750,-36.432049,-3.139283,20.704702,-21.249777,60.105965,-21.192650
4.525000,-30.477749,-3.144954,20.473974,-21.007483,58.877869,-20.817110
4.531250,-24.519028,-3.150207,20.515965,-20.800114,56.790401,-20.536795
4.537500,-18.562183,-3.155810,22.124414,-20.654737,53.407368,-20.329496
4.543750,-12.603530,-3.161586,22.517254,-20.536333,50.026497,-20.184931
4.550000,-6.637813,-3.166599,23.675772,-20.431047,45.234230,-20.114325
4.556250,-0.665613,-3.170635,25.102974,-20.361135,39.316936,-20.062159
4.562500,5.309760,-3.173867,26.384235,-20.347429,32.651825,-20.143740
4.568750,11.286271,-3.176571,27.195787,-20.412058,26.221891,-20.347786
4.575000,17.264202,-3.178625,27.242384,-20.583477,19.797325,-20.696449
4.581250,23.245287,-3.179646,26.291073,-20.952072,13.203920,-21.050768
4.587500,29.227890,-3.179346,26.750816,-21.335302,7.306764,-21.478603
4.593750,35.209721,-3.177944,25.229448,-21.832790,2.447354,-21.985243
4.600000,41.188160,-3.175733,23.486809,-22.453228,-1.269588,-22.557295
4.606250,47.161568,-3.172752,21.555096,-23.196678,-3.847852,-23.176815
4.612500,53.130257,-3.168998,19.403389,-24.060394,-5.426381,-23.839436
4.618750,59.091579,-3.164952,17.253851,-24.992605,-6.174537,-24.524960
4.625000,65.042809,-3.161393,15.113639,-25.972389,-6.235333,-25.210213
4.631250,70.986649,-3.158144,12.989598,-26.968872,-5.855429,-25.877714
4.637500,76.927963,-3.154355,10.972693,-27.944033,-5.338722,-26.515232
4.643750,82.866577,-3.149840,7.279289,-28.851801,-5.017850,-27.100521
4.650000,88.794983,-3.145786,3.638578,-29.641714,-5.274714,-27.590363
4.656250,94.708092,-3.143631,1.758643,-30.262846,-6.458563,-27.949184
4.662500,98.715866,-3.143391,-0.217584,-30.684069,-8.895213,-28.180052
4.668750,102.448067,-3.144374,-2.362227,-30.898600,-11.016930,-28.303787
4.675000,105.374702,-3.146582,-4.596654,-30.890167,-14.367867,-28.302658
4.681250,107.003014,-3.150163,-6.835578,-30.653049,-18.687338,-28.168983
4.687500,106.907921,-3.154778,-9.073529,-30.201061,-23.776136,-27.906948
4.693750,104.750237,-3.160308,-11.348405,-29.566401,-29.426424,-27.529135
4.700000,100.291183,-3.167317,-13.699530,-28.798391,-35.369812,-27.046751
4.706250,93.408806,-3.176262,-16.243244,-27.928667,-41.298328,-26.468029
4.712500,84.110115,-3.186146,-19.362051,-26.963331,-46.883530,-25.783863
4.718750,72.524582,-3.195412,-22.984758,-25.960728,-51.679832,-25.061935
