Anritsu VNA Frequency[GHz],S21[deg],S21[dB],S11[deg],S11[dB],S22[deg],S22[dB]
1338094250.62,2012_05_27_05:50:50,+40.493,+10.238,+54.836,+10.250,+13.900,+13.709,+14.005,+13.755,10.347025,-16.139
3.006250,33.107624,-1.742861,58.465267,-26.683205,-81.324326,-27.435301
3.012500,33.107624,-1.742861,58.465267,-26.683205,-81.324326,-27.435301
3.018750,33.107624,-1.742861,58.465267,-26.683205,-81.324326,-27.435301
3.025000,33.107624,-1.742861,58.465267,-26.683205,-81.324326,-27.435301
3.031250,33.107624,-1.742861,58.465267,-26.683205,-81.324326,-27.435301
3.037500,33.107624,-1.742861,58.465267,-26.683205,-81.324326,-27.435301
3.043750,33.107624,-1.742861,58.465267,-26.683205,-81.324326,-27.435301
3.050000,33.107624,-1.742861,58.465267,-26.683205,-81.324326,-27.435301
3.056250,33.107624,-1.742861,58.465267,-26.683205,-81.324326,-27.435301
3.062500,33.107624,-1.742861,58.465267,-26.683205,-81.324326,-27.435301
3.068750,33.107624,-1.742861,58.465267,-26.683205,-81.324326,-27.435301
3.075000,33.107624,-1.742861,58.465267,-26.683205,-81.324326,-27.435301
3.081250,33.107624,-1.742861,58.465267,-26.683205,-81.324326,-27.435301
3.087500,33.107624,-1.742861,58.465267,-26.683205,-81.324326,-27.435301
3.093750,33.107624,-1.744697,58.465267,-26.482988,-81.324326,-27.183100
3.100000,39.012020,-1.746818,55.815842,-26.335304,-83.270248,-26.948723
3.106250,44.916550,-1.748956,52.291836,-26.260265,-83.619362,-26.732988
3.112500,50.821552,-1.751161,48.242790,-26.278175,-82.005630,-26.508945
3.118750,56.725689,-1.753596,42.272358,-26.326200,-80.276649,-26.205595
3.125000,62.628777,-1.756181,37.496765,-26.374813,-76.181023,-25.942816
3.131250,68.531502,-1.758880,33.138096,-26.450335,-70.009354,-25.652618
3.137500,74.433075,-1.761963,29.450476,-26.553701,-62.122768,-25.326168
3.143750,80.333168,-1.765594,26.638792,-26.675447,-52.700161,-24.972082
3.150000,86.233826,-1.769510,24.878464,-26.800991,-41.897625,-24.602545
3.156250,92.137825,-1.773189,24.290415,-26.915449,-29.887436,-24.236244
3.162500,96.149307,-1.776587,24.939344,-27.005941,-16.868179,-23.896473
3.168750,99.887459,-1.780130,26.848444,-27.065163,-3.047763,-23.633123
3.175000,102.819252,-1.783938,30.065302,-27.071835,9.514194,-23.388018
3.181250,104.453819,-1.787752,32.827827,-27.013506,22.850264,-23.166582
3.187500,104.366241,-1.791349,36.599861,-26.907410,35.635151,-22.999748
3.193750,102.215111,-1.794657,40.676205,-26.765499,47.383282,-22.903940
3.200000,97.763123,-1.797605,44.492653,-26.596292,57.676003,-22.881596
3.206250,90.888184,-1.800156,47.569157,-26.410723,66.129059,-22.932417
3.212500,81.588699,-1.802448,49.486313,-26.223192,72.425972,-23.065348
3.218750,69.985085,-1.804919,49.932865,-26.043888,76.339188,-23.261938
3.225000,56.315559,-1.807208,50.911430,-25.867163,77.500046,-23.467741
3.231250,40.923416,-1.808920,50.956772,-25.692867,76.078125,-23.691074
3.237500,24.233665,-1.810328,48.575504,-25.521021,74.077797,-23.923431
3.243750,6.734637,-1.812037,45.884075,-25.327385,69.914482,-24.142586
3.250000,-11.041375,-1.814309,42.744709,-25.154093,64.189049,-24.329220
3.256250,-28.543636,-1.816740,38.798347,-25.013172,57.455276,-24.482107
3.262500,-45.237072,-1.818845,34.293266,-24.887226,50.349998,-24.590599
3.268750,-60.631290,-1.820617,29.168694,-24.772587,43.565166,-24.645586
3.275000,-74.302696,-1.822539,23.300875,-24.668673,37.685310,-24.647337
3.281250,-85.910965,-1.824898,16.580469,-24.566322,33.216972,-24.603321
3.287500,-95.217476,-1.827634,8.912671,-24.452234,30.543989,-24.528347
3.293750,-102.098068,-1.830476,0.262426,-24.287344,29.922899,-24.421219
3.300000,-106.552406,-1.833252,-7.194225,-24.119398,31.520529,-24.283190
3.306250,-108.701874,-1.835768,-15.869649,-23.984409,35.314301,-24.142187
3.312500,-108.784111,-1.838074,-24.549131,-23.863245,41.118076,-24.029888
3.318750,-107.140793,-1.840194,-32.940105,-23.763872,48.672226,-23.966240
3.325000,-104.199608,-1.842154,-40.775925,-23.704300,57.637695,-23.961744
3.331250,-100.451332,-1.843777,-47.802628,-23.708252,67.580818,-24.019434
3.337500,-96.429596,-1.845000,-53.843388,-23.834675,77.985771,-24.137287
3.343750,-90.513260,-1.845862,-58.868771,-23.996897,88.312431,-24.301294
3.350000,-84.597458,-1.846357,-63.302811,-24.217367,98.057755,-24.454470
3.356250,-78.682732,-1.846470,-66.741524,-24.540144,106.935684,-24.652122
3.362500,-72.769905,-1.846464,-67.459808,-24.986208,114.003044,-24.900391
3.368750,-66.859390,-1.846226,-67.099960,-25.536858,119.343391,-25.189173
3.375000,-60.949387,-1.845372,-65.541191,-26.166054,122.490356,-25.565428
3.381250,-55.041447,-1.844175,-62.799099,-26.839733,123.205879,-25.898680
3.387500,-49.140053,-1.843313,-58.972130,-27.519817,121.990913,-26.219835
3.393750,-43.245152,-1.843298,-54.218708,-28.161873,118.185387,-26.521229
3.400000,-37.352459,-1.843634,-48.760063,-28.723925,112.233047,-26.795750
3.406250,-31.458353,-1.843795,-42.935608,-29.185120,105.012245,-27.074337
3.412500,-25.564768,-1.844120,-37.070683,-29.520924,97.071114,-27.322557
3.418750,-19.675829,-1.845356,-29.230104,-29.709883,86.947449,-27.519499
3.425000,-13.789964,-1.847550,-22.957352,-29.748348,76.842812,-27.659008
3.431250,-7.900798,-1.849899,-16.398958,-29.651817,67.124557,-27.746592
3.437500,-2.007303,-1.852184,-9.812033,-29.404436,58.203796,-27.786333
3.443750,3.885853,-1.855092,-3.216326,-29.004406,50.748631,-27.725765
3.450000,9.777647,-1.859026,2.868503,-28.497473,43.050819,-27.594645
3.456250,15.673786,-1.863108,8.279267,-27.921787,36.930164,-27.406059
3.462500,21.578630,-1.866570,13.009651,-27.320395,32.155102,-27.161915
3.468750,27.488907,-1.869420,17.149569,-26.739504,28.501637,-26.858572
3.475000,33.399689,-1.872058,20.809172,-26.243273,25.724546,-26.512936
3.481250,39.309929,-1.874536,24.250120,-25.785719,23.535494,-26.140490
3.487500,45.219650,-1.877066,26.196291,-25.394651,21.696081,-25.734550
3.493750,51.127777,-1.879961,28.043453,-25.105881,19.898535,-25.302328
3.500000,57.035210,-1.883332,29.615839,-24.923992,17.820684,-24.856445
3.506250,62.945972,-1.886373,30.807270,-24.833504,15.234289,-24.407309
3.512500,68.860771,-1.888566,31.530121,-24.802027,11.955635,-23.964430
3.518750,74.775696,-1.890525,31.763815,-24.745996,7.851879,-23.532768
3.525000,80.684364,-1.893398,31.632208,-24.729017,2.812674,-23.118322
3.531250,86.588585,-1.897266,31.745544,-24.715921,-3.292774,-22.736010
3.537500,92.495255,-1.901432,31.746714,-24.669882,-8.405932,-22.403292
3.543750,96.512917,-1.905263,31.875854,-24.582087,-13.997326,-22.115009
3.550000,100.259964,-1.909187,32.471260,-24.424541,-19.783539,-21.834063
3.556250,103.200287,-1.913895,31.977291,-24.199091,-25.280897,-21.505461
3.562500,104.845154,-1.918856,32.097870,-23.935625,-30.225130,-21.265165
3.568750,104.774239,-1.923050,32.493618,-23.661005,-33.376389,-21.096094
3.575000,102.646935,-1.925883,32.890690,-23.401278,-35.749172,-20.999632
3.581250,98.220436,-1.927675,33.004238,-23.191401,-37.078712,-20.988918
3.587500,91.368004,-1.929097,32.575531,-23.066774,-37.387875,-21.023121
3.593750,82.090157,-1.930164,31.489862,-23.017616,-36.538738,-21.126122
3.600000,70.512489,-1.930148,29.697123,-23.055334,-34.380585,-21.312027
3.606250,56.872509,-1.928812,29.040140,-23.193827,-31.074141,-21.574930
3.612500,41.505424,-1.926686,28.060030,-23.418434,-26.894529,-21.888527
3.618750,24.835136,-1.924132,27.162540,-23.746140,-22.234982,-22.228037
3.625000,7.355512,-1.920967,26.450729,-24.187355,-17.880638,-22.635630
3.631250,-10.399411,-1.916926,26.537731,-24.704531,-12.021725,-23.073219
3.637500,-27.886360,-1.912564,27.731731,-25.262785,-6.380788,-23.511620
3.643750,-44.577190,-1.908558,30.175100,-25.825525,-0.984204,-23.932081
3.650000,-59.978523,-1.905185,32.003105,-26.347647,4.075848,-24.317411
3.656250,-73.660362,-1.902401,34.774902,-26.755386,8.718151,-24.650465
3.662500,-85.280594,-1.900332,37.664268,-27.091892,12.851022,-24.925890
3.668750,-94.602112,-1.899158,41.605278,-27.337061,16.329418,-25.149988
3.675000,-101.500992,-1.898573,44.912949,-27.462713,19.067900,-25.321625
3.681250,-105.974960,-1.898086,47.322968,-27.465908,21.007723,-25.439539
3.687500,-108.147308,-1.898068,48.595074,-27.359701,22.072393,-25.506439
3.693750,-108.258453,-1.899313,48.583549,-27.171169,22.209127,-25.531158
3.700000,-106.646912,-1.901697,47.294235,-26.905050,21.423340,-25.524626
3.706250,-103.733101,-1.904220,44.884769,-26.579006,19.844923,-25.479511
3.712500,-100.007637,-1.906538,41.337242,-26.232199,17.690586,-25.387138
3.718750,-96.008247,-1.909123,34.943928,-25.891691,15.127954,-25.257433
3.725000,-90.115692,-1.912375,27.628517,-25.572748,12.446581,-25.104591
3.731250,-84.220634,-1.915718,19.114611,-25.320887,10.275705,-24.967140
3.737500,-78.320381,-1.918565,11.338820,-25.158415,9.024983,-24.857695
3.743750,-72.417534,-1.921160,3.050803,-25.070814,9.108429,-24.797926
3.750000,-66.515526,-1.923824,-5.199390,-25.045650,9.123113,-24.703026
3.756250,-60.614403,-1.926488,-13.021420,-25.079227,9.047471,-24.593071
3.762500,-54.712105,-1.928926,-19.994003,-25.150175,10.209159,-24.469305
3.768750,-48.809544,-1.931379,-25.678877,-25.222942,12.355974,-24.381021
3.775000,-42.908417,-1.934122,-29.839157,-25.308226,15.020329,-24.316404
3.781250,-37.007515,-1.936968,-32.381306,-25.393461,17.605364,-24.260107
3.787500,-31.105227,-1.939500,-32.947491,-25.457933,19.751530,-24.204922
3.793750,-25.203037,-1.942109,-31.453865,-25.515131,21.150600,-24.154900
3.800000,-19.302938,-1.945166,-27.925184,-25.513481,21.608006,-24.101463
3.806250,-13.403652,-1.948523,-23.521589,-25.424234,21.139404,-24.008827
3.812500,-7.503055,-1.952003,-17.600372,-25.288050,19.602102,-23.885290
3.818750,-1.602280,-1.955863,-10.752851,-25.122227,16.881458,-23.742596
3.825000,4.298974,-1.960064,-3.581314,-24.940962,13.115597,-23.586317
3.831250,10.204139,-1.963903,5.482084,-24.758844,8.575326,-23.427275
3.837500,16.112940,-1.967149,14.522314,-24.589836,3.576898,-23.302864
3.843750,22.020716,-1.970523,23.581554,-24.429995,-1.538007,-23.165768
3.850000,27.925642,-1.974362,30.855791,-24.273073,-7.462822,-23.000687
3.856250,33.831566,-1.978044,37.903530,-24.129019,-12.999849,-22.846107
3.862500,39.741638,-1.980958,44.188286,-23.996357,-18.128235,-22.710032
3.868750,45.650726,-1.983747,49.278290,-23.862289,-22.828032,-22.589520
3.875000,51.553230,-1.987633,52.766983,-23.703876,-27.124722,-22.473734
3.881250,57.451580,-1.992706,54.235378,-23.526953,-31.089931,-22.346943
3.887500,63.353573,-1.997932,53.243664,-23.333988,-34.907646,-22.213932
3.893750,69.262230,-2.002685,49.707634,-23.106129,-38.833611,-22.079638
3.900000,75.172234,-2.007718,45.717613,-22.833384,-42.997425,-21.936462
3.906250,81.079346,-2.013860,39.863056,-22.515594,-45.703400,-21.782698
3.912500,86.986298,-2.020994,32.680405,-22.154472,-48.818745,-21.613609
3.918750,92.900040,-2.028520,24.718725,-21.757372,-52.055557,-21.415707
3.925000,96.927834,-2.035839,16.441771,-21.351032,-55.168682,-21.162933
3.931250,100.690544,-2.042790,8.306413,-20.960293,-58.227234,-20.944517
3.937500,103.654167,-2.049303,0.864537,-20.605137,-59.027122,-20.756697
3.943750,105.326004,-2.055142,-5.435103,-20.309189,-58.642670,-20.607157
3.950000,105.280083,-2.059830,-10.258557,-20.094013,-56.612492,-20.510012
3.956250,103.175507,-2.062808,-13.378008,-19.977861,-52.580082,-20.480495
3.962500,98.772507,-2.064058,-14.648996,-19.970638,-46.295143,-20.530920
3.968750,91.945450,-2.063907,-14.006404,-20.070131,-37.615513,-20.669693
3.975000,82.691750,-2.062415,-13.353619,-20.244188,-26.549084,-20.907598
3.981250,71.132141,-2.059585,-11.155725,-20.539545,-13.259866,-21.266068
3.987500,57.502163,-2.055651,-6.809497,-20.942663,0.657430,-21.670002
3.993750,42.140553,-2.050946,-1.524265,-21.409092,15.829021,-22.175825
4.000000,25.473560,-2.045558,4.047213,-21.935291,31.473738,-22.790398
4.006250,7.993577,-2.039530,9.557469,-22.504749,46.721214,-23.544643
4.012500,-9.769073,-2.033391,14.738029,-23.089968,60.491974,-24.295061
4.018750,-27.270290,-2.027974,19.340839,-23.658216,73.485306,-25.018841
4.025000,-43.976097,-2.023467,23.077391,-24.193108,83.730339,-25.754013
4.031250,-59.389675,-2.019501,27.811172,-24.685163,92.142067,-26.502472
4.037500,-73.082260,-2.016082,30.173819,-25.112549,97.838203,-27.211668
4.043750,-84.716240,-2.013967,32.207993,-25.462698,101.104668,-27.852234
4.050000,-94.052933,-2.013268,33.767227,-25.734781,102.338791,-28.407763
4.056250,-100.964485,-2.012897,34.784172,-25.919479,102.067947,-28.868689
4.062500,-105.448196,-2.012306,35.337147,-25.998743,99.092667,-29.202070
4.068750,-107.632271,-2.012463,35.374680,-25.989456,95.813278,-29.394459
4.075000,-107.758514,-2.014646,34.914444,-25.909088,92.290016,-29.453510
4.081250,-106.161034,-2.018059,34.138588,-25.771238,88.750824,-29.383471
4.087500,-103.256752,-2.021239,33.300926,-25.584978,83.359756,-29.185080
4.093750,-99.538071,-2.023743,32.703247,-25.358768,77.846046,-28.864601
4.100000,-95.547226,-2.026499,30.763014,-25.107296,72.068192,-28.442701
4.106250,-89.665413,-2.030126,29.479019,-24.836134,65.929390,-27.957939
4.112500,-83.783775,-2.034283,28.757778,-24.537964,59.515774,-27.368162
4.118750,-77.898895,-2.038660,28.337786,-24.229305,52.994049,-26.708290
4.125000,-72.012398,-2.043657,27.923410,-23.925236,46.101196,-26.019533
4.131250,-66.124451,-2.049274,27.344280,-23.635529,38.990940,-25.331581
4.137500,-60.231625,-2.054963,26.484730,-23.363678,31.860620,-24.667170
4.143750,-54.332863,-2.060305,25.258663,-23.108946,24.922539,-24.043446
4.150000,-48.431267,-2.065715,23.581230,-22.870365,18.364922,-23.472942
4.156250,-42.529587,-2.071494,23.545921,-22.643934,12.360830,-22.955694
4.162500,-36.626659,-2.077663,23.744965,-22.418373,7.054497,-22.513412
4.168750,-30.720007,-2.083948,22.768639,-22.182346,4.147737,-22.135370
4.175000,-24.809862,-2.090369,22.465876,-21.955976,1.079806,-21.826418
4.181250,-18.895905,-2.096739,22.652245,-21.743467,-0.438600,-21.579462
4.187500,-12.977530,-2.102767,23.128130,-21.549385,-0.521427,-21.334425
4.193750,-7.054791,-2.108416,23.672159,-21.379433,0.892153,-21.201469
4.200000,-1.128316,-2.113525,24.051708,-21.241119,1.869802,-21.152088
4.206250,4.801425,-2.117732,24.053738,-21.141705,3.102596,-21.164358
4.212500,10.733541,-2.120795,23.513409,-21.077763,5.614481,-21.195360
4.218750,16.664707,-2.123129,24.493969,-21.038534,7.177887,-21.249531
4.225000,22.591684,-2.125175,23.586494,-21.019449,7.784175,-21.326912
4.231250,28.514797,-2.127086,22.771053,-21.009253,7.285820,-21.413343
4.237500,34.435699,-2.128702,21.838820,-21.007071,5.511750,-21.486197
4.243750,40.354195,-2.130097,20.455433,-21.029379,4.378919,-21.555103
4.250000,46.271469,-2.131123,18.459606,-21.061554,2.268168,-21.618961
4.256250,52.186531,-2.131645,15.707378,-21.085930,-0.296253,-21.661465
4.262500,58.097385,-2.132264,11.962521,-21.087814,-2.900156,-21.671202
4.268750,64.000816,-2.133657,7.027447,-21.056360,-5.188530,-21.637943
4.275000,69.897926,-2.136214,0.720215,-20.984819,-6.847878,-21.555031
4.281250,75.794716,-2.139356,-4.952033,-20.860905,-7.605119,-21.410286
4.287500,81.693474,-2.142906,-11.517852,-20.681984,-7.261512,-21.175041
4.293750,87.591751,-2.147592,-18.724272,-20.471247,-5.912333,-20.919411
4.300000,93.489471,-2.153674,-26.199160,-20.230511,-3.827541,-20.646097
4.306250,97.499603,-2.159968,-33.500584,-19.963274,-0.813125,-20.352367
4.312500,101.248367,-2.165351,-40.309265,-19.680456,2.926420,-20.048067
4.318750,104.198029,-2.170245,-46.354252,-19.396774,7.127124,-19.746740
4.325000,105.848862,-2.175729,-51.433979,-19.133665,11.486165,-19.466103
4.331250,105.776024,-2.181511,-55.399559,-18.914532,15.692685,-19.221003
4.337500,103.645912,-2.186625,-58.151218,-18.790966,19.477133,-19.013744
4.343750,99.222382,-2.190567,-59.712585,-18.661222,22.618671,-18.786140
4.350000,92.378975,-2.193623,-59.074303,-18.606993,24.624887,-18.664385
4.356250,83.113823,-2.195584,-57.137272,-18.661116,27.186232,-18.627769
4.362500,71.548912,-2.195911,-53.693916,-18.822672,29.051641,-18.686640
4.368750,57.918602,-2.195058,-48.835094,-19.082991,30.571136,-18.868811
4.375000,42.557728,-2.193825,-42.764389,-19.428732,31.989460,-19.111158
4.381250,25.893295,-2.192035,-35.753647,-19.838020,33.362534,-19.398182
4.387500,8.422431,-2.189109,-28.127310,-20.284288,35.493382,-19.737211
4.393750,-9.324529,-2.185286,-20.302488,-20.751087,36.701992,-20.155855
4.400000,-26.808128,-2.181804,-12.737919,-21.225681,38.544792,-20.629726
4.406250,-43.494793,-2.178764,-3.638009,-21.690128,40.604752,-21.132685
4.412500,-58.886837,-2.175253,3.412203,-22.130644,42.588463,-21.646027
4.418750,-72.556534,-2.171507,10.257001,-22.541420,44.283295,-22.156042
4.425000,-84.168190,-2.168391,16.724426,-22.860453,45.610382,-22.614391
4.431250,-93.485939,-2.166300,22.637724,-23.087431,46.574089,-22.993900
4.437500,-100.382462,-2.164586,27.608217,-23.234365,46.945511,-23.290968
4.443750,-104.855446,-2.163082,31.591375,-23.308931,46.725552,-23.498755
4.450000,-107.030670,-2.162618,34.653103,-23.313122,46.044991,-23.609982
4.456250,-107.146263,-2.163701,36.923611,-23.251694,45.072315,-23.623098
4.462500,-105.536308,-2.165524,38.604298,-23.135094,43.990723,-23.544180
4.468750,-102.624062,-2.167658,39.981750,-22.983023,43.023518,-23.395584
4.475000,-98.904930,-2.170642,39.539963,-22.794237,42.468109,-23.162146
4.481250,-94.912605,-2.174474,39.450596,-22.562151,41.048191,-22.831694
4.487500,-89.020264,-2.178274,39.370190,-22.319302,40.294567,-22.450323
4.493750,-83.122986,-2.181815,39.107319,-22.087517,39.908440,-22.047560
4.500000,-77.226723,-2.186312,38.596939,-21.877844,39.672081,-21.644875
4.506250,-71.333618,-2.192368,37.813736,-21.690836,39.374191,-21.256937
4.512500,-65.434891,-2.198910,36.750504,-21.513157,38.795826,-20.893089
4.518750,-59.523155,-2.204372,35.404583,-21.285213,37.687595,-20.563221
4.525000,-53.602745,-2.208936,33.807777,-21.104753,35.728519,-20.303690
4.531250,-47.682995,-2.213770,33.039185,-20.971617,32.468357,-20.100458
4.537500,-41.765377,-2.219197,32.600716,-20.841904,29.271133,-19.932724
4.543750,-35.841782,-2.224436,31.083782,-20.705441,24.636568,-19.811510
4.550000,-29.909267,-2.228697,30.205603,-20.589672,18.891241,-19.711109
4.556250,-23.971552,-2.232039,29.678381,-20.517038,12.439645,-19.694866
4.562500,-18.032106,-2.234940,29.287235,-20.506674,5.987334,-19.777246
4.568750,-12.091646,-2.237288,28.809477,-20.584259,-0.494603,-19.956007
4.575000,-6.148376,-2.238885,28.019651,-20.809399,-6.824709,-20.176184
4.581250,-0.201805,-2.239248,26.744635,-21.096218,-12.663465,-20.451553
4.587500,5.745453,-2.238316,23.688765,-21.467833,-17.516829,-20.794292
4.593750,11.691133,-2.236487,21.745060,-21.944460,-21.201292,-21.196627
4.600000,17.632889,-2.233841,19.039648,-22.528364,-23.666712,-21.638046
4.606250,23.570501,-2.230125,15.447814,-23.280703,-25.057362,-22.129799
4.612500,29.503223,-2.225489,11.865418,-24.070833,-25.638351,-22.662420
4.618750,35.426285,-2.220847,7.694049,-24.930750,-25.478584,-23.213289
4.625000,41.337109,-2.216942,3.254175,-25.840370,-24.856331,-23.767092
4.631250,47.241531,-2.213207,-1.167434,-26.765888,-24.093433,-24.310108
4.637500,53.144833,-2.208564,-5.307085,-27.664730,-23.549046,-24.824961
4.643750,59.043056,-2.203628,-8.919595,-28.484245,-23.589149,-25.276363
4.650000,64.927322,-2.199993,-13.696348,-29.164185,-24.562746,-25.616756
4.656250,70.797318,-2.198386,-15.771590,-29.677269,-26.853098,-25.854263
4.662500,76.661339,-2.198376,-17.198149,-30.016344,-29.030567,-26.009777
4.668750,82.524269,-2.199610,-17.838167,-30.151525,-32.478348,-26.057001
4.675000,88.387070,-2.202357,-17.714321,-30.070835,-36.963673,-25.988070
4.681250,94.250343,-2.206455,-16.958565,-29.777662,-42.281265,-25.803926
4.687500,98.223755,-2.211282,-15.770773,-29.296143,-48.208878,-25.515966
4.693750,101.927475,-2.217080,-14.394121,-28.665134,-54.480396,-25.135727
4.700000,104.825493,-2.224874,-13.119531,-27.913378,-60.751350,-24.665464
4.706250,106.428955,-2.234349,-12.445539,-27.042721,-66.657143,-24.098068
4.712500,106.321663,-2.243699,-12.606588,-26.095287,-71.755531,-23.488396
4.718750,104.166885,-2.251726,-13.950330,-25.148531,-77.457825,-22.891384
