Anritsu VNA Frequency[GHz],S21[deg],S21[dB],S11[deg],S11[dB],S22[deg],S22[dB]
1338067448.99,2012_05_26_22:24:08,+43.412,+75.979,+67.872,+76.301,+81.461,+83.025,+80.414,+81.299,79.938286,-12.250
3.006250,37.909050,-2.075726,63.010113,-26.922689,-84.085617,-27.998779
3.012500,37.909050,-2.075726,63.010113,-26.922689,-84.085617,-27.998779
3.018750,37.909050,-2.075726,63.010113,-26.922689,-84.085617,-27.998779
3.025000,37.909050,-2.075726,63.010113,-26.922689,-84.085617,-27.998779
3.031250,37.909050,-2.075726,63.010113,-26.922689,-84.085617,-27.998779
3.037500,37.909050,-2.075726,63.010113,-26.922689,-84.085617,-27.998779
3.043750,37.909050,-2.075726,63.010113,-26.922689,-84.085617,-27.998779
3.050000,37.909050,-2.075726,63.010113,-26.922689,-84.085617,-27.998779
3.056250,37.909050,-2.075726,63.010113,-26.922689,-84.085617,-27.998779
3.062500,37.909050,-2.075726,63.010113,-26.922689,-84.085617,-27.998779
3.068750,37.909050,-2.075726,63.010113,-26.922689,-84.085617,-27.998779
3.075000,37.909050,-2.075726,63.010113,-26.922689,-84.085617,-27.998779
3.081250,37.909050,-2.075726,63.010113,-26.922689,-84.085617,-27.998779
3.087500,37.909050,-2.075726,63.010113,-26.922689,-84.085617,-27.998779
3.093750,37.909050,-2.077919,63.010113,-26.723358,-84.085617,-27.725281
3.100000,43.826164,-2.080448,59.909897,-26.562536,-84.061615,-27.467041
3.106250,49.743156,-2.083042,55.949234,-26.468868,-83.158897,-27.227083
3.112500,55.660873,-2.085656,51.556881,-26.457424,-81.104431,-26.983843
3.118750,61.577919,-2.088423,45.338108,-26.502340,-77.652344,-26.629618
3.125000,67.493835,-2.091351,40.238029,-26.535725,-72.830933,-26.336378
3.131250,73.409164,-2.094319,35.668659,-26.593977,-66.867989,-26.017868
3.137500,79.323372,-2.097634,31.827229,-26.681416,-59.230427,-25.662415
3.143750,85.235474,-2.101445,28.912548,-26.791475,-50.048916,-25.278030
3.150000,91.148293,-2.105559,27.098099,-26.910376,-39.470150,-24.877768
3.156250,95.169167,-2.109442,26.499632,-27.023661,-29.548550,-24.481194
3.162500,98.918716,-2.113059,27.178236,-27.117189,-18.856104,-24.112051
3.168750,101.862778,-2.116695,29.141197,-27.180149,-8.130507,-23.810211
3.175000,103.508110,-2.120555,32.409096,-27.194496,1.968795,-23.554070
3.181250,103.428581,-2.124500,35.196308,-27.145700,11.383978,-23.316101
3.187500,101.286407,-2.128279,39.036789,-27.047245,19.065882,-23.131359
3.193750,96.843651,-2.131845,43.199097,-26.909666,24.745348,-23.018158
3.200000,89.978279,-2.135107,47.083744,-26.740396,28.312994,-22.981583
3.206250,80.689949,-2.138003,50.197231,-26.548861,29.715092,-23.020609
3.212500,69.099319,-2.140705,52.120586,-26.348583,28.995173,-23.141834
3.218750,55.441868,-2.143597,52.534222,-26.151209,26.313381,-23.348270
3.225000,40.058994,-2.146382,53.428631,-25.955057,21.621275,-23.558428
3.231250,23.380421,-2.148715,53.352894,-25.758888,15.310351,-23.788944
3.237500,5.897121,-2.150725,50.836296,-25.565533,9.727196,-24.035936
3.243750,-11.862725,-2.152957,47.985096,-25.357548,3.469706,-24.279438
3.250000,-29.352959,-2.155771,44.707176,-25.159019,-2.747265,-24.499146
3.256250,-46.037144,-2.158771,40.646370,-24.997904,-8.317095,-24.688240
3.262500,-61.420570,-2.161426,35.999653,-24.857422,-12.679829,-24.836752
3.268750,-75.077629,-2.163722,30.754568,-24.733301,-15.287499,-24.934069
3.275000,-86.670662,-2.166077,24.803135,-24.624397,-15.748759,-24.977215
3.281250,-95.963928,-2.168817,18.044916,-24.522633,-13.823922,-24.969738
3.287500,-102.834099,-2.171883,10.392738,-24.416382,-9.440883,-24.920837
3.293750,-107.278656,-2.175134,1.802147,-24.275581,-2.698331,-24.832081
3.300000,-109.418594,-2.178247,-5.582518,-24.107250,6.183989,-24.703346
3.306250,-109.490631,-2.181108,-14.000636,-23.981474,16.843281,-24.556702
3.312500,-107.836235,-2.183742,-22.419947,-23.868828,28.761459,-24.420471
3.318750,-104.883514,-2.186269,-30.504728,-23.772736,41.358864,-24.316652
3.325000,-101.124702,-2.188651,-37.990284,-23.707596,54.025826,-24.257809
3.331250,-97.091728,-2.190684,-44.626755,-23.694326,66.144386,-24.249846
3.337500,-91.163063,-2.192360,-50.229599,-23.776981,79.258041,-24.294060
3.343750,-85.234146,-2.193629,-54.680801,-23.928434,91.435638,-24.380974
3.350000,-79.305946,-2.194575,-58.721218,-24.115788,100.817810,-24.471413
3.356250,-73.378258,-2.195147,-61.720566,-24.389795,109.039215,-24.586462
3.362500,-67.452080,-2.195545,-61.953419,-24.779350,114.971535,-24.762882
3.368750,-61.528088,-2.195666,-61.150024,-25.274717,118.683197,-24.985411
3.375000,-55.604591,-2.195232,-59.200909,-25.853193,119.823952,-25.275148
3.381250,-49.682846,-2.194358,-56.130993,-26.484011,118.234566,-25.580818
3.387500,-43.766613,-2.193693,-52.049911,-27.132233,114.443207,-25.873201
3.393750,-37.856705,-2.193718,-47.131733,-27.756542,108.051544,-26.156242
3.400000,-31.949385,-2.194161,-41.598701,-28.315737,99.529816,-26.402617
3.406250,-26.041111,-2.194414,-35.773426,-28.785965,89.875305,-26.670547
3.412500,-20.133106,-2.194745,-29.989290,-29.144644,79.835274,-26.921280
3.418750,-14.229535,-2.195871,-24.213242,-29.369583,67.967064,-27.130291
3.425000,-8.329199,-2.197949,-18.449579,-29.452665,56.559498,-27.289034
3.431250,-2.426234,-2.200207,-12.983312,-29.403124,46.043449,-27.400150
3.437500,3.480757,-2.202342,-8.030133,-29.215683,36.870777,-27.470556
3.443750,9.387541,-2.205038,-3.574576,-28.876490,29.653759,-27.449608
3.450000,15.292661,-2.208755,0.065109,-28.425383,22.778610,-27.358660
3.456250,21.200773,-2.212758,2.798722,-27.898499,17.979321,-27.210674
3.462500,27.117126,-2.216209,4.738941,-27.335901,14.946723,-27.008469
3.468750,33.038910,-2.219082,6.097745,-26.779554,13.357236,-26.749798
3.475000,38.960945,-2.221661,7.123552,-26.281298,12.864743,-26.446243
3.481250,44.881973,-2.224223,8.154427,-25.836843,13.080359,-26.113035
3.487500,50.802029,-2.226873,8.032474,-25.438065,13.620385,-25.745628
3.493750,56.720718,-2.229902,8.335036,-25.128014,14.073925,-25.348404
3.500000,62.638519,-2.233295,8.898355,-24.917469,14.008743,-24.932583
3.506250,68.559120,-2.236567,9.653227,-24.797272,13.090145,-24.508318
3.512500,74.483330,-2.239076,10.518432,-24.741684,11.050167,-24.084799
3.518750,80.407806,-2.241330,11.434520,-24.687702,7.692909,-23.667444
3.525000,86.327065,-2.244350,12.358481,-24.638912,2.874503,-23.262556
3.531250,92.241707,-2.248402,14.147988,-24.614529,-1.364575,-22.883213
3.537500,96.263451,-2.252821,16.162737,-24.566807,-6.463523,-22.547205
3.543750,100.017799,-2.256941,18.546944,-24.481411,-11.976715,-22.261883
3.550000,102.969910,-2.261196,21.502033,-24.340231,-17.630108,-21.985359
3.556250,104.623161,-2.266034,23.371666,-24.133957,-23.007856,-21.695833
3.562500,104.553894,-2.271213,25.787966,-23.887667,-27.758261,-21.451073
3.568750,102.427277,-2.275775,28.261421,-23.628256,-32.427902,-21.291298
3.575000,98.007721,-2.279058,30.401398,-23.381914,-36.553944,-21.209675
3.581250,91.167885,-2.281252,31.828962,-23.181683,-38.451153,-21.228367
3.587500,81.903137,-2.283024,32.211475,-23.063513,-40.210228,-21.298456
3.593750,70.334312,-2.284396,31.369650,-23.026997,-41.774982,-21.435232
3.600000,56.702267,-2.284812,31.425539,-23.074043,-42.744579,-21.656942
3.606250,41.348579,-2.283912,30.721748,-23.222372,-43.106152,-21.958723
3.612500,24.695610,-2.282094,29.669830,-23.464422,-42.946606,-22.316017
3.618750,7.231611,-2.279897,28.696934,-23.804594,-42.453888,-22.698141
3.625000,-10.509303,-2.277088,27.967278,-24.261887,-42.120071,-23.141319
3.631250,-27.979424,-2.273423,27.996344,-24.801702,-40.043236,-23.612865
3.637500,-44.648411,-2.269369,29.126846,-25.388409,-37.721962,-24.083235
3.643750,-60.028801,-2.265591,31.509071,-25.984995,-34.991398,-24.530663
3.650000,-73.692543,-2.262456,33.287918,-26.548147,-31.789583,-24.936501
3.656250,-85.296227,-2.259928,36.025230,-27.016520,-28.107040,-25.283594
3.662500,-94.601257,-2.258069,38.954712,-27.386602,-23.973949,-25.563623
3.668750,-101.485962,-2.257075,43.014008,-27.669298,-19.517292,-25.781113
3.675000,-105.948219,-2.256755,46.429581,-27.828869,-14.880342,-25.936991
3.681250,-108.107162,-2.256725,48.978214,-27.857046,-10.213717,-26.029982
3.687500,-108.201408,-2.257141,50.415928,-27.762558,-5.718966,-26.062881
3.693750,-106.573738,-2.258785,50.578579,-27.570370,-1.617207,-26.044649
3.700000,-103.650566,-2.261555,49.415077,-27.298893,1.889792,-25.987919
3.706250,-99.918175,-2.264651,47.107536,-26.950417,4.689299,-25.893526
3.712500,-95.906464,-2.267557,43.669689,-26.566711,6.775338,-25.754005
3.718750,-89.998581,-2.270689,37.325970,-26.182400,8.099490,-25.573168
3.725000,-84.092125,-2.274488,29.983393,-25.819340,8.738296,-25.359451
3.731250,-78.183868,-2.278381,21.412729,-25.512264,9.103872,-25.161909
3.737500,-72.270432,-2.281853,13.539183,-25.294619,9.525723,-24.993332
3.743750,-66.354080,-2.284968,5.055892,-25.162081,10.268836,-24.874296
3.750000,-60.438171,-2.288041,-3.445147,-25.102013,11.909937,-24.749660
3.756250,-54.523758,-2.291027,-11.527843,-25.109207,13.279728,-24.613163
3.762500,-48.608330,-2.293762,-18.767420,-25.165693,13.992946,-24.459249
3.768750,-42.692982,-2.296376,-24.716190,-25.236841,15.599921,-24.344641
3.775000,-36.779316,-2.299175,-29.097578,-25.322594,17.818481,-24.265928
3.781250,-30.866167,-2.302033,-31.819147,-25.419323,19.961895,-24.204414
3.787500,-24.952143,-2.304566,-32.533943,-25.503025,21.676058,-24.151672
3.793750,-19.038254,-2.307081,-31.113108,-25.576971,22.672749,-24.108761
3.800000,-13.126282,-2.309900,-29.452848,-25.619076,22.763922,-24.070810
3.806250,-7.215773,-2.313047,-25.347843,-25.563398,21.951075,-24.003393
3.812500,-1.304377,-2.316358,-20.104935,-25.457386,20.169794,-23.907373
3.818750,4.607006,-2.319994,-14.352792,-25.318653,17.311781,-23.791290
3.825000,10.518459,-2.324012,-8.643858,-25.160305,13.494171,-23.660107
3.831250,16.433125,-2.327899,-1.343411,-24.995857,8.978755,-23.522640
3.837500,22.351221,-2.331279,5.713691,-24.838512,4.097505,-23.401966
3.843750,28.269264,-2.334745,12.650742,-24.689341,-0.784526,-23.299652
3.850000,34.184910,-2.338717,17.763891,-24.540148,-4.711089,-23.149858
3.856250,40.101204,-2.342644,22.755865,-24.398762,-9.691099,-23.002581
3.862500,46.021130,-2.345990,27.177032,-24.266544,-13.697180,-22.870668
3.868750,51.941368,-2.349182,30.682858,-24.133905,-16.783487,-22.754135
3.875000,57.855499,-2.353303,32.959553,-23.979721,-19.059534,-22.644800
3.881250,63.765919,-2.358685,33.706062,-23.794712,-20.689762,-22.528082
3.887500,69.679634,-2.364296,32.496788,-23.596125,-21.942102,-22.402117
3.893750,75.600212,-2.369434,29.214916,-23.366638,-23.195929,-22.274582
3.900000,81.523361,-2.374685,25.991858,-23.093603,-24.743389,-22.140083
3.906250,87.443916,-2.380892,21.401035,-22.775213,-26.885998,-21.995981
3.912500,93.363785,-2.388066,15.920126,-22.413315,-28.079372,-21.838741
3.918750,97.394951,-2.395712,10.032179,-22.014753,-30.282425,-21.658564
3.925000,101.161140,-2.403180,4.134252,-21.601540,-33.287251,-21.431961
3.931250,104.129868,-2.410256,-1.433449,-21.199888,-37.007332,-21.216192
3.937500,105.806908,-2.416914,-6.271770,-20.831177,-39.387299,-21.032560
3.943750,105.764671,-2.422946,-10.046395,-20.517891,-41.349331,-20.884958
3.950000,103.663383,-2.427964,-12.535476,-20.281322,-42.269081,-20.785261
3.956250,99.266075,-2.431469,-13.621552,-20.139885,-41.628761,-20.747667
3.962500,92.448883,-2.433249,-13.265847,-20.104149,-39.001099,-20.784170
3.968750,83.208115,-2.433621,-11.485775,-20.173719,-34.058231,-20.903406
3.975000,71.662346,-2.432711,-10.257450,-20.324675,-26.608650,-21.115585
3.981250,58.047695,-2.430587,-5.937220,-20.563984,-18.506863,-21.457035
3.987500,42.703876,-2.427318,-1.317299,-20.930056,-7.907679,-21.833626
3.993750,26.055799,-2.423221,4.054617,-21.359926,4.226089,-22.307138
4.000000,8.595156,-2.418487,9.676995,-21.847586,17.021872,-22.884417
4.006250,-9.145310,-2.413119,15.148411,-22.379408,29.764139,-23.580072
4.012500,-26.621456,-2.407407,20.188869,-22.931452,41.659672,-24.330210
4.018750,-43.302464,-2.402249,24.553339,-23.473560,51.276596,-25.055473
4.025000,-58.695747,-2.397865,27.985651,-23.986584,60.390846,-25.756983
4.031250,-72.370125,-2.394028,30.477533,-24.463207,65.927116,-26.487753
4.037500,-83.982986,-2.390733,32.159592,-24.885342,70.268463,-27.188564
4.043750,-93.299713,-2.388532,32.950012,-25.239294,71.982437,-27.828083
4.050000,-100.197456,-2.387632,32.770679,-25.522615,71.562225,-28.387693
4.056250,-104.670685,-2.387186,31.625849,-25.730528,69.619278,-28.856253
4.062500,-106.838333,-2.386571,29.687851,-25.841076,65.010307,-29.209766
4.068750,-106.942879,-2.386548,27.066607,-25.866337,60.217941,-29.427011
4.075000,-105.330132,-2.388432,23.885666,-25.822592,55.417694,-29.512878
4.081250,-102.421936,-2.391662,20.446968,-25.722708,50.868855,-29.471209
4.087500,-98.701027,-2.394901,17.131626,-25.574198,46.930321,-29.303215
4.093750,-94.698334,-2.397533,12.465859,-25.384186,41.820667,-29.012682
4.100000,-88.800865,-2.400266,8.488689,-25.163961,37.260040,-28.616404
4.106250,-82.907539,-2.403865,5.106771,-24.920479,33.075603,-28.147848
4.112500,-77.015633,-2.408092,2.293252,-24.648834,29.175497,-27.590584
4.118750,-71.120789,-2.412635,-0.051265,-24.357250,25.693281,-26.952179
4.125000,-65.224083,-2.417721,-2.129920,-24.060255,22.194168,-26.276405
4.131250,-59.326191,-2.423440,-4.054785,-23.768377,18.608849,-25.594679
4.137500,-53.424149,-2.429273,-5.885726,-23.486605,14.944446,-24.931063
4.143750,-47.515896,-2.434887,-7.665028,-23.215574,11.234225,-24.303822
4.150000,-41.604340,-2.440453,-9.448503,-22.955296,7.503233,-23.726265
4.156250,-35.692116,-2.446354,-9.136687,-22.703331,3.778243,-23.200159
4.162500,-29.778357,-2.452614,-8.159746,-22.454206,2.246564,-22.709854
4.168750,-23.861326,-2.459094,-7.999632,-22.199554,1.150002,-22.318556
4.175000,-17.940336,-2.465724,-6.749690,-21.949535,-0.474439,-21.984674
4.181250,-12.015391,-2.472332,-4.739654,-21.712530,-0.868525,-21.711166
4.187500,-6.085849,-2.478638,-2.260763,-21.495173,-0.243364,-21.464451
4.193750,-0.151381,-2.484638,0.365840,-21.304007,1.230098,-21.275997
4.200000,5.787099,-2.490120,2.810411,-21.146896,4.112560,-21.186062
4.206250,11.728780,-2.494807,4.754877,-21.031290,5.446073,-21.176483
4.212500,17.673094,-2.498412,8.097384,-20.957331,8.160775,-21.191456
4.218750,23.617041,-2.501241,11.276995,-20.915138,9.880089,-21.230598
4.225000,29.557520,-2.503779,14.587474,-20.898401,10.707238,-21.301067
4.231250,35.493969,-2.506172,16.376183,-20.896852,10.498323,-21.393663
4.237500,41.428173,-2.508308,18.478886,-20.903824,9.074508,-21.488916
4.243750,47.360130,-2.510086,20.421701,-20.937332,8.372891,-21.585690
4.250000,53.290833,-2.511533,21.834362,-20.985760,6.761567,-21.687565
4.256250,59.219578,-2.512419,22.421064,-21.031250,4.698884,-21.778624
4.262500,65.143990,-2.513299,21.792288,-21.058578,2.598608,-21.845758
4.268750,71.061981,-2.514753,19.592844,-21.056860,0.801249,-21.875839
4.275000,76.973122,-2.517235,17.678989,-21.019094,-0.396260,-21.860029
4.281250,82.882927,-2.520326,14.417913,-20.935158,-0.742216,-21.785324
4.287500,88.794197,-2.523773,10.073770,-20.797976,-0.047650,-21.626144
4.293750,94.705215,-2.528203,4.840425,-20.623383,1.669274,-21.420500
4.300000,98.720177,-2.533995,-1.049248,-20.418341,4.030662,-21.192745
4.306250,102.467514,-2.540168,-7.230777,-20.184643,7.217718,-20.934496
4.312500,105.419907,-2.545591,-13.421116,-19.931110,11.053501,-20.652210
4.318750,107.081871,-2.550536,-19.371895,-19.669825,15.273539,-20.357019
4.325000,107.018143,-2.555888,-24.875668,-19.419443,19.574566,-20.065458
4.331250,104.889114,-2.561764,-29.761364,-19.200462,23.647594,-19.793039
4.337500,100.464546,-2.567230,-33.880447,-19.042484,27.215715,-19.547083
4.343750,93.624763,-2.571613,-37.144516,-18.940603,30.040277,-19.300896
4.350000,84.365990,-2.575094,-38.526257,-18.859673,31.834969,-19.118269
4.356250,72.807129,-2.577651,-38.710480,-18.875587,34.112801,-19.019176
4.362500,59.185455,-2.578738,-37.472462,-18.993958,35.680824,-19.012671
4.368750,43.840099,-2.578614,-34.765507,-19.209938,36.928738,-19.124044
4.375000,27.192562,-2.577963,-30.676670,-19.513084,38.196999,-19.332550
4.381250,9.733501,-2.576824,-25.379055,-19.885605,39.360386,-19.581968
4.387500,-7.999786,-2.574653,-19.109749,-20.303465,41.281437,-19.877855
4.393750,-25.461637,-2.571447,-12.196587,-20.748016,42.284454,-20.262150
4.400000,-42.126804,-2.568339,-5.042930,-21.206242,44.077782,-20.718281
4.406250,-57.502480,-2.565663,0.089959,-21.661621,46.149426,-21.216043
4.412500,-71.157303,-2.562667,6.659856,-22.098808,48.192982,-21.733620
4.418750,-82.748917,-2.559261,12.473177,-22.508757,49.985794,-22.254267
4.425000,-92.044853,-2.556322,17.348755,-22.847544,51.402626,-22.741571
4.431250,-98.925377,-2.554355,21.259964,-23.094248,52.458321,-23.155699
4.437500,-103.385689,-2.552849,23.922190,-23.259314,52.966133,-23.489166
4.443750,-105.544250,-2.551503,25.363386,-23.349850,52.876991,-23.734116
4.450000,-105.641891,-2.551159,25.762505,-23.367577,52.300838,-23.881647
4.456250,-104.020660,-2.552396,25.375593,-23.315437,51.399605,-23.927177
4.462500,-101.102402,-2.554565,24.530693,-23.201239,50.352669,-23.873846
4.468750,-97.373558,-2.557064,23.635050,-23.039949,49.374298,-23.735439
4.475000,-93.369354,-2.560297,21.254478,-22.844469,48.732075,-23.523922
4.481250,-87.470299,-2.564345,19.591152,-22.602831,47.065235,-23.202934
4.487500,-81.567207,-2.568676,18.511198,-22.339960,46.117779,-22.816727
4.493750,-75.658768,-2.572804,17.803202,-22.080936,45.478619,-22.399008
4.500000,-69.749840,-2.577636,17.393847,-21.840868,44.923466,-21.974712
4.506250,-63.843502,-2.584027,17.238546,-21.625160,44.251968,-21.561827
4.512500,-57.932301,-2.590962,17.289726,-21.427549,43.266605,-21.172838
4.518750,-52.008846,-2.596966,17.484009,-21.219309,41.753033,-20.819153
4.525000,-46.075436,-2.601908,17.733706,-20.997904,39.458004,-20.528507
4.531250,-40.141220,-2.606874,19.186649,-20.846724,36.023464,-20.323076
4.537500,-34.209263,-2.612329,21.021736,-20.722340,32.715145,-20.148726
4.543750,-28.273012,-2.617692,21.753601,-20.595388,28.026897,-20.030294
4.550000,-22.328718,-2.622082,23.103249,-20.486506,22.369844,-19.952129
4.556250,-16.378897,-2.625520,24.606537,-20.418736,16.058193,-19.935469
4.562500,-10.427221,-2.628373,25.924547,-20.411785,9.973683,-20.033960
4.568750,-4.474755,-2.630663,26.746120,-20.489422,4.032744,-20.242685
4.575000,1.479825,-2.632207,26.779654,-20.696558,-1.552857,-20.507681
4.581250,7.437776,-2.632614,25.794512,-20.997498,-6.707772,-20.821516
4.587500,13.396241,-2.631737,24.669985,-21.371761,-10.811807,-21.202053
4.593750,19.353054,-2.629798,22.805628,-21.850418,-13.699983,-21.645864
4.600000,25.305862,-2.627162,20.215199,-22.436136,-15.361628,-22.134773
4.606250,31.254349,-2.623590,16.886330,-23.187492,-15.934290,-22.666523
4.612500,37.197914,-2.619134,13.040859,-23.988562,-15.727780,-23.238379
4.618750,43.132824,-2.614607,8.990860,-24.859083,-14.888976,-23.827305
4.625000,49.056156,-2.610797,4.612804,-25.782362,-13.697020,-24.416639
4.631250,54.973034,-2.607195,0.153894,-26.727112,-12.491191,-24.992939
4.637500,60.888214,-2.602853,-4.136125,-27.652287,-11.640557,-25.542023
4.643750,66.799370,-2.598116,-8.009536,-28.507826,-11.522525,-26.031614
4.650000,72.698166,-2.594452,-13.149782,-29.237892,-12.506649,-26.418825
4.656250,78.582504,-2.592803,-15.639009,-29.798342,-14.921749,-26.681984
4.662500,84.460007,-2.592903,-17.433176,-30.182682,-17.203651,-26.863176
4.668750,90.335938,-2.594178,-18.504152,-30.365767,-20.921526,-26.937811
4.675000,94.317772,-2.596891,-18.796869,-30.331900,-25.724760,-26.894577
4.681250,98.026726,-2.601018,-18.399376,-30.080809,-31.380032,-26.731842
4.687500,100.933868,-2.605978,-17.477348,-29.632305,-37.645584,-26.458857
4.693750,102.546768,-2.611893,-16.248009,-29.023304,-44.249126,-26.087891
4.700000,102.435631,-2.619601,-14.966628,-28.295351,-50.850895,-25.624781
4.706250,100.260979,-2.629113,-14.096525,-27.443174,-57.084621,-25.064247
4.712500,95.795532,-2.638855,-13.979889,-26.510479,-62.558537,-24.423004
4.718750,88.922951,-2.647512,-14.826890,-25.557447,-68.619156,-23.793430
