Anritsu VNA Frequency[GHz],S21[deg],S21[dB],S11[deg],S11[dB],S22[deg],S22[dB]
1338104054.31,2012_05_27_08:34:14,+40.528,+10.223,+54.794,+10.236,+13.878,+13.687,+13.983,+13.732,10.325649,-15.956
3.006250,33.951584,-1.750332,59.174427,-26.679974,-80.282669,-27.419464
3.012500,33.951584,-1.750332,59.174427,-26.679974,-80.282669,-27.419464
3.018750,33.951584,-1.750332,59.174427,-26.679974,-80.282669,-27.419464
3.025000,33.951584,-1.750332,59.174427,-26.679974,-80.282669,-27.419464
3.031250,33.951584,-1.750332,59.174427,-26.679974,-80.282669,-27.419464
3.037500,33.951584,-1.750332,59.174427,-26.679974,-80.282669,-27.419464
3.043750,33.951584,-1.750332,59.174427,-26.679974,-80.282669,-27.419464
3.050000,33.951584,-1.750332,59.174427,-26.679974,-80.282669,-27.419464
3.056250,33.951584,-1.750332,59.174427,-26.679974,-80.282669,-27.419464
3.062500,33.951584,-1.750332,59.174427,-26.679974,-80.282669,-27.419464
3.068750,33.951584,-1.750332,59.174427,-26.679974,-80.282669,-27.419464
3.075000,33.951584,-1.750332,59.174427,-26.679974,-80.282669,-27.419464
3.081250,33.951584,-1.750332,59.174427,-26.679974,-80.282669,-27.419464
3.087500,33.951584,-1.750332,59.174427,-26.679974,-80.282669,-27.419464
3.093750,33.951584,-1.752062,59.174427,-26.480991,-80.282669,-27.171980
3.100000,39.858051,-1.754046,56.500370,-26.333052,-82.274445,-26.941341
3.106250,45.764393,-1.756055,52.942398,-26.257040,-82.657631,-26.728573
3.112500,51.671410,-1.758089,48.863358,-26.272911,-81.071274,-26.507690
3.118750,57.577335,-1.760270,42.860470,-26.319305,-79.354797,-26.209978
3.125000,63.482193,-1.762568,38.063084,-26.366520,-75.293610,-25.948868
3.131250,69.386604,-1.764981,33.681850,-26.440718,-69.133400,-25.660923
3.137500,75.289856,-1.767712,29.971075,-26.542601,-61.252247,-25.336649
3.143750,81.191597,-1.770971,27.133974,-26.662939,-51.835339,-24.984383
3.150000,87.094353,-1.774524,25.354881,-26.787437,-41.036289,-24.616554
3.156250,93.000259,-1.777851,24.752947,-26.901468,-29.030399,-24.251167
3.162500,97.013725,-1.780922,25.396923,-26.991978,-16.014751,-23.911932
3.168750,100.754204,-1.784109,27.302450,-27.051945,-4.093687,-23.648333
3.175000,103.687904,-1.787588,30.517492,-27.059732,8.192175,-23.403654
3.181250,105.324966,-1.791177,33.283279,-27.002342,20.718601,-23.181850
3.187500,105.239601,-1.794618,37.062450,-26.897480,32.204163,-23.014179
3.193750,103.091003,-1.797817,41.153591,-26.757284,42.223400,-22.917082
3.200000,98.641235,-1.800750,44.985577,-26.590149,50.444771,-22.893446
3.206250,91.768883,-1.803297,48.078640,-26.406843,56.587238,-22.943432
3.212500,82.471550,-1.805714,50.013897,-26.221334,60.452656,-23.074850
3.218750,70.870399,-1.808332,50.479233,-26.043961,61.938766,-23.270830
3.225000,57.203075,-1.810833,51.474758,-25.868916,60.791756,-23.475889
3.231250,41.812782,-1.812788,51.535988,-25.695795,57.298031,-23.699217
3.237500,25.125177,-1.814469,49.173763,-25.524887,53.566708,-23.931763
3.243750,7.627635,-1.816425,46.500820,-25.333168,48.101925,-24.151321
3.250000,-10.146433,-1.818931,43.382355,-25.160292,41.571709,-24.338560
3.256250,-27.647192,-1.821580,39.460712,-25.020115,34.570873,-24.492517
3.262500,-44.339569,-1.823879,34.975922,-24.895149,27.741081,-24.602072
3.268750,-59.732788,-1.825822,29.872814,-24.781483,21.767990,-24.658316
3.275000,-73.402946,-1.827869,24.024582,-24.678032,17.196560,-24.661169
3.281250,-85.010391,-1.830341,17.321712,-24.575838,14.466329,-24.617790
3.287500,-94.315926,-1.833114,9.671697,-24.461824,13.871096,-24.542765
3.293750,-101.195641,-1.835992,1.039171,-24.296774,15.570492,-24.436085
3.300000,-105.649300,-1.838770,-6.392881,-24.128757,19.606184,-24.299109
3.306250,-107.798111,-1.841339,-15.056826,-23.993313,25.836220,-24.157921
3.312500,-107.879669,-1.843627,-23.723701,-23.871340,33.959278,-24.044630
3.318750,-106.235512,-1.845813,-32.103184,-23.770996,43.594086,-23.979975
3.325000,-103.293205,-1.847846,-39.932678,-23.709951,54.296448,-23.974604
3.331250,-99.544060,-1.849500,-46.954296,-23.712927,65.547615,-24.031225
3.337500,-95.521286,-1.850804,-52.987286,-23.841881,76.769890,-24.148487
3.343750,-89.603645,-1.851735,-58.056030,-24.001930,87.379333,-24.311987
3.350000,-83.686424,-1.852331,-62.500801,-24.222498,97.132248,-24.465851
3.356250,-77.769913,-1.852586,-65.956650,-24.545538,105.740082,-24.663334
3.362500,-71.855354,-1.852719,-66.706902,-24.996096,112.007454,-24.912487
3.368750,-65.942833,-1.852568,-66.384743,-25.550257,116.052780,-25.201500
3.375000,-60.031040,-1.851887,-64.875000,-26.183479,117.475670,-25.577066
3.381250,-54.120899,-1.850741,-62.188251,-26.861738,116.123154,-25.911970
3.387500,-48.217258,-1.850036,-58.418198,-27.546728,112.605980,-26.234219
3.393750,-42.319489,-1.850097,-53.720745,-28.194004,106.372658,-26.536821
3.400000,-36.424343,-1.850537,-48.315186,-28.761101,97.989403,-26.811800
3.406250,-30.527708,-1.850759,-42.537117,-29.226889,88.458839,-27.090572
3.412500,-24.631500,-1.851133,-36.710175,-29.566706,78.444099,-27.338713
3.418750,-18.740154,-1.852386,-28.896908,-29.758738,66.586792,-27.535259
3.425000,-12.851441,-1.854620,-22.639536,-29.799345,55.174801,-27.674070
3.431250,-6.960233,-1.856976,-16.086567,-29.703896,44.639416,-27.760820
3.437500,-1.064666,-1.859242,-9.492536,-29.456240,35.435749,-27.799185
3.443750,4.830728,-1.862126,-2.878395,-29.054853,28.246788,-27.737976
3.450000,10.724551,-1.865962,3.232168,-28.545227,21.349035,-27.605780
3.456250,16.622650,-1.869977,8.677285,-27.966061,16.521957,-27.416220
3.462500,22.529465,-1.873373,13.451423,-27.361048,13.471415,-27.171906
3.468750,28.441530,-1.876157,17.637695,-26.776039,11.885890,-26.869093
3.475000,34.353676,-1.878694,21.342466,-26.276688,11.409693,-26.523859
3.481250,40.265793,-1.881127,24.821955,-25.814539,11.651439,-26.151180
3.487500,46.177418,-1.883580,26.807558,-25.420113,12.244192,-25.746023
3.493750,52.087578,-1.886475,28.684515,-25.128872,12.754280,-25.315260
3.500000,57.997009,-1.889807,30.279139,-24.945314,12.748440,-24.870932
3.506250,63.909557,-1.892899,31.487141,-24.854834,11.894730,-24.423286
3.512500,69.826546,-1.895194,32.215637,-24.823814,9.922374,-23.981899
3.518750,75.743538,-1.897271,32.438553,-24.764320,6.628892,-23.551702
3.525000,81.654518,-1.900259,32.339676,-24.749903,1.865133,-23.138784
3.531250,87.560944,-1.904330,32.450989,-24.738014,-2.343594,-22.757563
3.537500,93.469627,-1.908638,32.445656,-24.693398,-7.455063,-22.424812
3.543750,97.489006,-1.912649,32.573631,-24.605791,-13.044819,-22.136047
3.550000,101.237923,-1.916783,33.168816,-24.448854,-18.827517,-21.855434
3.556250,104.180031,-1.921605,32.673450,-24.223612,-24.324253,-21.528212
3.562500,105.826668,-1.926772,32.797398,-23.960012,-29.261030,-21.286900
3.568750,105.757385,-1.931075,33.198498,-23.684378,-32.408684,-21.116625
3.575000,103.631172,-1.934022,33.599037,-23.423994,-34.772743,-21.018574
3.581250,99.205750,-1.935839,33.715660,-23.213158,-36.088219,-21.005728
3.587500,92.354614,-1.937242,33.292648,-23.087273,-36.376598,-21.038176
3.593750,83.077644,-1.938293,32.217945,-23.036837,-35.508789,-21.138935
3.600000,71.500977,-1.938279,30.431402,-23.073057,-33.330406,-21.322239
3.606250,57.861786,-1.936881,29.781689,-23.210381,-29.999559,-21.581739
3.612500,42.495491,-1.934665,28.813396,-23.433374,-25.791819,-21.891794
3.618750,25.826035,-1.932037,27.929432,-23.759665,-21.103840,-22.227190
3.625000,8.347170,-1.928776,27.240475,-24.200251,-16.722342,-22.629990
3.631250,-9.406799,-1.924697,27.358583,-24.717419,-10.840709,-23.062944
3.637500,-26.892675,-1.920254,28.587221,-25.276377,-5.181079,-23.497236
3.643750,-43.582184,-1.916176,31.064146,-25.839830,0.230409,-23.913008
3.650000,-58.982281,-1.912753,32.925373,-26.362814,5.303926,-24.293949
3.656250,-72.661942,-1.909946,35.731945,-26.770208,9.954017,-24.622784
3.662500,-84.280136,-1.907821,38.660450,-27.107990,14.083129,-24.894489
3.668750,-93.599281,-1.906582,42.633793,-27.354086,17.554060,-25.115602
3.675000,-100.495506,-1.905950,45.973103,-27.480593,20.280636,-25.285036
3.681250,-104.966553,-1.905409,48.408646,-27.484615,22.205456,-25.401316
3.687500,-107.135498,-1.905305,49.700562,-27.379463,23.251896,-25.467297
3.693750,-107.243179,-1.906432,49.701485,-27.191172,23.368652,-25.492256
3.700000,-105.628090,-1.908695,48.418804,-26.924738,22.560715,-25.486858
3.706250,-102.710609,-1.911113,46.003830,-26.598577,20.960438,-25.443880
3.712500,-98.981750,-1.913249,42.442776,-26.251221,18.786448,-25.357126
3.718750,-94.979149,-1.915703,36.029736,-25.910170,16.185230,-25.231640
3.725000,-89.083443,-1.918792,28.686983,-25.591238,13.491014,-25.083351
3.731250,-83.185776,-1.921965,20.145258,-25.338642,11.307377,-24.950453
3.737500,-77.283257,-1.924656,12.342899,-25.175549,10.046796,-24.846033
3.743750,-71.378532,-1.927113,4.027088,-25.087704,10.121427,-24.791040
3.750000,-65.475174,-1.929640,-4.250537,-25.062840,10.129543,-24.701502
3.756250,-59.573048,-1.932172,-12.096272,-25.096489,10.051510,-24.596931
3.762500,-53.669979,-1.934518,-19.087057,-25.167871,11.210852,-24.478443
3.768750,-47.767159,-1.936902,-24.786581,-25.241415,13.352259,-24.394810
3.775000,-41.865868,-1.939595,-28.961540,-25.327507,16.016548,-24.334286
3.781250,-35.965069,-1.942357,-31.508150,-25.413971,18.603464,-24.281422
3.787500,-30.063082,-1.944905,-32.072128,-25.479347,20.749949,-24.229626
3.793750,-24.160799,-1.947515,-30.569221,-25.539122,22.147696,-24.181889
3.800000,-18.260725,-1.950561,-28.917225,-25.538115,22.601816,-24.130751
3.806250,-12.361138,-1.953942,-24.767689,-25.449806,22.128820,-24.039877
3.812500,-6.459956,-1.957480,-19.635111,-25.314697,20.589102,-23.917664
3.818750,-0.558597,-1.961414,-14.065013,-25.149462,17.870275,-23.774923
3.825000,5.343669,-1.965678,-8.592635,-24.968506,14.104439,-23.618534
3.831250,11.250065,-1.969602,-1.565212,-24.786348,9.560038,-23.458639
3.837500,17.160282,-1.972927,5.202323,-24.617186,4.559309,-23.332518
3.843750,23.070078,-1.976377,11.866838,-24.456821,-0.560084,-23.195282
3.850000,28.977180,-1.980335,16.743011,-24.299299,-6.485653,-23.028593
3.856250,34.885197,-1.984090,21.510338,-24.154087,-12.023408,-22.872040
3.862500,40.797699,-1.987065,25.747087,-24.019779,-17.154856,-22.734028
3.868750,46.708977,-1.989930,29.123764,-23.883047,-21.857656,-22.611891
3.875000,52.613884,-1.993820,31.320631,-23.721975,-26.157240,-22.494402
3.881250,58.514648,-1.998901,31.980549,-23.542501,-30.122248,-22.366201
3.887500,64.418686,-2.004104,30.710567,-23.346210,-33.937305,-22.231663
3.893750,70.329391,-2.008835,27.439526,-23.115435,-37.860489,-22.095924
3.900000,76.241394,-2.013819,24.243141,-22.839758,-42.019550,-21.951422
3.906250,82.150169,-2.019861,19.671667,-22.518982,-44.719429,-21.796259
3.912500,88.059029,-2.026901,14.195474,-22.154821,-47.828320,-21.625906
3.918750,93.974335,-2.034354,8.276421,-21.754572,-51.054096,-21.426582
3.925000,98.003418,-2.041590,2.281488,-21.344984,-54.156689,-21.172798
3.931250,101.767715,-2.048449,-3.447608,-20.951866,-57.201557,-20.953070
3.937500,104.732742,-2.054861,-8.480650,-20.594910,-57.988434,-20.763721
3.943750,106.406189,-2.060662,-12.491723,-20.297319,-57.593021,-20.613171
3.950000,106.362244,-2.065342,-15.259625,-20.080994,-55.551544,-20.514931
3.956250,104.259644,-2.068349,-16.661825,-19.963968,-51.507950,-20.484623
3.962500,99.858604,-2.069645,-16.638941,-19.956242,-45.214394,-20.534733
3.968750,93.033882,-2.069478,-15.188949,-20.055275,-36.532219,-20.673132
3.975000,83.782524,-2.068015,-14.261305,-20.227448,-25.465797,-20.911201
3.981250,72.225586,-2.065265,-10.167472,-20.522310,-12.180938,-21.274849
3.987500,58.598248,-2.061400,-5.814042,-20.924427,1.713261,-21.682072
3.993750,43.239056,-2.056725,-0.531133,-21.389309,16.874859,-22.191431
4.000000,26.574419,-2.051404,5.046867,-21.913177,32.498161,-22.811438
4.006250,9.096671,-2.045382,10.562893,-22.479464,47.722099,-23.572393
4.012500,-8.663746,-2.039238,15.751631,-23.060772,61.478218,-24.330999
4.018750,-26.162783,-2.033824,20.360027,-23.624479,74.440186,-25.064890
4.025000,-42.866772,-2.029315,24.103119,-24.154724,84.660713,-25.808872
4.031250,-58.278858,-2.025317,28.843428,-24.641783,93.049355,-26.567327
4.037500,-71.969986,-2.021859,31.214153,-25.064610,98.732338,-27.286299
4.043750,-83.602783,-2.019702,33.257442,-25.410849,101.995399,-27.936148
4.050000,-92.938148,-2.018884,34.826950,-25.680111,103.234695,-28.499500
4.056250,-99.848534,-2.018535,35.855377,-25.863060,102.977966,-28.967142
4.062500,-104.331146,-2.017901,36.420128,-25.941790,100.023842,-29.305372
4.068750,-106.513931,-2.018045,36.467266,-25.933607,96.775299,-29.501196
4.075000,-106.639084,-2.020192,36.015198,-25.855593,93.286751,-29.561686
4.081250,-105.040581,-2.023637,35.244480,-25.721077,89.786880,-29.491123
4.087500,-102.135353,-2.026870,34.410252,-25.539036,84.436119,-29.290588
4.093750,-98.415794,-2.029448,33.815311,-25.318064,78.961479,-28.966469
4.100000,-94.423798,-2.032299,31.878443,-25.072783,73.217812,-28.539555
4.106250,-88.540985,-2.036005,30.597307,-24.808319,67.107841,-28.048506
4.112500,-82.658607,-2.040272,29.873837,-24.516373,60.717873,-27.451845
4.118750,-76.772820,-2.044789,29.449987,-24.213469,54.212742,-26.784901
4.125000,-70.885277,-2.049905,29.032280,-23.914740,47.330166,-26.088453
4.131250,-64.996643,-2.055614,28.449646,-23.629286,40.221569,-25.393023
4.137500,-59.103180,-2.061385,27.588570,-23.360682,33.083469,-24.721663
4.143750,-53.203461,-2.066842,26.361399,-23.107843,26.131128,-24.091640
4.150000,-47.300854,-2.072269,24.682512,-22.869984,19.556009,-23.516293
4.156250,-41.397758,-2.078058,24.648319,-22.643248,13.529823,-22.995527
4.162500,-35.493404,-2.084169,24.850443,-22.416842,8.200013,-22.545362
4.168750,-29.585314,-2.090361,23.870552,-22.179756,5.275925,-22.163563
4.175000,-23.673199,-2.096634,23.574524,-21.951279,2.188550,-21.851395
4.181250,-17.757500,-2.102781,23.761124,-21.735844,0.656567,-21.600580
4.187500,-11.837060,-2.108635,24.236801,-21.538502,0.557549,-21.351542
4.193750,-5.911950,-2.114069,24.777954,-21.365305,1.943085,-21.214497
4.200000,0.016671,-2.118921,25.154020,-21.223566,2.905744,-21.160870
4.206250,5.948690,-2.122834,25.150116,-21.120615,4.124473,-21.169504
4.212500,11.883004,-2.125640,24.603159,-21.053482,6.626672,-21.196671
4.218750,17.816103,-2.127726,25.575157,-21.011486,8.175198,-21.247231
4.225000,23.745226,-2.129530,24.658323,-20.989925,8.769018,-21.321198
4.231250,29.670321,-2.131267,23.831785,-20.977804,8.261032,-21.404942
4.237500,35.592773,-2.132722,22.886625,-20.974436,6.481695,-21.475536
4.243750,41.512852,-2.133977,21.488678,-20.996489,5.349696,-21.542828
4.250000,47.431419,-2.134918,19.478487,-21.028761,3.242253,-21.605307
4.256250,53.347885,-2.135445,16.709581,-21.053841,0.687026,-21.647041
4.262500,59.260197,-2.136035,12.950245,-21.057186,-1.903239,-21.656664
4.268750,65.165260,-2.137455,8.001971,-21.027952,-4.174006,-21.623718
4.275000,71.063652,-2.140090,1.684563,-20.958946,-5.811736,-21.541447
4.281250,76.961777,-2.143310,-3.995335,-20.838005,-6.544671,-21.397449
4.287500,82.862114,-2.146944,-10.569244,-20.662312,-6.175352,-21.163286
4.293750,88.762070,-2.151714,-17.779062,-20.454956,-4.799919,-20.908503
4.300000,94.661644,-2.157893,-25.253714,-20.217516,-2.689990,-20.636021
4.306250,98.673248,-2.164266,-32.550304,-19.953104,0.348258,-20.343149
4.312500,102.423721,-2.169749,-39.351799,-19.672928,4.108713,-20.039562
4.318750,105.375412,-2.174725,-45.388103,-19.391399,8.326419,-19.738716
4.325000,107.028336,-2.180203,-50.456131,-19.129910,12.697227,-19.458532
4.331250,106.957565,-2.186025,-54.408703,-18.911295,16.910627,-19.213703
4.337500,104.829140,-2.191191,-57.151321,-18.783934,20.695326,-19.006922
4.343750,100.407364,-2.195168,-58.702042,-18.656713,23.829407,-18.781555
4.350000,93.565598,-2.198194,-58.060856,-18.601637,25.837051,-18.660456
4.356250,84.301498,-2.200162,-56.118828,-18.653595,28.388683,-18.624743
4.362500,72.738403,-2.200520,-52.678394,-18.812124,30.241758,-18.685015
4.368750,59.109528,-2.199676,-47.828331,-19.068996,31.747669,-18.867496
4.375000,43.749809,-2.198470,-41.772297,-19.410883,33.150440,-19.112144
4.381250,27.086468,-2.196779,-34.781185,-19.816702,34.512192,-19.401707
4.387500,9.616280,-2.193949,-27.179161,-20.259613,36.628632,-19.742577
4.393750,-8.129820,-2.190228,-19.380161,-20.723318,37.820541,-20.163193
4.400000,-25.612383,-2.186856,-11.841637,-21.195271,39.653698,-20.638868
4.406250,-42.298603,-2.183971,-2.767956,-21.657454,41.706291,-21.143398
4.412500,-57.690178,-2.180694,4.257259,-22.096495,43.687927,-21.658371
4.418750,-71.358856,-2.177169,11.079046,-22.506521,45.382923,-22.169847
4.425000,-82.969765,-2.174268,17.525505,-22.825832,46.709991,-22.629999
4.431250,-92.286652,-2.172412,23.424397,-23.054132,47.680435,-23.011417
4.437500,-99.181877,-2.170955,28.386026,-23.203312,48.061260,-23.310173
4.443750,-103.653465,-2.169682,32.362469,-23.280888,47.852062,-23.519531
4.450000,-105.827209,-2.169456,35.421009,-23.288729,47.182037,-23.632277
4.456250,-105.940796,-2.170729,37.689888,-23.231571,46.219875,-23.646692
4.462500,-104.329178,-2.172729,39.369537,-23.119448,45.148323,-23.569115
4.468750,-101.414650,-2.175070,40.749233,-22.971640,44.189148,-23.421566
4.475000,-97.692986,-2.178219,40.311333,-22.787088,43.636257,-23.189539
4.481250,-93.698433,-2.182179,40.224667,-22.558983,42.217163,-22.859882
4.487500,-87.803642,-2.186114,40.147457,-22.319342,41.461746,-22.478699
4.493750,-81.903618,-2.189789,39.889580,-22.089582,41.068569,-22.075735
4.500000,-76.004799,-2.194371,39.384338,-21.880838,40.820442,-21.672491
4.506250,-70.108963,-2.200564,38.606396,-21.693560,40.507263,-21.283550
4.512500,-64.208260,-2.207237,37.548088,-21.515228,39.910595,-20.917728
4.518750,-58.294781,-2.212806,36.212074,-21.290497,38.799786,-20.586008
4.525000,-52.372715,-2.217435,34.623669,-21.106066,36.824955,-20.323048
4.531250,-46.451511,-2.222358,33.869396,-20.969042,33.555691,-20.117910
4.537500,-40.532135,-2.227872,33.440208,-20.836617,30.350697,-19.947336
4.543750,-34.607620,-2.233200,31.934137,-20.697044,25.710060,-19.822502
4.550000,-28.674530,-2.237500,31.068567,-20.577541,19.962780,-19.720060
4.556250,-22.736094,-2.240861,30.555428,-20.500875,13.517438,-19.699890
4.562500,-16.795963,-2.243687,30.177383,-20.485674,7.076162,-19.777998
4.568750,-10.855021,-2.245979,29.711100,-20.559004,0.618702,-19.952658
4.575000,-4.911274,-2.247470,28.928642,-20.778891,-5.671709,-20.169802
4.581250,1.035775,-2.247719,27.644890,-21.063272,-11.476449,-20.442211
4.587500,6.983860,-2.246661,24.598665,-21.431976,-16.293043,-20.781771
4.593750,12.930412,-2.244619,22.659098,-21.906584,-19.936607,-21.180689
4.600000,18.872931,-2.241789,19.953051,-22.489664,-22.357607,-21.618837
4.606250,24.812056,-2.237929,16.353373,-23.243654,-23.698469,-22.108009
4.612500,30.746500,-2.233112,12.812307,-24.037306,-24.236475,-22.638165
4.618750,36.671181,-2.228319,8.652713,-24.902422,-24.039314,-23.187231
4.625000,42.584038,-2.224318,4.232264,-25.818735,-23.384510,-23.739374
4.631250,48.490871,-2.220513,-0.158722,-26.752630,-22.598701,-24.281567
4.637500,54.396191,-2.215857,-4.257945,-27.660942,-22.044119,-24.796127
4.643750,60.297009,-2.210954,-7.818986,-28.491020,-22.086794,-25.248114
4.650000,66.184166,-2.207329,-12.538692,-29.182127,-23.075041,-25.590101
4.656250,72.056839,-2.205767,-14.553268,-29.706198,-25.388451,-25.829233
4.662500,77.923752,-2.205819,-15.915363,-30.055326,-27.601643,-25.987198
4.668750,83.789429,-2.207155,-16.493195,-30.199587,-31.092686,-26.037380
4.675000,89.654762,-2.210046,-16.311810,-30.126453,-35.624146,-25.971689
4.681250,93.625977,-2.214239,-15.505609,-29.838964,-40.987854,-25.790995
4.687500,97.328247,-2.219125,-14.277091,-29.361137,-46.959740,-25.506615
4.693750,100.228371,-2.224951,-12.872850,-28.731182,-53.270863,-25.130415
4.700000,101.830612,-2.232765,-11.589172,-27.977436,-59.575577,-24.664560
4.706250,101.710655,-2.242268,-10.910716,-27.104387,-65.507240,-24.101995
4.712500,99.539337,-2.251677,-11.082319,-26.153879,-70.629662,-23.494940
4.718750,95.082764,-2.259752,-12.446314,-25.201427,-76.348457,-22.900623
