Anritsu VNA Frequency[GHz],S21[deg],S21[dB],S11[deg],S11[dB],S22[deg],S22[dB]
1338055649.67,2012_05_26_19:07:29,+60.490,+166.23,+148.67,+166.56,+172.04,+174.24,+168.84,+170.55,157.292114,-5.881
3.006250,44.862885,-2.437221,69.283638,-27.423393,-77.069824,-28.319138
3.012500,44.862885,-2.437221,69.283638,-27.423393,-77.069824,-28.319138
3.018750,44.862885,-2.437221,69.283638,-27.423393,-77.069824,-28.319138
3.025000,44.862885,-2.437221,69.283638,-27.423393,-77.069824,-28.319138
3.031250,44.862885,-2.437221,69.283638,-27.423393,-77.069824,-28.319138
3.037500,44.862885,-2.437221,69.283638,-27.423393,-77.069824,-28.319138
3.043750,44.862885,-2.437221,69.283638,-27.423393,-77.069824,-28.319138
3.050000,44.862885,-2.437221,69.283638,-27.423393,-77.069824,-28.319138
3.056250,44.862885,-2.437221,69.283638,-27.423393,-77.069824,-28.319138
3.062500,44.862885,-2.437221,69.283638,-27.423393,-77.069824,-28.319138
3.068750,44.862885,-2.437221,69.283638,-27.423393,-77.069824,-28.319138
3.075000,44.862885,-2.437221,69.283638,-27.423393,-77.069824,-28.319138
3.081250,44.862885,-2.437221,69.283638,-27.423393,-77.069824,-28.319138
3.087500,44.862885,-2.437221,69.283638,-27.423393,-77.069824,-28.319138
3.093750,44.862885,-2.439649,69.283638,-27.231531,-77.069824,-28.148027
3.100000,50.794731,-2.442432,65.542343,-27.062410,-77.369980,-27.956995
3.106250,56.726223,-2.445348,60.904419,-26.941664,-76.844376,-27.747633
3.112500,62.658497,-2.448317,54.007088,-26.885244,-75.222656,-27.506582
3.118750,68.591034,-2.451409,46.989845,-26.909863,-72.290375,-27.202974
3.125000,74.522469,-2.454653,40.313282,-26.913637,-68.008156,-26.873631
3.131250,80.453369,-2.457963,33.956406,-26.938759,-62.451202,-26.515747
3.137500,86.383255,-2.461546,27.935074,-26.995764,-55.307125,-26.117496
3.143750,92.311729,-2.465674,22.528173,-27.081896,-46.619190,-25.687443
3.150000,96.345932,-2.470114,18.019629,-27.185759,-38.395248,-25.240555
3.156250,100.109665,-2.474443,14.647102,-27.294252,-29.157568,-24.797577
3.162500,103.069923,-2.478492,12.596456,-27.392385,-19.616102,-24.382435
3.168750,104.732841,-2.482534,12.002646,-27.465162,-10.451468,-24.027027
3.175000,104.669952,-2.486730,12.980230,-27.494896,-2.273133,-23.755957
3.181250,102.542053,-2.491093,13.824172,-27.464771,4.774985,-23.498060
3.187500,98.113754,-2.495323,16.256311,-27.385134,10.067635,-23.291662
3.193750,91.262833,-2.499333,19.584583,-27.262074,13.270378,-23.159056
3.200000,81.989281,-2.503100,23.208979,-27.100307,14.412807,-23.110741
3.206250,70.414505,-2.506512,26.639387,-26.907505,13.547884,-23.143602
3.212500,56.774426,-2.509487,29.438854,-26.695532,10.818941,-23.260221
3.218750,41.396587,-2.512873,31.234018,-26.476934,6.513965,-23.482122
3.225000,24.731136,-2.516248,33.929840,-26.255466,0.810078,-23.712887
3.231250,7.261607,-2.519197,35.992928,-26.029892,-6.165137,-23.963106
3.237500,-10.479735,-2.521802,35.862480,-25.805473,-13.684786,-24.235958
3.243750,-27.950575,-2.524510,35.515087,-25.575029,-19.620384,-24.514521
3.250000,-44.619133,-2.527749,34.769627,-25.335373,-25.421307,-24.776712
3.256250,-59.990192,-2.531242,33.231716,-25.133060,-30.468906,-25.009315
3.262500,-73.633415,-2.534411,30.781691,-24.958252,-34.230064,-25.202391
3.268750,-85.209030,-2.537160,27.397329,-24.804201,-36.201748,-25.344255
3.275000,-94.483154,-2.539838,22.905886,-24.670002,-36.006561,-25.428244
3.281250,-101.336105,-2.542869,17.143856,-24.549051,-33.417187,-25.453100
3.287500,-105.766106,-2.546320,9.979024,-24.431360,-28.384438,-25.424257
3.293750,-107.892311,-2.549881,3.505125,-24.297279,-21.034273,-25.343447
3.300000,-107.950844,-2.553323,-3.670989,-24.110390,-11.615155,-25.210291
3.306250,-106.281792,-2.556476,-11.525203,-23.970655,-0.501651,-25.041515
3.312500,-103.313393,-2.559408,-19.543240,-23.845308,11.780454,-24.862043
3.318750,-99.538857,-2.562308,-27.176386,-23.731291,24.625313,-24.695873
3.325000,-95.490585,-2.565072,-34.162094,-23.638378,37.399010,-24.559351
3.331250,-89.546288,-2.567557,-40.271832,-23.580963,51.641266,-24.461849
3.337500,-83.600693,-2.569596,-45.334858,-23.585760,65.370270,-24.409157
3.343750,-77.653999,-2.571286,-49.247990,-23.723396,78.510452,-24.399601
3.350000,-71.707817,-2.572640,-52.032181,-23.862406,89.134506,-24.411716
3.356250,-65.761742,-2.573655,-54.453991,-24.070011,98.831635,-24.422667
3.362500,-59.817253,-2.574496,-53.940319,-24.389435,106.605194,-24.510395
3.368750,-53.874161,-2.575056,-52.293427,-24.823780,112.112038,-24.653551
3.375000,-47.931637,-2.575119,-49.435581,-25.356047,115.057312,-24.862080
3.381250,-41.990421,-2.574687,-45.422508,-25.959578,115.169052,-25.134550
3.387500,-36.053871,-2.574339,-40.405281,-26.602018,112.714531,-25.404728
3.393750,-30.123405,-2.574594,-34.603706,-27.244612,107.510674,-25.684782
3.400000,-24.196442,-2.575296,-28.278946,-27.845196,99.776894,-25.930702
3.406250,-18.269506,-2.575851,-21.770069,-28.374012,90.278252,-26.213964
3.412500,-12.342754,-2.576422,-15.450404,-28.808001,80.067802,-26.502558
3.418750,-6.420292,-2.577601,-9.331222,-29.122105,69.672798,-26.764450
3.425000,-0.501381,-2.579713,-3.423942,-29.302559,57.878483,-26.985888
3.431250,5.418688,-2.582122,1.985975,-29.348654,47.025051,-27.162678
3.437500,11.342262,-2.584374,6.668961,-29.262989,37.572487,-27.299911
3.443750,17.265894,-2.587064,10.579494,-29.022379,30.042471,-27.358131
3.450000,23.187420,-2.590658,13.567204,-28.654230,22.980413,-27.337528
3.456250,29.110638,-2.594744,15.500731,-28.191559,18.084320,-27.250761
3.462500,35.041245,-2.598389,16.492502,-27.671661,15.008160,-27.101805
3.468750,40.977806,-2.601334,16.786892,-27.132883,13.415032,-26.888733
3.475000,46.915020,-2.604060,16.680496,-26.618816,12.952143,-26.619799
3.481250,52.850986,-2.606810,16.527281,-26.163029,13.224011,-26.310198
3.487500,58.785858,-2.609732,15.095099,-25.731998,13.827595,-25.959467
3.493750,64.719894,-2.612944,14.282597,-25.370987,14.364810,-25.569618
3.500000,70.653969,-2.616530,13.829167,-25.101589,14.403357,-25.152420
3.506250,76.590019,-2.620111,13.688019,-24.924488,13.589185,-24.719952
3.512500,82.529884,-2.623034,13.821136,-24.826887,11.646323,-24.283623
3.518750,88.470978,-2.625603,14.195926,-24.772402,8.375751,-23.851357
3.525000,94.407257,-2.628820,14.783165,-24.663158,3.641986,-23.430071
3.531250,98.444328,-2.633120,15.605145,-24.613008,-0.492925,-23.032127
3.537500,102.209259,-2.637930,17.424646,-24.558748,-5.453692,-22.672859
3.543750,105.173912,-2.642449,19.660383,-24.473722,-10.769503,-22.372890
3.550000,106.844810,-2.646981,22.476147,-24.346315,-16.092892,-22.101610
3.556250,106.790421,-2.651982,24.211685,-24.158144,-21.183884,-21.833609
3.562500,104.671921,-2.657465,26.587370,-23.925871,-25.565533,-21.581596
3.568750,100.257797,-2.662472,29.069529,-23.675053,-29.542837,-21.422850
3.575000,93.428589,-2.666326,31.238987,-23.431499,-32.959290,-21.347733
3.581250,84.180313,-2.669008,32.713360,-23.226278,-35.902443,-21.378700
3.587500,72.629616,-2.671103,33.143085,-23.093218,-36.851761,-21.481522
3.593750,59.011715,-2.672847,32.295773,-23.050432,-38.170540,-21.642576
3.600000,43.670731,-2.673787,32.270050,-23.090471,-39.318150,-21.888695
3.606250,27.035089,-2.673425,31.525314,-23.228951,-40.242977,-22.218210
3.612500,9.593612,-2.672008,30.399252,-23.467546,-40.997761,-22.610977
3.618750,-8.125675,-2.670127,29.315331,-23.800858,-41.710552,-23.033510
3.625000,-25.575752,-2.667705,28.530615,-24.252981,-42.685043,-23.503656
3.631250,-42.222580,-2.664475,28.411747,-24.798758,-42.091087,-24.004412
3.637500,-57.575512,-2.660722,29.357309,-25.403315,-41.313957,-24.503386
3.643750,-71.211929,-2.657165,29.657297,-26.028780,-40.065556,-24.976240
3.650000,-82.791687,-2.654277,30.984257,-26.634687,-38.183212,-25.403555
3.656250,-92.074615,-2.652000,32.758350,-27.168814,-35.572994,-25.766748
3.662500,-98.937752,-2.650341,34.302555,-27.586271,-32.195393,-26.053169
3.668750,-103.380653,-2.649485,36.778709,-27.918592,-28.105223,-26.263569
3.675000,-105.523697,-2.649468,38.228981,-28.128277,-23.433464,-26.401741
3.681250,-105.601746,-2.649870,38.655170,-28.198898,-18.328135,-26.467833
3.687500,-103.955170,-2.650740,37.933681,-28.132551,-12.991977,-26.464796
3.693750,-101.013855,-2.652681,35.994705,-27.947889,-7.678874,-26.400864
3.700000,-97.269699,-2.655853,32.853065,-27.680796,-2.654152,-26.290016
3.706250,-93.249527,-2.659522,28.713846,-27.325884,1.864487,-26.142225
3.712500,-87.328712,-2.663036,23.886787,-26.911976,5.759588,-25.953140
3.718750,-81.405380,-2.666635,16.527792,-26.484358,8.928908,-25.726128
3.725000,-75.482796,-2.670851,8.559227,-26.072966,11.286599,-25.460808
3.731250,-69.559250,-2.675295,-0.184780,-25.704361,13.028760,-25.200422
3.737500,-63.630325,-2.679354,-7.746394,-25.420321,14.568745,-24.974957
3.743750,-57.697002,-2.682930,-15.545779,-25.230047,16.013918,-24.795115
3.750000,-51.763031,-2.686346,-23.000971,-25.124346,17.772842,-24.649843
3.756250,-45.829979,-2.689597,-29.669123,-25.095764,18.663963,-24.496128
3.762500,-39.896145,-2.692547,-35.201927,-25.130810,20.594772,-24.328726
3.768750,-33.962212,-2.695301,-39.246887,-25.200195,21.377903,-24.189253
3.775000,-28.029406,-2.698176,-41.567413,-25.284595,22.868637,-24.101831
3.781250,-22.097250,-2.701079,-42.140404,-25.389017,24.281260,-24.041891
3.787500,-16.164345,-2.703684,-40.841957,-25.490568,25.265469,-23.998091
3.793750,-10.231668,-2.706151,-39.468163,-25.580233,25.561613,-23.968428
3.800000,-4.300733,-2.708862,-36.461327,-25.667959,24.993959,-23.951546
3.806250,1.628054,-2.711890,-32.192326,-25.656088,23.541906,-23.919737
3.812500,7.557127,-2.715122,-27.415667,-25.585110,21.248329,-23.859880
3.818750,13.486041,-2.718634,-23.021767,-25.475185,18.015739,-23.779217
3.825000,19.414413,-2.722605,-17.360996,-25.339722,13.934664,-23.681992
3.831250,25.344955,-2.726615,-12.229503,-25.190657,9.259116,-23.572830
3.837500,31.278406,-2.730193,-7.474311,-25.041021,4.324375,-23.464228
3.843750,37.212925,-2.733765,-2.883779,-24.898218,-0.505700,-23.383638
3.850000,43.145840,-2.737767,1.832554,-24.754993,-4.652481,-23.261898
3.856250,49.078541,-2.741875,5.025091,-24.614958,-9.505269,-23.125593
3.862500,55.014053,-2.745496,8.481217,-24.483650,-13.367250,-22.995703
3.868750,60.950542,-2.748847,11.885549,-24.356888,-16.348341,-22.876846
3.875000,66.882469,-2.752977,14.943910,-24.219719,-18.571033,-22.765711
3.881250,72.810257,-2.758348,17.366785,-24.042990,-20.198496,-22.650911
3.887500,78.740021,-2.764079,18.745974,-23.847931,-21.465658,-22.524590
3.893750,84.676193,-2.769351,18.628775,-23.631670,-22.718336,-22.394434
3.900000,90.615784,-2.774548,19.105978,-23.375629,-24.291798,-22.259476
3.906250,94.658455,-2.780577,18.610840,-23.074118,-26.461159,-22.117119
3.912500,98.426193,-2.787675,17.432529,-22.727768,-29.546076,-21.964237
3.918750,101.392357,-2.795369,15.856866,-22.341219,-33.863529,-21.794191
3.925000,103.068138,-2.803012,14.105239,-21.930021,-37.828320,-21.592989
3.931250,103.026840,-2.810338,12.338791,-21.518202,-43.371819,-21.370333
3.937500,100.926224,-2.817280,10.735161,-21.128635,-48.325470,-21.178644
3.943750,96.528130,-2.823802,9.475122,-20.783409,-53.601261,-21.019205
3.950000,89.711876,-2.829541,8.681148,-20.503466,-58.308167,-20.899817
3.956250,80.478325,-2.833965,8.400006,-20.307732,-61.709969,-20.832888
3.962500,68.947388,-2.836703,8.632030,-20.209034,-63.169647,-20.830761
3.968750,55.352776,-2.838015,9.361958,-20.211088,-62.148739,-20.902382
3.975000,40.031521,-2.838088,10.822187,-20.301146,-60.146381,-21.056492
3.981250,23.409748,-2.836980,13.210818,-20.446316,-55.307495,-21.326694
3.987500,5.979181,-2.834739,16.071743,-20.728573,-48.043293,-21.642635
3.993750,-11.729470,-2.831582,19.332556,-21.087517,-38.662716,-22.040724
4.000000,-29.170912,-2.827684,22.978167,-21.506586,-28.218019,-22.534405
4.006250,-45.812775,-2.823038,26.662071,-21.976154,-17.299892,-23.129440
4.012500,-61.164066,-2.817843,30.157627,-22.478376,-6.570412,-23.871229
4.018750,-74.799446,-2.812893,33.289299,-22.988335,2.944274,-24.573183
4.025000,-86.379593,-2.808541,35.878029,-23.483082,10.441870,-25.253376
4.031250,-95.664619,-2.804735,35.809021,-23.955248,17.238060,-25.974550
4.037500,-102.530121,-2.801363,36.707119,-24.391722,22.906019,-26.702164
4.043750,-106.977425,-2.798883,36.638577,-24.776781,26.222782,-27.399105
4.050000,-109.127632,-2.797587,35.581394,-25.103851,27.639067,-28.040352
4.056250,-109.213707,-2.796864,33.566330,-25.370220,27.678205,-28.608124
4.062500,-107.572983,-2.796065,30.759495,-25.555408,25.069883,-29.082148
4.068750,-104.636749,-2.795705,27.389322,-25.657242,22.175552,-29.432877
4.075000,-100.902245,-2.797103,23.587074,-25.689747,19.136465,-29.652012
4.081250,-96.898872,-2.800058,19.644136,-25.664083,16.089071,-29.738396
4.087500,-90.996140,-2.803349,15.947879,-25.586861,13.278579,-29.689226
4.093750,-85.084518,-2.806044,11.030169,-25.462484,11.009585,-29.503605
4.100000,-79.171295,-2.808768,6.931559,-25.298536,9.589665,-29.190781
4.106250,-73.262321,-2.812352,3.537644,-25.101620,7.146545,-28.773493
4.112500,-67.355995,-2.816790,0.777551,-24.872276,5.330550,-28.271126
4.118750,-61.447311,-2.821690,-1.423604,-24.611013,4.118608,-27.657438
4.125000,-55.535797,-2.827064,-3.246462,-24.329054,3.147114,-26.976217
4.131250,-49.622051,-2.833004,-4.856284,-24.038191,2.071935,-26.265114
4.137500,-43.704929,-2.839199,-6.356531,-23.746265,0.745928,-25.553841
4.143750,-37.782200,-2.845279,-7.815806,-23.456177,-0.923494,-24.865252
4.150000,-31.855335,-2.851277,-9.308087,-23.170641,-3.013354,-24.217916
4.156250,-25.926680,-2.857559,-8.747651,-22.890448,-3.412704,-23.621222
4.162500,-19.996704,-2.864188,-7.579803,-22.615271,-3.519601,-23.053614
4.168750,-14.063662,-2.870971,-7.294249,-22.341984,-2.988957,-22.609268
4.175000,-8.126965,-2.877918,-5.912425,-22.067369,-3.402640,-22.226084
4.181250,-2.186303,-2.884845,-3.778855,-21.804737,-2.640277,-21.919296
4.187500,3.759164,-2.891516,-1.222966,-21.564104,-1.083955,-21.678459
4.193750,9.709582,-2.897843,1.442770,-21.352880,0.995834,-21.425097
4.200000,15.663700,-2.903611,3.895168,-21.178534,3.724560,-21.314022
4.206250,21.620903,-2.908661,5.819753,-21.048595,7.050421,-21.299692
4.212500,27.581179,-2.912652,9.109369,-20.966900,8.215252,-21.342796
4.218750,33.541500,-2.915795,12.197958,-20.926363,9.976705,-21.400316
4.225000,39.499329,-2.918530,15.414671,-20.917944,10.397400,-21.491812
4.231250,45.452831,-2.921076,17.116886,-20.932537,9.418873,-21.615007
4.237500,51.403809,-2.923423,19.154165,-20.958624,6.913367,-21.754065
4.243750,57.352612,-2.925385,21.109470,-21.007586,4.913754,-21.897331
4.250000,63.300442,-2.926963,22.538158,-21.078131,1.888826,-22.047422
4.256250,69.246346,-2.928023,23.163063,-21.151834,-1.690971,-22.192278
4.262500,75.187981,-2.928935,22.627743,-21.212172,-5.309311,-22.317249
4.268750,81.123703,-2.930279,20.579521,-21.246422,-8.523873,-22.407511
4.275000,87.052139,-2.932626,18.883430,-21.247238,-10.953730,-22.451263
4.281250,92.977585,-2.935725,15.909332,-21.205971,-12.276644,-22.437132
4.287500,97.009071,-2.939168,11.934659,-21.113081,-12.241252,-22.345860
4.293750,100.767273,-2.943448,7.193298,-20.973305,-10.746428,-22.171038
4.300000,103.717857,-2.949119,1.885758,-20.797394,-8.085046,-21.965441
4.306250,105.373581,-2.955514,-3.681182,-20.587992,-4.289657,-21.719799
4.312500,105.313728,-2.961497,-9.222347,-20.351236,0.557333,-21.436281
4.318750,103.196754,-2.966854,-14.502557,-20.096395,6.158898,-21.123835
4.325000,98.777901,-2.972612,-19.334496,-19.838985,12.150775,-20.797979
4.331250,91.934235,-2.979067,-23.576878,-19.597200,18.133814,-20.475657
4.337500,82.671913,-2.985422,-27.110903,-19.392256,23.728079,-20.169580
4.343750,71.116821,-2.990857,-29.869991,-19.284101,28.571325,-19.878761
4.350000,57.503082,-2.995423,-29.582041,-19.161369,32.340187,-19.606339
4.356250,42.168076,-2.999118,-29.175858,-19.115591,36.519440,-19.419016
4.362500,25.538351,-3.001565,-27.171650,-19.171190,39.660946,-19.319294
4.368750,8.106554,-3.002692,-23.509571,-19.328861,42.139099,-19.327250
4.375000,-9.600504,-3.003032,-18.310755,-19.582329,44.284481,-19.507380
4.381250,-27.038504,-3.002867,-11.796669,-19.918045,46.081955,-19.707216
4.387500,-43.672092,-3.001668,-4.259791,-20.314640,47.862053,-19.969048
4.393750,-59.008270,-2.999267,3.925581,-20.751019,50.338333,-20.314844
4.400000,-72.626114,-2.996596,12.309702,-21.211611,51.967304,-20.770210
4.406250,-84.186928,-2.994128,18.546883,-21.681593,54.034527,-21.294098
4.412500,-93.450241,-2.991365,26.034559,-22.143085,56.179085,-21.857664
4.418750,-100.291962,-2.988021,32.536568,-22.581320,58.159149,-22.437550
4.425000,-104.715469,-2.984771,37.791782,-22.970098,59.807312,-23.005104
4.431250,-106.846100,-2.982294,41.737583,-23.269375,61.082008,-23.512815
4.437500,-106.917534,-2.980321,44.186733,-23.480833,61.887997,-23.939476
4.443750,-105.266319,-2.978516,45.093151,-23.610662,62.105438,-24.272928
4.450000,-102.322586,-2.977523,44.637321,-23.659786,61.788517,-24.499893
4.456250,-98.580589,-2.978164,43.104347,-23.628769,61.076363,-24.611780
4.462500,-94.568916,-2.980002,40.867207,-23.522659,60.130100,-24.605860
4.468750,-88.658699,-2.982308,38.385098,-23.352049,59.148567,-24.487526
4.475000,-82.745224,-2.985130,34.274017,-23.135523,58.367146,-24.278822
4.481250,-76.831795,-2.988839,30.732397,-22.874161,58.132988,-23.959398
4.487500,-70.916344,-2.993140,27.830828,-22.575880,57.017242,-23.541113
4.493750,-64.996208,-2.997453,25.436419,-22.268867,56.638145,-23.066851
4.500000,-59.073826,-3.002421,23.491453,-21.975555,56.689705,-22.569706
4.506250,-53.152527,-3.008779,22.002802,-21.708744,56.927433,-22.075500
4.512500,-47.227383,-3.015908,20.980871,-21.470943,57.111202,-21.604115
4.518750,-41.290359,-3.022418,20.413036,-21.250746,56.981678,-21.172482
4.525000,-35.341843,-3.027726,20.253263,-20.981001,56.259163,-20.800543
4.531250,-29.390034,-3.032720,20.284496,-20.790787,54.595055,-20.538677
4.537500,-23.440229,-3.038146,21.923143,-20.652317,51.449703,-20.331413
4.543750,-17.487429,-3.043649,22.388264,-20.528660,48.254917,-20.195471
4.550000,-11.527746,-3.048363,23.587969,-20.420517,43.522396,-20.133799
4.556250,-5.561564,-3.052109,25.007938,-20.351097,37.501022,-20.079767
4.562500,0.406931,-3.055152,26.271858,-20.340092,30.868027,-20.184139
4.568750,6.376148,-3.057678,27.063951,-20.408802,24.078512,-20.406296
4.575000,12.346472,-3.059561,27.090931,-20.587669,17.189404,-20.733679
4.581250,18.320053,-3.060364,26.115530,-20.942575,10.080819,-21.086502
4.587500,24.294554,-3.059939,24.978762,-21.324383,3.645031,-21.505945
4.593750,30.267908,-3.058451,23.204485,-21.815903,-1.789416,-21.993811
4.600000,36.237370,-3.056163,20.752119,-22.425610,-6.089077,-22.535948
4.606250,42.201817,-3.053087,17.674583,-23.162434,-9.235354,-23.118282
4.612500,48.161617,-3.049216,14.000829,-24.007658,-11.361089,-23.739487
4.618750,54.114067,-3.045140,10.093004,-24.918497,-12.577742,-24.377882
4.625000,60.055916,-3.041605,5.953462,-25.876850,-13.016716,-25.013962
4.631250,65.990952,-3.038383,1.728724,-26.852600,-12.920738,-25.633030
4.637500,71.923813,-3.034523,-2.371906,-27.807028,-12.583858,-26.223576
4.643750,77.854301,-3.030013,-8.022814,-28.693399,-12.337625,-26.761574
4.650000,83.774055,-3.026198,-13.396132,-29.460617,-12.565096,-27.204819
4.656250,89.678993,-3.024341,-16.702826,-30.058353,-13.607408,-27.518307
4.662500,95.574745,-3.024297,-19.757410,-30.464088,-15.869067,-27.724195
4.668750,99.574173,-3.025455,-22.569914,-30.666727,-17.790434,-27.828531
4.675000,103.300888,-3.027890,-25.000141,-30.649706,-20.882402,-27.814327
4.681250,106.221596,-3.031682,-26.976311,-30.408829,-24.941328,-27.675766
4.687500,107.846626,-3.036464,-28.516891,-29.959929,-29.791769,-27.418396
4.693750,107.749672,-3.042216,-29.702101,-29.336477,-35.238102,-27.054350
4.700000,105.588387,-3.049461,-30.630087,-28.588596,-41.016632,-26.592907
4.706250,101.125389,-3.058623,-31.528728,-27.730717,-46.821697,-26.037268
4.712500,94.247169,-3.068502,-32.850616,-26.782766,-52.320023,-25.371098
4.718750,84.960922,-3.077583,-34.585220,-25.800728,-56.964962,-24.693962
