Anritsu VNA Frequency[GHz],S21[deg],S21[dB],S11[deg],S11[dB],S22[deg],S22[dB]
1338117787.18,2012_05_27_12:23:07,+40.741,+10.267,+55.351,+10.276,+13.905,+13.714,+14.009,+13.760,10.411724,-15.817
3.006250,34.268959,-1.754086,59.379230,-26.661119,-79.839394,-27.445240
3.012500,34.268959,-1.754086,59.379230,-26.661119,-79.839394,-27.445240
3.018750,34.268959,-1.754086,59.379230,-26.661119,-79.839394,-27.445240
3.025000,34.268959,-1.754086,59.379230,-26.661119,-79.839394,-27.445240
3.031250,34.268959,-1.754086,59.379230,-26.661119,-79.839394,-27.445240
3.037500,34.268959,-1.754086,59.379230,-26.661119,-79.839394,-27.445240
3.043750,34.268959,-1.754086,59.379230,-26.661119,-79.839394,-27.445240
3.050000,34.268959,-1.754086,59.379230,-26.661119,-79.839394,-27.445240
3.056250,34.268959,-1.754086,59.379230,-26.661119,-79.839394,-27.445240
3.062500,34.268959,-1.754086,59.379230,-26.661119,-79.839394,-27.445240
3.068750,34.268959,-1.754086,59.379230,-26.661119,-79.839394,-27.445240
3.075000,34.268959,-1.754086,59.379230,-26.661119,-79.839394,-27.445240
3.081250,34.268959,-1.754086,59.379230,-26.661119,-79.839394,-27.445240
3.087500,34.268959,-1.754086,59.379230,-26.661119,-79.839394,-27.445240
3.093750,34.268959,-1.755926,59.379230,-26.457071,-79.839394,-27.193884
3.100000,40.175388,-1.758048,56.693676,-26.302654,-81.858429,-26.960384
3.106250,46.081860,-1.760167,53.118301,-26.219168,-82.262321,-26.746714
3.112500,51.989117,-1.762319,49.027336,-26.227589,-80.689201,-26.525673
3.118750,57.895855,-1.764650,43.017017,-26.269449,-78.983833,-26.223736
3.125000,63.801773,-1.767088,38.209774,-26.311499,-74.943779,-25.962120
3.131250,69.707390,-1.769599,33.813831,-26.380915,-68.781036,-25.674524
3.137500,75.612114,-1.772431,30.089245,-26.479229,-60.902214,-25.350033
3.143750,81.515472,-1.775818,27.240446,-26.597847,-51.485649,-24.997154
3.150000,87.419868,-1.779524,25.455648,-26.722532,-40.687656,-24.628340
3.156250,93.327766,-1.782976,24.851265,-26.838758,-28.680050,-24.261927
3.162500,97.342934,-1.786193,25.492748,-26.933199,-15.666319,-23.921963
3.168750,101.085060,-1.789510,27.402176,-26.997917,-3.747818,-23.656519
3.175000,104.020569,-1.793087,30.617285,-27.011530,8.532357,-23.411629
3.181250,105.658752,-1.796784,33.384666,-26.960365,21.054285,-23.188848
3.187500,105.574837,-1.800364,37.171852,-26.862280,32.536743,-23.019905
3.193750,103.427055,-1.803671,41.272205,-26.729139,42.551132,-22.922235
3.200000,98.978096,-1.806689,45.112301,-26.568586,50.771301,-22.898226
3.206250,92.106102,-1.809323,48.213886,-26.391283,56.909595,-22.947783
3.212500,82.808861,-1.811828,50.155861,-26.210672,60.774197,-23.079380
3.218750,71.207581,-1.814520,50.625237,-26.036926,62.257393,-23.275652
3.225000,57.540195,-1.817097,51.623383,-25.864368,61.110622,-23.481462
3.231250,42.149555,-1.819136,51.684052,-25.692724,57.617264,-23.705053
3.237500,25.461279,-1.820886,49.321983,-25.522448,53.888157,-23.938236
3.243750,7.963472,-1.822890,46.645420,-25.330973,48.427547,-24.158197
3.250000,-9.811111,-1.825434,43.527039,-25.158155,41.902866,-24.345909
3.256250,-27.312166,-1.828132,39.608959,-25.017225,34.906525,-24.500469
3.262500,-44.004864,-1.830479,35.123737,-24.891510,28.085915,-24.610334
3.268750,-59.398224,-1.832458,30.017302,-24.777388,22.121777,-24.666506
3.275000,-73.068367,-1.834528,24.166594,-24.673414,17.556932,-24.669266
3.281250,-84.675667,-1.836960,17.463076,-24.570599,14.834163,-24.625851
3.287500,-93.980698,-1.839733,9.816219,-24.456583,14.249576,-24.549992
3.293750,-100.859680,-1.842576,1.189866,-24.292719,15.955915,-24.442474
3.300000,-105.312607,-1.845288,-6.239098,-24.123901,19.996708,-24.304857
3.306250,-107.460442,-1.847715,-14.897427,-23.988474,26.232367,-24.163221
3.312500,-107.540710,-1.849246,-23.557665,-23.866720,34.359493,-24.048658
3.318750,-105.907761,-1.851428,-31.928291,-23.766033,43.998692,-23.982853
3.325000,-102.963867,-1.853430,-39.751244,-23.703796,54.701195,-23.976444
3.331250,-99.213661,-1.855045,-46.764030,-23.706383,65.950920,-24.032373
3.337500,-95.189316,-1.856281,-52.780567,-23.840137,77.166801,-24.149208
3.343750,-89.270386,-1.857164,-57.840172,-23.997168,87.772560,-24.312298
3.350000,-83.352074,-1.857657,-62.276272,-24.217634,97.519699,-24.466034
3.356250,-77.434746,-1.857861,-65.714211,-24.541920,106.123909,-24.663351
3.362500,-71.519081,-1.857885,-66.444931,-24.991816,112.380684,-24.912947
3.368750,-65.605812,-1.857631,-66.108025,-25.547894,116.418854,-25.203472
3.375000,-59.693081,-1.856845,-64.577972,-26.183546,117.837692,-25.578295
3.381250,-53.782043,-1.855661,-61.867851,-26.864614,116.461403,-25.914778
3.387500,-47.877514,-1.854858,-58.073963,-27.552448,112.935333,-26.238476
3.393750,-41.979153,-1.854884,-53.353481,-28.202623,106.689278,-26.542488
3.400000,-36.083225,-1.855253,-47.926403,-28.772814,98.289284,-26.818884
3.406250,-30.185833,-1.855465,-42.127979,-29.241350,88.736092,-27.099028
3.412500,-24.288923,-1.855853,-36.281433,-29.583614,78.697144,-27.348896
3.418750,-18.396622,-1.857099,-28.453047,-29.777918,66.813004,-27.546787
3.425000,-12.507292,-1.859359,-22.187103,-29.819969,55.372940,-27.686880
3.431250,-6.614780,-1.861757,-15.631924,-29.724510,44.809387,-27.774853
3.437500,-0.718161,-1.864068,-9.043648,-29.477028,35.577366,-27.814137
3.443750,5.178100,-1.867018,-2.441799,-29.074280,28.360638,-27.753315
3.450000,11.073051,-1.870943,3.654060,-28.562298,21.439129,-27.621767
3.456250,16.972116,-1.875085,9.079520,-27.980719,16.595732,-27.432499
3.462500,22.879980,-1.878616,13.828571,-27.372599,13.532159,-27.187887
3.468750,28.793043,-1.881554,17.983433,-26.784309,11.937338,-26.885101
3.475000,34.706306,-1.884233,21.649870,-26.281240,11.459987,-26.539576
3.481250,40.619247,-1.886808,25.092512,-25.814657,11.707165,-26.166178
3.487500,46.531235,-1.889459,27.041437,-25.416405,12.311787,-25.760004
3.493750,52.441788,-1.892493,28.886209,-25.121754,12.838594,-25.328360
3.500000,58.351524,-1.896039,30.452354,-24.936171,12.854096,-24.883165
3.506250,64.263840,-1.899317,31.640848,-24.844965,12.025843,-24.434704
3.512500,70.180664,-1.901799,32.354206,-24.813158,10.081581,-23.992287
3.518750,76.097206,-1.904032,32.562748,-24.748192,6.819512,-23.561007
3.525000,82.007614,-1.907145,32.464256,-24.735943,2.084924,-23.147060
3.531250,87.913284,-1.911303,32.583153,-24.725109,-2.095588,-22.765438
3.537500,93.821411,-1.915709,32.586422,-24.680723,-7.183857,-22.431969
3.543750,97.840263,-1.919788,32.724392,-24.593958,-12.750081,-22.142525
3.550000,101.588577,-1.924027,33.332741,-24.437952,-18.513489,-21.860325
3.556250,104.530426,-1.928894,32.853451,-24.213648,-23.998871,-21.534449
3.562500,106.176933,-1.934064,32.993145,-23.950993,-28.910875,-21.292391
3.568750,106.107880,-1.938415,33.407726,-23.676567,-32.045338,-21.121874
3.575000,103.982063,-1.941360,33.819279,-23.416924,-34.398052,-21.023399
3.581250,99.557343,-1.943220,33.946342,-23.206934,-35.702118,-21.010937
3.587500,92.707085,-1.944669,33.528061,-23.082237,-35.975552,-21.044020
3.593750,83.431595,-1.945685,32.452980,-23.032940,-35.096912,-21.144726
3.600000,71.855957,-1.945692,30.667429,-23.070005,-32.907612,-21.328148
3.606250,58.218227,-1.944322,30.012669,-23.207647,-29.565243,-21.588100
3.612500,42.853355,-1.942103,29.039986,-23.431940,-25.345001,-21.898319
3.618750,26.185194,-1.939482,28.158215,-23.758926,-20.644535,-22.234104
3.625000,8.707849,-1.936195,27.478455,-24.201302,-16.248697,-22.637243
3.631250,-9.044829,-1.932042,27.606596,-24.721062,-10.356476,-23.069839
3.637500,-26.529491,-1.927557,28.846392,-25.282394,-4.693445,-23.504229
3.643750,-43.217724,-1.923372,31.338202,-25.848236,0.720490,-23.920389
3.650000,-58.616520,-1.919811,33.216064,-26.373148,5.795698,-24.301149
3.656250,-72.295456,-1.916861,36.044418,-26.782295,10.445862,-24.629698
3.662500,-83.912788,-1.914584,38.994774,-27.122005,14.568885,-24.901407
3.668750,-93.230995,-1.913218,42.991264,-27.369650,18.028709,-25.122608
3.675000,-100.126534,-1.912436,46.351734,-27.497030,20.741070,-25.292118
3.681250,-104.596863,-1.911733,48.806564,-27.501459,22.649597,-25.408339
3.687500,-106.765221,-1.911507,50.113823,-27.395872,23.679892,-25.474306
3.693750,-106.871979,-1.912546,50.121784,-27.206293,23.777941,-25.499186
3.700000,-105.256325,-1.914711,48.840607,-26.938543,22.952225,-25.494390
3.706250,-102.338577,-1.917057,46.417625,-26.610180,21.332613,-25.451952
3.712500,-98.609230,-1.919204,42.839874,-26.259836,19.141899,-25.365723
3.718750,-94.606094,-1.921661,36.404827,-25.915588,16.528536,-25.240829
3.725000,-88.710022,-1.924795,29.036533,-25.593056,13.821767,-25.093079
3.731250,-82.811951,-1.927978,20.462929,-25.336987,11.628931,-24.961121
3.737500,-76.909134,-1.930765,12.624645,-25.170668,10.364469,-24.856888
3.743750,-71.003906,-1.933278,4.269723,-25.079794,10.439519,-24.803530
3.750000,-65.100357,-1.935856,-4.046411,-25.052448,10.447461,-24.715006
3.756250,-59.197731,-1.938443,-11.928174,-25.084915,10.373277,-24.612076
3.762500,-53.294254,-1.940830,-18.954296,-25.155430,11.537724,-24.494797
3.768750,-47.390877,-1.943239,-24.683165,-25.228331,13.682286,-24.412010
3.775000,-41.489277,-1.945968,-28.881012,-25.314413,16.353727,-24.353043
3.781250,-35.587772,-1.948757,-31.447538,-25.401484,18.948654,-24.301809
3.787500,-29.685064,-1.951319,-32.018234,-25.468996,21.101460,-24.251228
3.793750,-23.782333,-1.953934,-30.513214,-25.532801,22.505144,-24.204657
3.800000,-17.881496,-1.956989,-28.859735,-25.534626,22.964190,-24.154236
3.806250,-11.981180,-1.960383,-24.694822,-25.449837,22.492762,-24.064100
3.812500,-6.079419,-1.963985,-19.545515,-25.318335,20.956295,-23.942682
3.818750,-0.177200,-1.967969,-13.951935,-25.156982,18.244362,-23.799801
3.825000,5.726027,-1.972322,-8.451393,-24.980169,14.484467,-23.642433
3.831250,11.633251,-1.976373,-1.390772,-24.802324,9.942899,-23.481600
3.837500,17.544556,-1.979870,5.412430,-24.637285,4.943291,-23.353979
3.843750,23.455540,-1.983497,12.113448,-24.480501,-0.173216,-23.215143
3.850000,29.363821,-1.987635,17.023273,-24.325773,-6.095407,-23.046391
3.856250,35.273251,-1.991609,21.821270,-24.182722,-11.629973,-22.887352
3.862500,41.186977,-1.994851,26.085365,-24.049387,-16.758945,-22.746937
3.868750,47.100140,-1.997936,29.482935,-23.912846,-21.461830,-22.622335
3.875000,53.006405,-2.002024,31.698744,-23.751234,-25.761707,-22.502796
3.881250,58.908638,-2.007327,32.371586,-23.569597,-29.729420,-22.372139
3.887500,64.814224,-2.012721,31.112783,-23.370771,-33.546482,-22.235559
3.893750,70.726326,-2.017610,27.850245,-23.137135,-37.474010,-22.098082
3.900000,76.639633,-2.022686,24.658041,-22.858089,-41.638340,-21.952223
3.906250,82.549530,-2.028782,20.086155,-22.533628,-44.342819,-21.795996
3.912500,88.459557,-2.035829,14.604681,-22.165367,-47.456440,-21.625263
3.918750,94.375702,-2.043216,8.678945,-21.760471,-50.688572,-21.426565
3.925000,98.405373,-2.050339,2.676670,-21.346531,-53.796173,-21.172556
3.931250,102.169945,-2.057112,-3.057141,-20.949480,-56.843147,-20.953640
3.937500,105.135345,-2.063382,-8.094378,-20.589209,-57.634525,-20.765041
3.943750,106.809006,-2.069010,-12.109229,-20.288715,-57.241821,-20.615795
3.950000,106.764977,-2.073509,-14.883091,-20.069866,-55.202484,-20.519136
3.956250,104.662323,-2.076326,-16.290545,-19.951096,-51.160763,-20.490503
3.962500,100.261169,-2.077446,-16.271215,-19.942066,-44.867352,-20.541996
3.968750,93.435936,-2.077145,-14.823640,-20.039967,-36.184429,-20.682018
3.975000,84.184433,-2.075567,-13.896344,-20.209702,-25.117754,-20.921429
3.981250,72.626991,-2.072715,-9.793357,-20.503170,-11.831277,-21.287807
3.987500,58.999382,-2.068798,-5.444560,-20.904221,2.071159,-21.695993
3.993750,43.639999,-2.064069,-0.154083,-21.367083,17.235046,-22.206610
4.000000,26.975214,-2.058716,5.427505,-21.888784,32.867104,-22.827106
4.006250,9.497264,-2.052741,10.950701,-22.452761,48.099453,-23.588383
4.012500,-8.263110,-2.046598,16.148018,-23.031260,61.866920,-24.348272
4.018750,-25.762119,-2.041186,20.768066,-23.591368,74.836067,-25.082998
4.025000,-42.466026,-2.036671,24.521517,-24.118042,85.070099,-25.827221
4.031250,-57.877815,-2.032633,29.275087,-24.601612,93.472992,-26.586048
4.037500,-71.568466,-2.029188,31.660439,-25.021439,99.171356,-27.305458
4.043750,-83.200607,-2.026958,33.717461,-25.364967,102.446747,-27.955559
4.050000,-92.535690,-2.026148,35.302765,-25.632393,103.698257,-28.519293
4.056250,-99.445290,-2.025710,36.344990,-25.814270,103.452576,-28.987404
4.062500,-103.927094,-2.025046,36.922306,-25.892897,100.507545,-29.326540
4.068750,-106.109108,-2.025134,36.978119,-25.885248,97.264130,-29.522915
4.075000,-106.233505,-2.027197,36.530933,-25.808413,93.779228,-29.584213
4.081250,-104.634239,-2.030561,35.761726,-25.675894,90.279716,-29.514421
4.087500,-101.728218,-2.033783,34.924702,-25.496338,84.926849,-29.314955
4.093750,-98.008232,-2.036351,34.325920,-25.278500,79.447853,-28.991592
4.100000,-94.015495,-2.039172,32.384899,-25.037235,73.697998,-28.565256
4.106250,-88.132195,-2.042935,31.096392,-24.776955,67.580215,-28.075232
4.112500,-82.249252,-2.047200,30.360954,-24.489187,61.174946,-27.478872
4.118750,-76.363274,-2.051756,29.920626,-24.189871,54.660461,-26.812489
4.125000,-70.475571,-2.056911,29.484531,-23.894455,47.766376,-26.116119
4.131250,-64.586830,-2.062665,28.884998,-23.611843,40.646351,-25.420500
4.137500,-58.693615,-2.068484,28.008905,-23.345098,33.499180,-24.748869
4.143750,-52.794140,-2.073974,26.768364,-23.093493,26.537563,-24.118755
4.150000,-46.891567,-2.079410,25.078457,-22.856161,19.955095,-23.543203
4.156250,-40.989223,-2.085210,25.033844,-22.629402,13.924086,-23.022364
4.162500,-35.084957,-2.091328,25.227573,-22.402704,8.592632,-22.570318
4.168750,-29.177378,-2.097516,24.244440,-22.164141,5.657758,-22.188301
4.175000,-23.265779,-2.103785,23.938215,-21.934288,2.570700,-21.874664
4.181250,-17.350264,-2.109917,24.122881,-21.716867,1.034688,-21.622940
4.187500,-11.430369,-2.115697,24.595922,-21.517029,0.935153,-21.372936
4.193750,-5.505591,-2.121080,25.134764,-21.340929,2.318106,-21.233419
4.200000,0.423100,-2.125862,25.508045,-21.196295,3.284157,-21.177530
4.206250,6.355366,-2.129720,25.503080,-21.090675,4.503386,-21.184381
4.212500,12.290362,-2.132462,24.954433,-21.021084,7.003233,-21.209257
4.218750,18.224192,-2.134451,25.924999,-20.976696,8.551512,-21.257244
4.225000,24.154442,-2.136194,25.007328,-20.953512,9.147366,-21.328970
4.231250,30.081070,-2.137787,24.178064,-20.940041,8.642406,-21.410551
4.237500,36.005070,-2.139167,23.229630,-20.935877,6.867033,-21.479002
4.243750,41.926910,-2.140280,21.826548,-20.957502,5.739764,-21.543945
4.250000,47.847439,-2.141104,19.810015,-20.989836,3.640427,-21.604519
4.256250,53.766121,-2.141526,17.035032,-21.015291,1.094144,-21.644464
4.262500,59.680660,-2.142035,13.269771,-21.019358,-1.486820,-21.652935
4.268750,65.587837,-2.143343,8.317483,-20.991426,-3.747658,-21.619257
4.275000,71.488525,-2.145868,1.996851,-20.924185,-5.375672,-21.536701
4.281250,77.388359,-2.149072,-3.687157,-20.805132,-6.099542,-21.392904
4.287500,83.290474,-2.152694,-10.263782,-20.631550,-5.721525,-21.158424
4.293750,89.192039,-2.157451,-17.476892,-20.426119,-4.334085,-20.904041
4.300000,95.092766,-2.163680,-24.951521,-20.190617,-2.217006,-20.632202
4.306250,99.105156,-2.170093,-32.247215,-19.928185,0.829291,-20.340176
4.312500,102.856056,-2.175675,-39.046169,-19.649763,4.596018,-20.037674
4.318750,105.808144,-2.180776,-45.077896,-19.369759,8.818330,-19.738077
4.325000,107.461342,-2.186377,-50.140915,-19.109480,13.191632,-19.459215
4.331250,107.390244,-2.192364,-54.090309,-18.891521,17.405067,-19.215485
4.337500,105.261795,-2.197634,-56.828510,-18.761740,21.186844,-19.009863
4.343750,100.839127,-2.201698,-58.374886,-18.636892,24.314919,-18.785721
4.350000,93.996742,-2.204824,-57.731598,-18.581509,26.318987,-18.665394
4.356250,84.732140,-2.206858,-55.790569,-18.632473,28.864473,-18.630489
4.362500,73.167961,-2.207290,-52.354836,-18.789543,30.708981,-18.690968
4.368750,59.538658,-2.206480,-47.510658,-19.044556,32.206383,-18.873817
4.375000,44.178375,-2.205252,-41.462151,-19.384596,33.607330,-19.119038
4.381250,27.514509,-2.203563,-34.481903,-19.788734,34.960831,-19.409002
4.387500,10.043998,-2.200711,-26.892982,-20.230385,37.068382,-19.749638
4.393750,-7.702444,-2.197025,-19.107109,-20.693012,38.259411,-20.170298
4.400000,-25.185297,-2.193631,-11.583225,-21.164080,40.092995,-20.646368
4.406250,-41.871307,-2.190753,-2.523935,-21.625710,42.150799,-21.151176
4.412500,-57.262913,-2.187503,4.488210,-22.064400,44.141830,-21.666113
4.418750,-70.931465,-2.184030,11.297911,-22.474518,45.849899,-22.177868
4.425000,-82.542000,-2.181241,17.733299,-22.794352,47.191883,-22.638489
4.431250,-91.858574,-2.179478,23.624771,-23.023666,48.179688,-23.020290
4.437500,-98.753571,-2.178109,28.581327,-23.174175,48.578583,-23.319752
4.443750,-103.224815,-2.176954,32.554890,-23.253180,48.388062,-23.529594
4.450000,-105.398117,-2.176825,35.610310,-23.262348,47.734112,-23.642643
4.456250,-105.511459,-2.178208,37.877708,-23.206264,46.786522,-23.657068
4.462500,-103.899544,-2.180292,39.557148,-23.095070,45.726227,-23.578985
4.468750,-100.985168,-2.182659,40.937305,-22.948153,44.774208,-23.430466
4.475000,-97.263412,-2.185824,40.501389,-22.764345,44.222904,-23.198168
4.481250,-93.268745,-2.189736,40.414658,-22.536457,42.799656,-22.867493
4.487500,-87.374100,-2.193667,40.339390,-22.296795,42.037327,-22.484873
4.493750,-81.473694,-2.197259,40.083496,-22.066635,41.632591,-22.080151
4.500000,-75.574532,-2.201722,39.580044,-21.857096,41.367401,-21.674875
4.506250,-69.678673,-2.207763,38.803772,-21.668701,41.034103,-21.283787
4.512500,-63.777485,-2.214219,37.748360,-21.489393,40.415195,-20.916561
4.518750,-57.863701,-2.219666,36.414429,-21.266804,39.266052,-20.582809
4.525000,-51.940800,-2.224145,34.825817,-21.079525,37.271412,-20.317524
4.531250,-46.018707,-2.228890,34.074608,-20.941484,33.990284,-20.111361
4.537500,-40.098454,-2.234265,33.651443,-20.807911,30.773321,-19.939560
4.543750,-34.172688,-2.239425,32.145496,-20.667818,26.125751,-19.813892
4.550000,-28.238651,-2.243607,31.282824,-20.547554,20.377628,-19.710331
4.556250,-22.298771,-2.246911,30.774664,-20.469580,13.928735,-19.689110
4.562500,-16.357487,-2.249685,30.399549,-20.453123,7.492413,-19.766857
4.568750,-10.415373,-2.251984,29.933865,-20.524273,1.044470,-19.940868
4.575000,-4.470429,-2.253442,29.147722,-20.737471,-5.237386,-20.158575
4.581250,1.477627,-2.253756,27.843912,-21.019350,-11.028661,-20.430582
4.587500,7.426558,-2.252772,24.791040,-21.384962,-15.831757,-20.769722
4.593750,13.373975,-2.250915,22.834452,-21.854731,-19.463726,-21.168337
4.600000,19.317287,-2.248241,20.106735,-22.432240,-21.875689,-21.606525
4.606250,25.256920,-2.244536,16.486797,-23.187363,-23.209738,-22.095186
4.612500,31.192057,-2.239933,12.910100,-23.977182,-23.742651,-22.625494
4.618750,37.117554,-2.235353,8.714162,-24.840549,-23.537672,-23.174263
4.625000,43.031013,-2.231553,4.255911,-25.757395,-22.881578,-23.726669
4.631250,48.938076,-2.227961,-0.174699,-26.694260,-22.096495,-24.268826
4.637500,54.844101,-2.223518,-4.313180,-27.608091,-21.544479,-24.783413
4.643750,60.745667,-2.218767,-7.910857,-28.445860,-21.591646,-25.236012
4.650000,66.633766,-2.215234,-12.663144,-29.146378,-22.585169,-25.579128
4.656250,72.507225,-2.213746,-14.703814,-29.681131,-24.902899,-25.818838
4.662500,78.375122,-2.213845,-16.083118,-30.042034,-27.117792,-25.977962
4.668750,84.242119,-2.215159,-16.670700,-30.197981,-30.612185,-26.029621
4.675000,90.108414,-2.217965,-16.490356,-30.136368,-35.144718,-25.965538
4.681250,94.080635,-2.222055,-15.675321,-29.859634,-40.507095,-25.786629
4.687500,97.784004,-2.226853,-14.428783,-29.391161,-46.475357,-25.503952
4.693750,100.685226,-2.232583,-12.998926,-28.768377,-52.780033,-25.129419
4.700000,102.288559,-2.240252,-11.683410,-28.019548,-59.078022,-24.665573
4.706250,102.169472,-2.249639,-10.965109,-27.150017,-65.000824,-24.105276
4.712500,99.998619,-2.258959,-11.091159,-26.200722,-70.116638,-23.499096
4.718750,95.542877,-2.266988,-12.408105,-25.247593,-75.827873,-22.905825
