Anritsu VNA Frequency[GHz],S21[deg],S21[dB],S11[deg],S11[dB],S22[deg],S22[dB]
1338093269.63,2012_05_27_05:34:29,+40.532,+10.240,+54.873,+10.255,+13.889,+13.698,+13.994,+13.744,10.334867,-16.162
3.006250,33.138386,-1.742485,58.481663,-26.682878,-81.146454,-27.421251
3.012500,33.138386,-1.742485,58.481663,-26.682878,-81.146454,-27.421251
3.018750,33.138386,-1.742485,58.481663,-26.682878,-81.146454,-27.421251
3.025000,33.138386,-1.742485,58.481663,-26.682878,-81.146454,-27.421251
3.031250,33.138386,-1.742485,58.481663,-26.682878,-81.146454,-27.421251
3.037500,33.138386,-1.742485,58.481663,-26.682878,-81.146454,-27.421251
3.043750,33.138386,-1.742485,58.481663,-26.682878,-81.146454,-27.421251
3.050000,33.138386,-1.742485,58.481663,-26.682878,-81.146454,-27.421251
3.056250,33.138386,-1.742485,58.481663,-26.682878,-81.146454,-27.421251
3.062500,33.138386,-1.742485,58.481663,-26.682878,-81.146454,-27.421251
3.068750,33.138386,-1.742485,58.481663,-26.682878,-81.146454,-27.421251
3.075000,33.138386,-1.742485,58.481663,-26.682878,-81.146454,-27.421251
3.081250,33.138386,-1.742485,58.481663,-26.682878,-81.146454,-27.421251
3.087500,33.138386,-1.742485,58.481663,-26.682878,-81.146454,-27.421251
3.093750,33.138386,-1.744238,58.481663,-26.483574,-81.146454,-27.172079
3.100000,39.042000,-1.746302,55.813408,-26.336946,-83.120453,-26.939297
3.106250,44.945591,-1.748379,52.271282,-26.262827,-83.488594,-26.725376
3.112500,50.849903,-1.750488,48.203236,-26.281673,-81.891907,-26.502089
3.118750,56.753273,-1.752842,42.212543,-26.330404,-80.171967,-26.202057
3.125000,62.655804,-1.755336,37.421288,-26.379763,-76.106552,-25.939175
3.131250,68.558105,-1.757943,33.046921,-26.456083,-69.945251,-25.649536
3.137500,74.459389,-1.760899,29.345652,-26.559877,-62.067192,-25.323307
3.143750,80.359413,-1.764377,26.520321,-26.681889,-52.654037,-24.969700
3.150000,86.260185,-1.768152,24.752213,-26.806976,-41.860455,-24.601015
3.156250,92.164513,-1.771686,24.159624,-26.920933,-29.859118,-24.235483
3.162500,96.176506,-1.774958,24.807707,-27.010607,-16.847504,-23.896816
3.168750,99.915253,-1.778352,26.716406,-27.069267,-3.034561,-23.634680
3.175000,102.847397,-1.782005,29.938459,-27.074635,9.519103,-23.390276
3.181250,104.482925,-1.785702,32.710590,-27.015282,22.850080,-23.169781
3.187500,104.396271,-1.789217,36.491886,-26.907646,35.629021,-23.003874
3.193750,102.246071,-1.792456,40.581268,-26.764324,47.367767,-22.908695
3.200000,97.795013,-1.795398,44.411629,-26.594093,57.656487,-22.886816
3.206250,90.920815,-1.797918,47.502342,-26.407715,66.103584,-22.938217
3.212500,81.622078,-1.800264,49.433193,-26.219681,72.394432,-23.071110
3.218750,70.019279,-1.802827,49.893452,-26.040432,76.304764,-23.267887
3.225000,56.350502,-1.805243,50.883747,-25.863525,77.462349,-23.473358
3.231250,40.958813,-1.807112,50.938713,-25.689787,76.037659,-23.696312
3.237500,24.269472,-1.808681,48.565750,-25.518116,74.035522,-23.928207
3.243750,6.770482,-1.810533,45.880344,-25.325487,69.872475,-24.146715
3.250000,-11.005301,-1.812972,42.746193,-25.153086,64.149071,-24.332981
3.256250,-28.507334,-1.815577,38.806328,-25.013111,57.422318,-24.485468
3.262500,-45.201118,-1.817800,34.303200,-24.888136,50.321678,-24.593384
3.268750,-60.595871,-1.819714,29.177618,-24.774673,43.543491,-24.647932
3.275000,-74.267563,-1.821734,23.308119,-24.671724,37.673107,-24.649231
3.281250,-85.876457,-1.824174,16.584362,-24.570080,33.214809,-24.605185
3.287500,-95.183380,-1.826967,8.912107,-24.456703,30.551682,-24.529507
3.293750,-102.064629,-1.829846,0.258270,-24.291613,29.942472,-24.422182
3.300000,-106.519615,-1.832654,-7.199075,-24.124125,31.548086,-24.284725
3.306250,-108.669868,-1.835190,-15.881333,-23.988911,35.351784,-24.143461
3.312500,-108.752777,-1.837453,-24.566225,-23.867529,41.165367,-24.030733
3.318750,-107.110146,-1.839603,-32.960926,-23.768017,48.727402,-23.967087
3.325000,-104.169373,-1.841599,-40.802174,-23.707556,57.697456,-23.962585
3.331250,-100.421387,-1.843203,-47.833057,-23.710785,67.643707,-24.020014
3.337500,-96.400108,-1.844455,-53.872910,-23.837631,78.049744,-24.137920
3.343750,-90.483971,-1.845328,-58.888863,-23.998161,88.376961,-24.301659
3.350000,-84.568130,-1.845832,-63.320385,-24.217863,98.119949,-24.454548
3.356250,-78.653038,-1.845977,-66.752541,-24.539551,106.998100,-24.652338
3.362500,-72.740097,-1.846018,-67.460114,-24.984158,114.059883,-24.900576
3.368750,-66.829208,-1.845772,-67.084618,-25.534004,119.396088,-25.189388
3.375000,-60.918503,-1.844944,-65.507256,-26.161938,122.539314,-25.564316
3.381250,-55.010296,-1.843706,-62.745441,-26.834169,123.241096,-25.897196
3.387500,-49.108337,-1.842887,-58.896057,-27.512726,122.016136,-26.217892
3.393750,-43.212578,-1.842888,-54.119907,-28.153273,118.202034,-26.518816
3.400000,-37.319111,-1.843223,-48.640411,-28.713669,112.236656,-26.792048
3.406250,-31.424566,-1.843404,-42.796188,-29.173813,105.001625,-27.069357
3.412500,-25.530300,-1.843710,-36.916286,-29.508520,97.044594,-27.316019
3.418750,-19.640957,-1.844935,-29.063873,-29.696785,86.904282,-27.511349
3.425000,-13.754539,-1.847154,-22.781723,-29.734819,76.782021,-27.649206
3.431250,-7.865188,-1.849541,-16.220184,-29.637897,67.046112,-27.735390
3.437500,-1.971646,-1.851802,-9.632213,-29.390726,58.108223,-27.773989
3.443750,3.921513,-1.854735,-3.043120,-28.991299,50.641033,-27.712824
3.450000,9.813279,-1.858635,3.033284,-28.485203,42.930950,-27.581232
3.456250,15.709159,-1.862731,8.431240,-27.910608,36.801197,-27.392902
3.462500,21.613724,-1.866159,13.148909,-27.310442,32.022511,-27.149532
3.468750,27.523447,-1.868970,17.274292,-26.730858,28.369106,-26.847914
3.475000,33.433590,-1.871554,20.917582,-26.235920,25.594370,-26.504684
3.481250,39.342857,-1.874001,24.337221,-25.779142,23.415478,-26.134413
3.487500,45.251812,-1.876441,26.267750,-25.389490,21.587004,-25.731686
3.493750,51.159344,-1.879308,28.100945,-25.101349,19.802574,-25.302912
3.500000,57.066120,-1.882566,29.659252,-24.919462,17.739462,-24.860498
3.506250,62.975941,-1.885506,30.841867,-24.829308,15.169798,-24.414639
3.512500,68.889900,-1.887629,31.556492,-24.797720,11.908425,-23.974836
3.518750,74.804077,-1.889535,31.780514,-24.739784,7.821727,-23.545826
3.525000,80.712135,-1.892326,31.633598,-24.722963,2.797665,-23.133736
3.531250,86.615829,-1.896175,31.742285,-24.708378,-3.293309,-22.752729
3.537500,92.521881,-1.900273,31.737638,-24.661325,-8.397052,-22.420547
3.543750,96.539299,-1.904076,31.859568,-24.572359,-13.980825,-22.132141
3.550000,100.286369,-1.908003,32.449417,-24.413698,-19.760578,-21.850403
3.556250,103.226379,-1.912723,31.947363,-24.187204,-25.259037,-21.521845
3.562500,104.871658,-1.917724,32.062134,-23.922869,-30.194258,-21.280310
3.568750,104.801285,-1.921956,32.454170,-23.647865,-33.341507,-21.109539
3.575000,102.674828,-1.924829,32.845467,-23.388216,-35.712910,-21.011057
3.581250,98.248955,-1.926671,32.954697,-23.178431,-37.042358,-20.998501
3.587500,91.397636,-1.928125,32.521931,-23.054356,-37.350502,-21.030981
3.593750,82.120522,-1.929249,31.442598,-23.006243,-36.497749,-21.132481
3.600000,70.544029,-1.929301,29.653801,-23.044981,-34.336220,-21.316940
3.606250,56.905094,-1.928039,29.001352,-23.184469,-31.025724,-21.578600
3.612500,41.538982,-1.925945,28.032604,-23.410793,-26.841911,-21.890915
3.618750,24.869478,-1.923467,27.145222,-23.740280,-22.178823,-22.228611
3.625000,7.390738,-1.920338,26.449835,-24.183430,-17.823187,-22.634750
3.631250,-10.363560,-1.916344,26.554234,-24.702276,-11.962544,-23.070547
3.637500,-27.849819,-1.911993,27.768963,-25.262329,-6.321835,-23.507536
3.643750,-44.540092,-1.908012,30.232174,-25.826565,-0.927666,-23.926090
3.650000,-59.940853,-1.904673,32.079281,-26.349955,4.132575,-24.309528
3.656250,-73.622032,-1.901896,34.869209,-26.758867,8.771496,-24.640461
3.662500,-85.241341,-1.899782,37.778534,-27.096531,12.898593,-24.913734
3.668750,-94.562088,-1.898595,41.733166,-27.342350,16.373098,-25.135706
3.675000,-101.460091,-1.897950,45.052547,-27.468523,19.106808,-25.305531
3.681250,-105.932892,-1.897398,47.469746,-27.472139,21.043299,-25.421440
3.687500,-108.103996,-1.897320,48.748089,-27.366251,22.104300,-25.486750
3.693750,-108.213776,-1.898493,48.737282,-27.177677,22.239965,-25.510220
3.700000,-106.600700,-1.900719,47.446758,-26.910976,21.453199,-25.502634
3.706250,-103.685646,-1.903152,45.032459,-26.584368,19.875717,-25.456858
3.712500,-99.958969,-1.905316,41.475483,-26.237150,17.723316,-25.367039
3.718750,-95.958557,-1.907806,35.072910,-25.895882,15.145224,-25.237743
3.725000,-90.065178,-1.910926,27.746040,-25.576206,12.470568,-25.085646
3.731250,-84.169815,-1.914139,19.218420,-25.322912,10.305427,-24.949047
3.737500,-78.269356,-1.916859,11.433571,-25.159534,9.062471,-24.840830
3.743750,-72.366394,-1.919365,3.133375,-25.071117,9.152852,-24.782503
3.750000,-66.464905,-1.921948,-5.128808,-25.044958,9.176670,-24.688875
3.756250,-60.564766,-1.924530,-12.958921,-25.077257,9.104802,-24.580564
3.762500,-54.663383,-1.926946,-19.938374,-25.147387,10.273125,-24.458410
3.768750,-48.762188,-1.929396,-25.625446,-25.219269,12.427696,-24.371834
3.775000,-42.862274,-1.932163,-29.794992,-25.303577,15.097233,-24.308649
3.781250,-36.962746,-1.935048,-32.340031,-25.388412,17.687782,-24.253736
3.787500,-31.061848,-1.937650,-32.907326,-25.452778,19.837358,-24.200031
3.793750,-25.160891,-1.940376,-31.414959,-25.510637,21.239416,-24.151144
3.800000,-19.261829,-1.943547,-27.882141,-25.509058,21.699165,-24.099066
3.806250,-13.363290,-1.947059,-23.473675,-25.420282,21.232685,-24.007223
3.812500,-7.463026,-1.950723,-17.549696,-25.285118,19.695829,-23.885008
3.818750,-1.562569,-1.954752,-10.697145,-25.120432,16.977129,-23.742722
3.825000,4.338786,-1.959136,-3.518394,-24.940426,13.212284,-23.587072
3.831250,10.244257,-1.963186,5.554646,-24.759647,8.668727,-23.428448
3.837500,16.153503,-1.966642,14.605734,-24.592314,3.670111,-23.304310
3.843750,22.062149,-1.970217,23.677395,-24.433933,-1.447482,-23.167624
3.850000,27.968267,-1.974269,30.964308,-24.278294,-7.373508,-23.002466
3.856250,33.875206,-1.978118,38.023727,-24.135277,-12.913741,-22.847692
3.862500,39.786343,-1.981224,44.319450,-24.003420,-18.046543,-22.711615
3.868750,45.696781,-1.984206,49.416615,-23.869698,-22.748692,-22.590891
3.875000,51.600346,-1.988228,52.912575,-23.711357,-27.048775,-22.474833
3.881250,57.499924,-1.993470,54.384701,-23.534655,-31.016535,-22.347868
3.887500,63.402988,-1.998784,53.392956,-23.341263,-34.835835,-22.214594
3.893750,69.312553,-2.003639,49.857513,-23.112770,-38.763649,-22.080002
3.900000,75.223419,-2.008742,45.862186,-22.839109,-42.929386,-21.936539
3.906250,81.131050,-2.014887,40.001225,-22.520454,-45.636055,-21.782530
3.912500,87.038803,-2.022022,32.809704,-22.158524,-48.751556,-21.613155
3.918750,92.953232,-2.029516,24.835279,-21.760275,-51.987926,-21.415245
3.925000,96.980949,-2.036809,16.547480,-21.352530,-55.104053,-21.162294
3.931250,100.743988,-2.043686,8.398983,-20.960592,-58.166706,-20.943981
3.937500,103.707695,-2.050107,0.943582,-20.604666,-58.966152,-20.755922
3.943750,105.379662,-2.055830,-5.369807,-20.307608,-58.586060,-20.606260
3.950000,105.333977,-2.060390,-10.205537,-20.091578,-56.560703,-20.508896
3.956250,103.229454,-2.063251,-13.335272,-19.974457,-52.533485,-20.479635
3.962500,98.826447,-2.064404,-14.615386,-19.963188,-46.254787,-20.530262
3.968750,91.999344,-2.064159,-13.986120,-20.061632,-37.583618,-20.668936
3.975000,82.745567,-2.062556,-13.336234,-20.233746,-26.524958,-20.907171
3.981250,71.186058,-2.059682,-11.139844,-20.527594,-13.243147,-21.268188
3.987500,57.556110,-2.055699,-6.792029,-20.929417,0.655251,-21.673098
3.993750,42.194386,-2.050951,-1.503401,-21.394333,15.824563,-22.180260
4.000000,25.527340,-2.045596,4.070816,-21.918745,31.461466,-22.796524
4.006250,8.047188,-2.039583,9.586054,-22.486217,46.700699,-23.554070
4.012500,-9.715520,-2.033414,14.773811,-23.069479,60.460285,-24.307695
4.018750,-27.216862,-2.028020,19.384850,-23.635536,73.443604,-25.035265
4.025000,-43.922596,-2.023551,23.131666,-24.168608,83.685104,-25.774033
4.031250,-59.336277,-2.019538,27.876545,-24.658960,92.087952,-26.526569
4.037500,-73.028831,-2.016104,30.249754,-25.085096,97.779945,-27.239799
4.043750,-84.662781,-2.013958,32.295109,-25.434393,101.043495,-27.884083
4.050000,-93.999611,-2.013172,33.864540,-25.706270,102.275764,-28.442743
4.056250,-100.911003,-2.012764,34.890831,-25.890999,102.003944,-28.906235
4.062500,-105.394829,-2.012113,35.449852,-25.970949,99.030029,-29.241325
4.068750,-107.578789,-2.012213,35.491665,-25.962927,95.753296,-29.434702
4.075000,-107.705269,-2.014299,35.034462,-25.884249,92.234077,-29.493956
4.081250,-106.108070,-2.017619,34.259602,-25.748465,88.701210,-29.423256
4.087500,-103.204102,-2.020784,33.419918,-25.564360,83.316566,-29.223507
4.093750,-99.486183,-2.023291,32.817951,-25.340588,77.809807,-28.901100
4.100000,-95.496147,-2.026060,30.874290,-25.091606,72.040459,-28.476370
4.106250,-89.615112,-2.029695,29.583128,-24.823097,65.912285,-27.988049
4.112500,-83.734589,-2.033849,28.854097,-24.527149,59.508129,-27.394184
4.118750,-77.850868,-2.038316,28.427250,-24.220255,52.995258,-26.730587
4.125000,-71.965477,-2.043377,28.007277,-23.917795,46.114216,-26.037966
4.131250,-66.078850,-2.049065,27.422293,-23.629293,39.013416,-25.346428
4.137500,-60.187183,-2.054792,26.558048,-23.358177,31.891333,-24.678276
4.143750,-54.289444,-2.060205,25.328959,-23.103739,24.960428,-24.051361
4.150000,-48.388786,-2.065602,23.650095,-22.864998,18.409840,-23.478535
4.156250,-42.487514,-2.071409,23.615068,-22.638371,12.410455,-22.959141
4.162500,-36.584908,-2.077578,23.817482,-22.412888,7.107047,-22.512991
4.168750,-30.678539,-2.083846,22.838257,-22.176687,4.208500,-22.133154
4.175000,-24.768158,-2.090199,22.535416,-21.949905,1.138170,-21.822720
4.181250,-18.854078,-2.096481,22.722765,-21.736874,-0.381596,-21.574921
4.187500,-12.935102,-2.102421,23.199131,-21.542685,-0.468362,-21.327991
4.193750,-7.011493,-2.108008,23.741087,-21.372734,0.943424,-21.193960
4.200000,-1.083974,-2.112992,24.119333,-21.234579,1.916683,-21.143543
4.206250,4.846507,-2.117018,24.116751,-21.135481,3.138653,-21.154966
4.212500,10.779640,-2.119953,23.573051,-21.072145,5.643467,-21.185406
4.218750,16.711510,-2.122140,24.548603,-21.033426,7.198054,-21.238983
4.225000,22.639421,-2.124067,23.635038,-21.014914,7.794553,-21.315981
4.231250,28.563492,-2.125843,22.813456,-21.005093,7.287424,-21.402300
4.237500,34.485256,-2.127307,21.875069,-21.003637,5.506206,-21.475193
4.243750,40.404400,-2.128508,20.486671,-21.026665,4.367030,-21.544430
4.250000,46.322090,-2.129360,18.486235,-21.059490,2.251791,-21.608719
4.256250,52.237648,-2.129739,15.728666,-21.084473,-0.315003,-21.651638
4.262500,58.149086,-2.130205,11.980389,-21.086926,-2.920025,-21.662092
4.268750,64.052879,-2.131472,7.042202,-21.056194,-5.208611,-21.629572
4.275000,69.950188,-2.133892,0.733489,-20.985167,-6.864165,-21.547356
4.281250,75.847092,-2.136902,-4.940345,-20.861889,-7.616314,-21.403162
4.287500,81.746040,-2.140353,-11.506875,-20.683342,-7.267040,-21.168774
4.293750,87.644341,-2.145007,-18.712461,-20.473063,-5.910495,-20.914141
4.300000,93.542068,-2.151042,-26.187347,-20.232721,-3.817930,-20.641665
4.306250,97.551949,-2.157264,-33.486439,-19.965775,-0.795415,-20.348764
4.312500,101.300598,-2.162626,-40.293686,-19.683113,2.951812,-20.045113
4.318750,104.250137,-2.167575,-46.337105,-19.399517,7.160245,-19.744432
4.325000,105.900581,-2.173068,-51.414783,-19.136358,11.524969,-19.464487
4.331250,105.827606,-2.178938,-55.379303,-18.917171,15.737222,-19.219810
4.337500,103.696999,-2.184157,-58.130074,-18.791838,19.525660,-19.012754
4.343750,99.272873,-2.188186,-59.691326,-18.662043,22.668392,-18.785801
4.350000,92.428978,-2.191327,-59.054348,-18.606623,24.681366,-18.664328
4.356250,83.163033,-2.193405,-57.115528,-18.659451,27.244555,-18.627768
4.362500,71.597641,-2.193919,-53.673897,-18.819433,29.110977,-18.686819
4.368750,57.966835,-2.193228,-48.816807,-19.077988,30.633307,-18.867863
4.375000,42.604984,-2.192124,-42.747131,-19.421783,32.050568,-19.110100
4.381250,25.939615,-2.190515,-35.738285,-19.829256,33.424000,-19.396671
4.387500,8.467744,-2.187773,-28.113052,-20.273663,35.557270,-19.735205
4.393750,-9.280257,-2.184137,-20.290031,-20.738670,36.766701,-20.153036
4.400000,-26.764620,-2.180853,-12.725866,-21.211777,38.609432,-20.625948
4.406250,-43.452404,-2.177954,-3.626077,-21.674997,40.670452,-21.127838
4.412500,-58.845196,-2.174639,3.425431,-22.114517,42.655838,-21.640268
4.418750,-72.515587,-2.171032,10.269193,-22.524326,44.352135,-22.149523
4.425000,-84.127846,-2.168059,16.734201,-22.843119,45.679565,-22.607027
4.431250,-93.445885,-2.166121,22.647568,-23.070152,46.644661,-22.986105
4.437500,-100.342384,-2.164525,27.618038,-23.217348,47.017780,-23.282881
4.443750,-104.815147,-2.163108,31.598631,-23.292345,46.799095,-23.490456
4.450000,-106.989815,-2.162725,34.657356,-23.297089,46.120892,-23.601749
4.456250,-107.104408,-2.163862,36.923500,-23.236500,45.149513,-23.615223
4.462500,-105.493431,-2.165762,38.597210,-23.120752,44.068481,-23.536909
4.468750,-102.579834,-2.167969,39.967045,-22.969835,43.102158,-23.389183
4.475000,-98.859184,-2.170968,39.517838,-22.782116,42.547813,-23.156591
4.481250,-94.865364,-2.174836,39.420490,-22.551016,41.130455,-22.827206
4.487500,-88.971581,-2.178706,39.331154,-22.309191,40.376957,-22.446915
4.493750,-83.072701,-2.182327,39.061165,-22.078358,39.991421,-22.045351
4.500000,-77.175232,-2.186872,38.543880,-21.869524,39.754688,-21.643850
4.506250,-71.280685,-2.193038,37.754818,-21.683136,39.457428,-21.256861
4.512500,-65.381302,-2.199696,36.687988,-21.505817,38.879086,-20.893957
4.518750,-59.468948,-2.205254,35.339897,-21.279934,37.771755,-20.565058
4.525000,-53.548157,-2.209933,33.743290,-21.099554,35.814846,-20.306025
4.531250,-47.628662,-2.214905,32.978703,-20.967016,32.555687,-20.102882
4.537500,-41.711159,-2.220500,32.541824,-20.837633,29.360415,-19.935413
4.543750,-35.788021,-2.225834,31.030762,-20.701612,24.727295,-19.813648
4.550000,-29.856562,-2.230174,30.158106,-20.586218,18.980089,-19.714058
4.556250,-23.919609,-2.233571,29.637329,-20.513813,12.531686,-19.697197
4.562500,-17.981083,-2.236448,29.254288,-20.503437,6.080041,-19.779335
4.568750,-12.041623,-2.238776,28.781601,-20.580828,-0.397148,-19.957146
4.575000,-6.099275,-2.240275,27.996761,-20.803566,-6.728423,-20.176363
4.581250,-0.153635,-2.240472,26.716976,-21.088318,-12.565175,-20.451349
4.587500,5.792966,-2.239374,23.660679,-21.458202,-17.416788,-20.793539
4.593750,11.737937,-2.237289,21.715540,-21.932053,-21.101063,-21.194727
4.600000,17.679136,-2.234357,19.007261,-22.513449,-23.563519,-21.634827
4.606250,23.616592,-2.230359,15.409547,-23.258255,-24.952213,-22.126106
4.612500,29.549353,-2.225389,11.816328,-24.044098,-25.531118,-22.657396
4.618750,35.472584,-2.220449,7.635047,-24.898397,-25.369564,-23.207273
4.625000,41.383812,-2.216300,3.186226,-25.801727,-24.743250,-23.760118
4.631250,47.288841,-2.212302,-1.243924,-26.720650,-23.976509,-24.302450
4.637500,53.192795,-2.207454,-5.392922,-27.612982,-23.429590,-24.816778
4.643750,59.091885,-2.202360,-9.012581,-28.426479,-23.467299,-25.267904
4.650000,64.977135,-2.198597,-13.794559,-29.100803,-24.437664,-25.608246
4.656250,70.848068,-2.196943,-15.874709,-29.609280,-26.725916,-25.846216
4.662500,76.713203,-2.196879,-17.303514,-29.944929,-28.904451,-26.002365
4.668750,82.577278,-2.198090,-17.943947,-30.078009,-32.352249,-26.050510
4.675000,88.441048,-2.200879,-17.819069,-29.996639,-36.838295,-25.982609
4.681250,94.305511,-2.205047,-17.059185,-29.704245,-42.157421,-25.799772
4.687500,98.279366,-2.209931,-15.866601,-29.225044,-48.087746,-25.513132
4.693750,101.983887,-2.215775,-14.483451,-28.597672,-54.361794,-25.134251
4.700000,104.882408,-2.223648,-13.201580,-27.850273,-60.637714,-24.665649
4.706250,106.486153,-2.233179,-12.519345,-26.985451,-66.547630,-24.099373
4.712500,106.379288,-2.242613,-12.672046,-26.044527,-71.650024,-23.491093
4.718750,104.224167,-2.250770,-14.006144,-25.104664,-77.358040,-22.895014
