Anritsu VNA Frequency[GHz],S21[deg],S21[dB],S11[deg],S11[dB],S22[deg],S22[dB]
1338104708.24,2012_05_27_08:45:08,+40.538,+10.271,+54.817,+10.288,+13.906,+13.717,+14.011,+13.762,10.370577,-15.933
3.006250,34.026012,-1.750547,59.227070,-26.675194,-80.166267,-27.416342
3.012500,34.026012,-1.750547,59.227070,-26.675194,-80.166267,-27.416342
3.018750,34.026012,-1.750547,59.227070,-26.675194,-80.166267,-27.416342
3.025000,34.026012,-1.750547,59.227070,-26.675194,-80.166267,-27.416342
3.031250,34.026012,-1.750547,59.227070,-26.675194,-80.166267,-27.416342
3.037500,34.026012,-1.750547,59.227070,-26.675194,-80.166267,-27.416342
3.043750,34.026012,-1.750547,59.227070,-26.675194,-80.166267,-27.416342
3.050000,34.026012,-1.750547,59.227070,-26.675194,-80.166267,-27.416342
3.056250,34.026012,-1.750547,59.227070,-26.675194,-80.166267,-27.416342
3.062500,34.026012,-1.750547,59.227070,-26.675194,-80.166267,-27.416342
3.068750,34.026012,-1.750547,59.227070,-26.675194,-80.166267,-27.416342
3.075000,34.026012,-1.750547,59.227070,-26.675194,-80.166267,-27.416342
3.081250,34.026012,-1.750547,59.227070,-26.675194,-80.166267,-27.416342
3.087500,34.026012,-1.750547,59.227070,-26.675194,-80.166267,-27.416342
3.093750,34.026012,-1.752422,59.227070,-26.475073,-80.166267,-27.167295
3.100000,39.932167,-1.754597,56.556053,-26.325359,-82.161461,-26.934816
3.106250,45.838123,-1.756779,53.002899,-26.247318,-82.546600,-26.721910
3.112500,51.744934,-1.759007,48.928200,-26.262123,-80.959938,-26.499973
3.118750,57.650841,-1.761426,42.925850,-26.307512,-79.244514,-26.201187
3.125000,63.555489,-1.763948,38.134563,-26.354155,-75.187759,-25.940008
3.131250,69.459892,-1.766555,33.752502,-26.428038,-69.025864,-25.652046
3.137500,75.363129,-1.769458,30.043966,-26.530107,-61.145981,-25.327707
3.143750,81.264862,-1.772901,27.210390,-26.650826,-51.731071,-24.975338
3.150000,87.167587,-1.776622,25.434284,-26.776314,-40.935444,-24.607254
3.156250,93.073219,-1.780053,24.837685,-26.891792,-28.931845,-24.242178
3.162500,97.086563,-1.783229,25.486750,-26.984118,-15.921207,-23.903469
3.168750,100.826614,-1.786472,27.400534,-27.045841,-4.003169,-23.639154
3.175000,103.760002,-1.789930,30.624222,-27.055828,8.273287,-23.395632
3.181250,105.396553,-1.793479,33.398052,-27.000759,20.789803,-23.174601
3.187500,105.310768,-1.796852,37.184692,-26.897758,32.270294,-23.007938
3.193750,103.161514,-1.799933,41.283054,-26.759420,42.279575,-22.911303
3.200000,98.711311,-1.802735,45.122356,-26.593777,50.494392,-22.888449
3.206250,91.838120,-1.805094,48.221260,-26.411606,56.628887,-22.939180
3.212500,82.540413,-1.807323,50.160801,-26.226862,60.487679,-23.072140
3.218750,70.938713,-1.809726,50.628414,-26.049706,61.970051,-23.269142
3.225000,57.270889,-1.812043,51.623981,-25.874517,60.814880,-23.475311
3.231250,41.880558,-1.813826,51.682175,-25.701242,57.316734,-23.699247
3.237500,25.192652,-1.815307,49.314335,-25.530077,53.584042,-23.932602
3.243750,7.695189,-1.817120,46.633930,-25.337019,48.119652,-24.153034
3.250000,-10.078928,-1.819540,43.507011,-25.163799,41.589539,-24.341034
3.256250,-27.579279,-1.822134,39.572407,-25.022509,34.589363,-24.495680
3.262500,-44.271320,-1.824388,35.077545,-24.896820,27.762257,-24.605730
3.268750,-59.663986,-1.826342,29.959900,-24.782326,21.793396,-24.662369
3.275000,-73.333641,-1.828440,24.097967,-24.678404,17.227236,-24.665592
3.281250,-84.940460,-1.830941,17.382248,-24.575886,14.502594,-24.622272
3.287500,-94.245277,-1.833824,9.719561,-24.461653,13.914483,-24.547361
3.293750,-101.124275,-1.836798,1.077441,-24.296434,15.619970,-24.440418
3.300000,-105.577194,-1.839690,-6.362621,-24.128473,19.664345,-24.302839
3.306250,-107.725121,-1.842340,-15.036920,-23.992861,25.902855,-24.161268
3.312500,-107.806091,-1.844698,-23.708187,-23.870922,34.035175,-24.046974
3.318750,-106.161545,-1.846943,-32.092064,-23.770254,43.678535,-23.981493
3.325000,-103.218559,-1.849023,-39.922653,-23.708899,54.390667,-23.974895
3.331250,-99.469131,-1.850731,-46.945248,-23.712267,65.650993,-24.030453
3.337500,-95.446075,-1.852046,-52.976238,-23.842730,76.880920,-24.146355
3.343750,-89.528198,-1.852991,-58.045101,-24.001413,87.497337,-24.307968
3.350000,-83.610718,-1.853542,-62.491211,-24.222485,97.253021,-24.461260
3.356250,-77.694168,-1.853813,-65.942894,-24.546238,105.867874,-24.657330
3.362500,-71.779633,-1.853931,-66.690475,-24.994762,112.138184,-24.905313
3.368750,-65.867043,-1.853780,-66.371445,-25.549351,116.186798,-25.194408
3.375000,-59.955063,-1.853079,-64.862289,-26.182917,117.612984,-25.570467
3.381250,-54.044918,-1.851972,-62.175568,-26.861635,116.249191,-25.905167
3.387500,-48.140553,-1.851268,-58.405045,-27.547207,112.728790,-26.228090
3.393750,-42.242630,-1.851364,-53.707760,-28.194921,106.489792,-26.531776
3.400000,-36.346939,-1.851838,-48.302486,-28.762541,98.092819,-26.808311
3.406250,-30.449652,-1.852115,-42.522789,-29.228876,88.550293,-27.089081
3.412500,-24.552706,-1.852528,-36.693096,-29.569117,78.517967,-27.339548
3.418750,-18.660053,-1.853807,-28.877071,-29.761740,66.641304,-27.538494
3.425000,-12.770447,-1.856063,-22.617846,-29.802668,55.207523,-27.679586
3.431250,-6.877736,-1.858448,-16.062294,-29.707531,44.651146,-27.768383
3.437500,-0.980776,-1.860692,-9.462968,-29.459846,35.427227,-27.809277
3.443750,4.916073,-1.863576,-2.842356,-29.058199,28.215919,-27.749815
3.450000,10.811247,-1.867387,3.273463,-28.548563,21.299950,-27.619265
3.456250,16.710630,-1.871361,8.726958,-27.969080,16.457735,-27.430706
3.462500,22.618414,-1.874699,13.508235,-27.363403,13.395340,-27.187513
3.468750,28.531494,-1.877402,17.703178,-26.777721,11.800783,-26.885172
3.475000,34.444683,-1.879865,21.414804,-26.277550,11.322232,-26.540230
3.481250,40.357159,-1.882186,24.905188,-25.814274,11.563056,-26.167807
3.487500,46.268745,-1.884535,26.898149,-25.418955,12.160457,-25.762285
3.493750,52.178722,-1.887321,28.783333,-25.126902,12.678843,-25.331160
3.500000,58.087902,-1.890555,30.386570,-24.943104,12.686089,-24.885977
3.506250,63.999424,-1.893551,31.601315,-24.852350,11.846647,-24.437460
3.512500,69.915512,-1.895718,32.336269,-24.820330,9.889912,-23.994967
3.518750,75.831512,-1.897710,32.563095,-24.759363,6.614408,-23.563553
3.525000,81.741272,-1.900604,32.472252,-24.745853,1.868865,-23.149683
3.531250,87.646446,-1.904598,32.590675,-24.733643,-2.323636,-22.767397
3.537500,93.553932,-1.908851,32.586094,-24.688683,-7.420028,-22.433327
3.543750,97.572411,-1.912822,32.712341,-24.601286,-12.997371,-22.144173
3.550000,101.320312,-1.916928,33.308170,-24.443939,-18.771378,-21.861824
3.556250,104.261795,-1.921762,32.812622,-24.218721,-24.265678,-21.532877
3.562500,105.908226,-1.926928,32.934242,-23.955004,-29.190659,-21.290651
3.568750,105.838577,-1.931273,33.332260,-23.679480,-32.334946,-21.119625
3.575000,103.712547,-1.934230,33.729237,-23.418686,-34.698803,-21.019999
3.581250,99.287643,-1.936127,33.842724,-23.207428,-36.017727,-21.006554
3.587500,92.437210,-1.937594,33.415073,-23.081469,-36.312416,-21.038818
3.593750,83.161201,-1.938671,32.333973,-23.031034,-35.448711,-21.139097
3.600000,71.585213,-1.938714,30.542875,-23.067064,-33.277081,-21.322184
3.606250,57.947060,-1.937370,29.888763,-23.204214,-29.952751,-21.582155
3.612500,42.581745,-1.935153,28.916750,-23.427404,-25.754038,-21.892845
3.618750,25.913008,-1.932549,28.031126,-23.754343,-21.077810,-22.228947
3.625000,8.434945,-1.929275,27.336178,-24.195730,-16.703465,-22.633196
3.631250,-9.318530,-1.925159,27.452497,-24.713964,-10.832793,-23.067421
3.637500,-26.804068,-1.920695,28.677189,-25.273996,-5.184851,-23.503504
3.643750,-43.493111,-1.916600,31.151909,-25.838724,0.215594,-23.921070
3.650000,-58.892952,-1.913151,33.010365,-26.363173,5.282140,-24.303526
3.656250,-72.573044,-1.910282,35.816326,-26.771942,9.923414,-24.634169
3.662500,-84.191551,-1.908132,38.740059,-27.111149,14.045933,-24.907417
3.668750,-93.511116,-1.906899,42.712200,-27.358418,17.512093,-25.129866
3.675000,-100.407928,-1.906230,46.050167,-27.485880,20.233948,-25.300335
3.681250,-104.879417,-1.905731,48.485580,-27.490843,22.157194,-25.417328
3.687500,-107.048805,-1.905689,49.777760,-27.386101,23.204176,-25.483862
3.693750,-107.156769,-1.906919,49.779140,-27.198547,23.323977,-25.509033
3.700000,-105.542053,-1.909254,48.495697,-26.932127,22.520754,-25.503483
3.706250,-102.624977,-1.911777,46.080082,-26.605795,20.926094,-25.460138
3.712500,-98.896286,-1.914060,42.517735,-26.258282,18.760393,-25.372765
3.718750,-94.893593,-1.916658,36.103901,-25.916994,16.170696,-25.246857
3.725000,-88.997826,-1.919878,28.761547,-25.597340,13.487258,-25.097118
3.731250,-83.099876,-1.923201,20.218117,-25.344624,11.313880,-24.963419
3.737500,-77.197029,-1.926035,12.413075,-25.181128,10.067145,-24.857510
3.743750,-71.291931,-1.928578,4.091590,-25.092737,10.153782,-24.802137
3.750000,-65.388245,-1.931227,-4.190872,-25.067520,10.170947,-24.711676
3.756250,-59.485767,-1.933836,-12.042152,-25.101126,10.099216,-24.606823
3.762500,-53.582310,-1.936223,-19.039396,-25.172541,11.266092,-24.487782
3.768750,-47.679176,-1.938605,-24.745955,-25.245647,13.415011,-24.403454
3.775000,-41.777794,-1.941321,-28.926388,-25.331131,16.082142,-24.342945
3.781250,-35.876690,-1.944072,-31.478935,-25.417086,18.669931,-24.290468
3.787500,-29.974590,-1.946537,-32.047794,-25.482540,20.813665,-24.238811
3.793750,-24.072216,-1.949109,-30.548260,-25.542091,22.207899,-24.191628
3.800000,-18.172110,-1.952090,-28.903778,-25.540628,22.657902,-24.140734
3.806250,-12.272592,-1.955391,-24.752378,-25.452400,22.177330,-24.050179
3.812500,-6.371569,-1.958874,-19.621231,-25.317045,20.631897,-23.928343
3.818750,-0.470024,-1.962728,-14.051317,-25.151896,17.909058,-23.785593
3.825000,5.432350,-1.966916,-8.578032,-24.970984,14.138544,-23.628864
3.831250,11.338745,-1.970774,-1.547986,-24.788984,9.587873,-23.468927
3.837500,17.249262,-1.974063,5.222094,-24.620131,4.582403,-23.342247
3.843750,23.159357,-1.977466,11.889804,-24.460148,-0.537320,-23.204199
3.850000,29.066824,-1.981366,16.770514,-24.303059,-6.462688,-23.036474
3.856250,34.975430,-1.985120,21.542116,-24.158342,-11.999751,-22.878836
3.862500,40.888363,-1.988080,25.782000,-24.024300,-17.129148,-22.739714
3.868750,46.800751,-1.990899,29.161375,-23.888117,-21.827919,-22.616199
3.875000,52.706078,-1.994764,31.360498,-23.727009,-26.122105,-22.497335
3.881250,58.607655,-1.999876,32.023750,-23.547699,-30.081791,-22.367840
3.887500,64.512650,-2.005117,30.757107,-23.351484,-33.890541,-22.232058
3.893750,70.424171,-2.009904,27.488659,-23.120510,-37.807205,-22.095200
3.900000,76.336960,-2.014945,24.294489,-22.844433,-41.961590,-21.949833
3.906250,82.246666,-2.021081,19.726063,-22.523603,-44.655739,-21.794151
3.912500,88.156120,-2.028211,14.250054,-22.158909,-47.759090,-21.623444
3.918750,94.072128,-2.035784,8.333659,-21.758244,-50.982578,-21.424276
3.925000,98.101700,-2.043174,2.343424,-21.348286,-54.084435,-21.170135
3.931250,101.866188,-2.050175,-3.382858,-20.954496,-57.127270,-20.950382
3.937500,104.831749,-2.056793,-8.411429,-20.597141,-57.913353,-20.761673
3.943750,106.505325,-2.062729,-12.416959,-20.299017,-57.518650,-20.611723
3.950000,106.461479,-2.067596,-15.180180,-20.082174,-55.478642,-20.514030
3.956250,104.359009,-2.070730,-16.575960,-19.964796,-51.437859,-20.484373
3.962500,99.957954,-2.072150,-16.547001,-19.956421,-45.147751,-20.534718
3.968750,93.133011,-2.072148,-15.092391,-20.054789,-36.469044,-20.673615
3.975000,83.881485,-2.070757,-14.156058,-20.225809,-25.407017,-20.911186
3.981250,72.324341,-2.068049,-10.049941,-20.520477,-12.124938,-21.276482
3.987500,58.696896,-2.064193,-5.694254,-20.921124,1.762963,-21.683046
3.993750,43.337574,-2.059520,-0.405600,-21.385035,16.923418,-22.192513
4.000000,26.672852,-2.054145,5.179758,-21.907740,32.544006,-22.812181
4.006250,9.195068,-2.048105,10.703568,-22.473024,47.762981,-23.573658
4.012500,-8.565046,-2.041874,15.896023,-23.053308,61.507565,-24.331678
4.018750,-26.064011,-2.036390,20.509724,-23.615664,74.463722,-25.065319
4.025000,-42.767792,-2.031767,24.257898,-24.144751,84.676918,-25.809479
4.031250,-58.179489,-2.027625,29.003973,-24.630756,93.054886,-26.568308
4.037500,-71.870163,-2.024056,31.379280,-25.052929,98.726501,-27.287720
4.043750,-83.502319,-2.021785,33.427925,-25.398518,101.976418,-27.937946
4.050000,-92.837402,-2.020905,35.002693,-25.667471,103.201485,-28.502041
4.056250,-99.747124,-2.020447,36.035065,-25.850014,102.928986,-28.970135
4.062500,-104.229202,-2.019744,36.604500,-25.928848,99.961899,-29.309530
4.068750,-106.411514,-2.019814,36.655258,-25.920792,96.699486,-29.506214
4.075000,-106.536133,-2.021852,36.206421,-25.843115,93.201759,-29.567650
4.081250,-104.937210,-2.025228,35.438095,-25.709362,89.694473,-29.497967
4.087500,-102.031700,-2.028425,34.603867,-25.527882,84.338310,-29.298401
4.093750,-98.311806,-2.030980,34.008247,-25.307722,78.861816,-28.974827
4.100000,-94.319687,-2.033758,32.068829,-25.063271,73.120552,-28.548698
4.106250,-88.436996,-2.037467,30.781866,-24.799866,67.018501,-28.058466
4.112500,-82.554253,-2.041700,30.052544,-24.509216,60.635284,-27.462103
4.118750,-76.668633,-2.046209,29.620621,-24.207396,54.141537,-26.795286
4.125000,-70.781296,-2.051335,29.191946,-23.909689,47.272110,-26.098837
4.131250,-64.892815,-2.057065,28.598515,-23.625355,40.177250,-25.403444
4.137500,-58.999794,-2.062855,27.725367,-23.357643,33.053791,-24.731842
4.143750,-53.100418,-2.068345,26.486706,-23.105936,26.115322,-24.102022
4.150000,-47.197983,-2.073795,24.797890,-22.868689,19.551720,-23.526625
4.156250,-41.295471,-2.079623,24.751595,-22.643099,13.536391,-23.006918
4.162500,-35.391582,-2.085798,24.941603,-22.416782,8.214620,-22.554588
4.168750,-29.484198,-2.092069,23.953648,-22.180664,5.300315,-22.173294
4.175000,-23.572710,-2.098427,23.652157,-21.952473,2.213567,-21.860596
4.181250,-17.657185,-2.104686,23.832104,-21.737326,0.680650,-21.609364
4.187500,-11.737206,-2.110599,24.301832,-21.540140,0.582603,-21.358789
4.193750,-5.812761,-2.116150,24.840227,-21.366848,1.974502,-21.220852
4.200000,0.115486,-2.121051,25.215168,-21.225199,2.940044,-21.165785
4.206250,6.047324,-2.125058,25.211105,-21.122379,4.157431,-21.172775
4.212500,11.981830,-2.127988,24.662971,-21.055363,6.658563,-21.198193
4.218750,17.915154,-2.130171,25.636379,-21.013063,8.210997,-21.246759
4.225000,23.844563,-2.132091,24.720121,-20.991528,8.807197,-21.319017
4.231250,29.769960,-2.133906,23.894552,-20.979198,8.303147,-21.400946
4.237500,35.693130,-2.135437,22.952486,-20.975941,6.528608,-21.470181
4.243750,41.614124,-2.136751,21.557343,-20.997860,5.399878,-21.535824
4.250000,47.533440,-2.137718,19.549528,-21.030195,3.299336,-21.597351
4.256250,53.450878,-2.138305,16.783733,-21.055208,0.748465,-21.638437
4.262500,59.364029,-2.138922,13.027637,-21.058327,-1.837591,-21.647930
4.268750,65.269707,-2.140353,8.082756,-21.028933,-4.103611,-21.615299
4.275000,71.168846,-2.142952,1.768777,-20.959856,-5.737522,-21.533920
4.281250,77.067253,-2.146175,-3.908023,-20.838791,-6.468336,-21.390942
4.287500,82.968109,-2.149764,-10.477474,-20.662907,-6.096932,-21.157679
4.293750,88.867836,-2.154511,-17.683439,-20.455177,-4.718395,-20.904518
4.300000,94.767136,-2.160614,-25.154654,-20.217299,-2.607780,-20.633717
4.306250,98.778320,-2.166939,-32.448837,-19.952658,0.431417,-20.342588
4.312500,102.528107,-2.172374,-39.247601,-19.672123,4.191935,-20.040611
4.318750,105.479240,-2.177307,-45.281170,-19.390177,8.408842,-19.741571
4.325000,107.131195,-2.182748,-50.347164,-19.128202,12.778855,-19.462694
4.331250,107.059479,-2.188571,-54.298901,-18.909210,16.992403,-19.219004
4.337500,104.930458,-2.193713,-57.039585,-18.780840,20.775917,-19.012827
4.343750,100.507759,-2.197686,-58.588829,-18.653385,23.907236,-18.788883
4.350000,93.665428,-2.200771,-57.945572,-18.597370,25.913187,-18.668224
4.356250,84.401276,-2.202751,-56.002842,-18.648893,28.462349,-18.632965
4.362500,72.837540,-2.203162,-52.560654,-18.806795,30.313280,-18.693119
4.368750,59.208443,-2.202391,-47.708302,-19.062933,31.817469,-18.875444
4.375000,43.848854,-2.201211,-41.648094,-19.404131,33.222160,-19.120041
4.381250,27.185810,-2.199615,-34.653549,-19.809214,34.581551,-19.409622
4.387500,9.716191,-2.196871,-27.047438,-20.251598,36.696449,-19.750254
4.393750,-8.029736,-2.193229,-19.243845,-20.714922,37.891262,-20.170603
4.400000,-25.511806,-2.189912,-11.701438,-21.186758,39.725346,-20.646105
4.406250,-42.197453,-2.187034,-2.622656,-21.649008,41.782589,-21.150379
4.412500,-57.588387,-2.183729,4.407553,-22.088207,43.769199,-21.665113
4.418750,-71.256660,-2.180165,11.232841,-22.498823,45.471848,-22.176435
4.425000,-82.867065,-2.177235,17.683121,-22.818640,46.808071,-22.636610
4.431250,-92.183578,-2.175343,23.585188,-23.047508,47.786201,-23.017990
4.437500,-99.078621,-2.173767,28.547792,-23.197617,48.175938,-23.316856
4.443750,-103.549988,-2.172346,32.525551,-23.276093,47.976616,-23.526291
4.450000,-105.723320,-2.171947,35.583809,-23.284903,47.316051,-23.639048
4.456250,-105.836792,-2.173046,37.852131,-23.228722,46.362648,-23.653547
4.462500,-104.224785,-2.174861,39.530384,-23.117418,45.298840,-23.575813
4.468750,-101.310478,-2.176987,40.907459,-22.970545,44.345551,-23.427935
4.475000,-97.588669,-2.179908,40.467346,-22.786398,43.798008,-23.196180
4.481250,-93.593742,-2.183649,40.376629,-22.558727,42.380978,-22.866337
4.487500,-87.698891,-2.187428,40.296944,-22.319347,41.626286,-22.484806
4.493750,-81.798561,-2.190896,40.036148,-22.089525,41.232761,-22.081545
4.500000,-75.899368,-2.195300,39.528343,-21.880516,40.982006,-21.677830
4.506250,-70.003098,-2.201322,38.747948,-21.692837,40.664581,-21.288490
4.512500,-64.101837,-2.207815,37.688747,-21.513868,40.061543,-20.922897
4.518750,-58.187912,-2.213278,36.351204,-21.288906,38.927944,-20.591013
4.525000,-52.265240,-2.217816,34.760727,-21.103584,36.947254,-20.327333
4.531250,-46.343422,-2.222633,34.005039,-20.966225,33.671772,-20.121986
4.537500,-40.423740,-2.228091,33.576580,-20.833265,30.460472,-19.950792
4.543750,-34.498714,-2.233365,32.067650,-20.693161,25.815138,-19.825636
4.550000,-28.565054,-2.237647,31.200741,-20.573269,20.064743,-19.722845
4.556250,-22.626196,-2.241013,30.684359,-20.496239,13.613587,-19.702099
4.562500,-16.685965,-2.243840,30.303600,-20.481226,7.167309,-19.779606
4.568750,-10.745046,-2.246147,29.830694,-20.554005,0.706715,-19.953093
4.575000,-4.801288,-2.247658,29.041431,-20.772249,-5.588810,-20.170027
4.581250,1.145454,-2.247949,27.757114,-21.055361,-11.397087,-20.441772
4.587500,7.093123,-2.246945,24.699427,-21.423721,-16.215969,-20.780182
4.593750,13.039166,-2.245021,22.747299,-21.896471,-19.862604,-21.178223
4.600000,18.981050,-2.242275,20.034693,-22.476606,-22.287401,-21.615425
4.606250,24.919401,-2.238491,16.426140,-23.229452,-23.635004,-22.103012
4.612500,30.853111,-2.233741,12.872060,-24.019798,-24.175674,-22.632147
4.618750,36.777149,-2.229033,8.702201,-24.881817,-23.980581,-23.180077
4.625000,42.689297,-2.225126,4.272903,-25.795341,-23.329679,-23.731434
4.631250,48.595158,-2.221361,-0.126244,-26.726587,-22.546383,-24.272528
4.637500,54.500004,-2.216773,-4.233053,-27.632904,-21.993334,-24.786234
4.643750,60.400333,-2.211915,-7.800930,-28.461494,-22.035910,-25.237564
4.650000,66.287140,-2.208333,-12.525220,-29.151762,-23.023939,-25.579472
4.656250,72.159409,-2.206740,-14.542943,-29.676052,-25.336222,-25.818176
4.662500,78.026009,-2.206803,-15.905982,-30.025974,-27.544577,-25.976288
4.668750,83.891731,-2.208105,-16.483065,-30.171474,-31.030155,-26.026878
4.675000,89.757050,-2.210914,-16.299374,-30.100510,-35.555428,-25.961805
4.681250,93.728371,-2.215066,-15.488633,-29.815662,-40.912243,-25.781910
4.687500,97.430771,-2.219904,-14.254365,-29.340742,-46.876522,-25.498405
4.693750,100.331078,-2.225685,-12.843911,-28.714155,-53.178631,-25.123127
4.700000,101.933449,-2.233411,-11.553033,-27.963703,-59.475124,-24.658270
4.706250,101.813644,-2.242869,-10.867399,-27.093927,-65.399628,-24.097113
4.712500,99.642487,-2.252229,-11.029643,-26.146395,-70.515831,-23.490860
4.718750,95.186325,-2.260282,-12.386245,-25.196426,-76.226593,-22.897404
