Anritsu VNA Frequency[GHz],S21[deg],S21[dB],S11[deg],S11[dB],S22[deg],S22[dB]
1338106016.15,2012_05_27_09:06:56,+40.589,+10.303,+54.887,+10.317,+13.921,+13.733,+14.026,+13.777,10.395235,-15.962
3.006250,34.049095,-1.751938,59.220890,-26.677584,-80.222946,-27.443407
3.012500,34.049095,-1.751938,59.220890,-26.677584,-80.222946,-27.443407
3.018750,34.049095,-1.751938,59.220890,-26.677584,-80.222946,-27.443407
3.025000,34.049095,-1.751938,59.220890,-26.677584,-80.222946,-27.443407
3.031250,34.049095,-1.751938,59.220890,-26.677584,-80.222946,-27.443407
3.037500,34.049095,-1.751938,59.220890,-26.677584,-80.222946,-27.443407
3.043750,34.049095,-1.751938,59.220890,-26.677584,-80.222946,-27.443407
3.050000,34.049095,-1.751938,59.220890,-26.677584,-80.222946,-27.443407
3.056250,34.049095,-1.751938,59.220890,-26.677584,-80.222946,-27.443407
3.062500,34.049095,-1.751938,59.220890,-26.677584,-80.222946,-27.443407
3.068750,34.049095,-1.751938,59.220890,-26.677584,-80.222946,-27.443407
3.075000,34.049095,-1.751938,59.220890,-26.677584,-80.222946,-27.443407
3.081250,34.049095,-1.751938,59.220890,-26.677584,-80.222946,-27.443407
3.087500,34.049095,-1.751938,59.220890,-26.677584,-80.222946,-27.443407
3.093750,34.049095,-1.753798,59.220890,-26.477272,-80.222946,-27.190258
3.100000,39.956402,-1.755940,56.545425,-26.327633,-82.197525,-26.955164
3.106250,45.863472,-1.758069,52.988861,-26.249485,-82.567757,-26.739801
3.112500,51.771038,-1.760214,48.910671,-26.262903,-80.972450,-26.516634
3.118750,57.677647,-1.762526,42.917568,-26.306961,-79.249100,-26.212841
3.125000,63.583118,-1.764932,38.125706,-26.352718,-75.176727,-25.950256
3.131250,69.487747,-1.767360,33.745358,-26.424757,-69.014084,-25.661335
3.137500,75.391228,-1.770145,30.039089,-26.524372,-61.134392,-25.335754
3.143750,81.293030,-1.773435,27.210485,-26.643520,-51.718792,-24.982203
3.150000,87.195610,-1.777010,25.439556,-26.766937,-40.921116,-24.613028
3.156250,93.101158,-1.780351,24.851021,-26.880505,-28.917740,-24.246893
3.162500,97.114159,-1.783403,25.505890,-26.970356,-15.905341,-23.907215
3.168750,100.853859,-1.786610,27.432310,-27.030704,-3.988132,-23.642780
3.175000,103.786819,-1.790051,30.660351,-27.039351,8.292532,-23.398010
3.181250,105.422859,-1.793618,33.437756,-26.983152,20.814926,-23.176004
3.187500,105.336586,-1.797065,37.225620,-26.879644,32.298698,-23.008375
3.193750,103.186821,-1.800240,41.324699,-26.740948,42.314518,-22.911469
3.200000,98.735939,-1.803133,45.162174,-26.575378,50.534370,-22.887859
3.206250,91.862221,-1.805660,48.257339,-26.393562,56.676506,-22.937929
3.212500,82.564003,-1.808003,50.191753,-26.209166,60.542530,-23.069559
3.218750,70.961571,-1.810584,50.652542,-26.032784,62.030281,-23.265244
3.225000,57.293461,-1.813036,51.639530,-25.858324,60.889164,-23.470438
3.231250,41.902596,-1.814962,51.690376,-25.686172,57.398487,-23.693163
3.237500,25.214283,-1.816571,49.314465,-25.515617,53.672329,-23.925396
3.243750,7.716677,-1.818479,46.626751,-25.324543,48.214462,-24.144302
3.250000,-10.057580,-1.820929,43.492210,-25.152367,41.690430,-24.330883
3.256250,-27.558443,-1.823562,39.553474,-25.012651,34.695660,-24.484276
3.262500,-44.250412,-1.825817,35.053638,-24.887947,27.876038,-24.593155
3.268750,-59.643150,-1.827734,29.933962,-24.774824,21.911291,-24.648832
3.275000,-73.312698,-1.829792,24.071583,-24.672016,17.347378,-24.651041
3.281250,-84.919319,-1.832238,17.357616,-24.570259,14.624352,-24.607302
3.287500,-94.224045,-1.835062,9.699039,-24.456644,14.039177,-24.531904
3.293750,-101.102684,-1.837964,1.063205,-24.292826,15.742075,-24.424973
3.300000,-105.555496,-1.840799,-6.379800,-24.125338,19.780592,-24.287939
3.306250,-107.703392,-1.843374,-15.048211,-23.990282,26.014946,-24.146896
3.312500,-107.783958,-1.845728,-23.715181,-23.868786,34.137585,-24.033621
3.318750,-106.139084,-1.847937,-32.094013,-23.768661,43.772209,-23.969122
3.325000,-103.196007,-1.849989,-39.922482,-23.707706,54.471470,-23.964100
3.331250,-99.446213,-1.851677,-46.946625,-23.710676,65.715370,-24.021017
3.337500,-95.422691,-1.853001,-52.978001,-23.839437,76.927963,-24.138823
3.343750,-89.504440,-1.853954,-58.036629,-23.999393,87.526978,-24.302635
3.350000,-83.586708,-1.854498,-62.482388,-24.219521,97.266693,-24.457029
3.356250,-77.669876,-1.854735,-65.933968,-24.542490,105.867287,-24.655464
3.362500,-71.754852,-1.854840,-66.680077,-24.989990,112.121605,-24.905058
3.368750,-65.841820,-1.854645,-66.355026,-25.543245,116.154106,-25.195463
3.375000,-59.929420,-1.853892,-64.838097,-26.175503,117.570602,-25.572611
3.381250,-54.018852,-1.852712,-62.142605,-26.852594,116.194374,-25.908590
3.387500,-48.114475,-1.851901,-58.361652,-27.536558,112.670349,-26.232111
3.393750,-42.216469,-1.851921,-53.653458,-28.182976,106.429253,-26.536266
3.400000,-36.320568,-1.852268,-48.238335,-28.749386,98.034660,-26.813398
3.406250,-30.423269,-1.852452,-42.449600,-29.214905,88.487564,-27.093998
3.412500,-24.526300,-1.852754,-36.612408,-29.554462,78.457817,-27.344294
3.418750,-18.634195,-1.853926,-28.790293,-29.746965,66.583374,-27.542862
3.425000,-12.745133,-1.856099,-22.525969,-29.787947,55.153111,-27.683540
3.431250,-6.853053,-1.858405,-15.968388,-29.693287,44.599316,-27.772009
3.437500,-0.956643,-1.860601,-9.369812,-29.446430,35.377575,-27.812447
3.443750,4.939434,-1.863433,-2.754228,-29.046339,28.165777,-27.752235
3.450000,10.834046,-1.867229,3.356532,-28.538118,21.250683,-27.621056
3.456250,16.732567,-1.871211,8.801250,-27.960308,16.407679,-27.432499
3.462500,22.639532,-1.874576,13.573547,-27.356701,13.343316,-27.188578
3.468750,28.551939,-1.877324,17.757147,-26.773100,11.742941,-26.886248
3.475000,34.464176,-1.879837,21.457481,-26.274199,11.260869,-26.541143
3.481250,40.375988,-1.882229,24.935301,-25.812702,11.497465,-26.168438
3.487500,46.286804,-1.884659,26.920193,-25.418478,12.089251,-25.762836
3.493750,52.196033,-1.887484,28.798262,-25.126886,12.605697,-25.331541
3.500000,58.104507,-1.890779,30.395048,-24.942863,12.607780,-24.886539
3.506250,64.015785,-1.893844,31.607655,-24.851423,11.766048,-24.438101
3.512500,69.931152,-1.896081,32.347397,-24.819040,9.809554,-23.995811
3.518750,75.846611,-1.898106,32.580624,-24.758636,6.535768,-23.564320
3.525000,81.755753,-1.901017,32.485161,-24.742453,1.793031,-23.150423
3.531250,87.660515,-1.905025,32.609055,-24.729343,-2.393991,-22.768307
3.537500,93.567741,-1.909313,32.613018,-24.683220,-7.488363,-22.434565
3.543750,97.586220,-1.913287,32.750488,-24.594782,-13.059937,-22.145346
3.550000,101.334190,-1.917406,33.352467,-24.436634,-18.828648,-21.863333
3.556250,104.275780,-1.922261,32.860218,-24.211018,-24.316502,-21.534813
3.562500,105.922356,-1.927413,32.984936,-23.947044,-29.229527,-21.292845
3.568750,105.853249,-1.931802,33.384331,-23.671505,-32.369411,-21.121971
3.575000,103.728134,-1.934768,33.780121,-23.411175,-34.727619,-21.023134
3.581250,99.303978,-1.936725,33.891014,-23.200438,-36.041214,-21.010050
3.587500,92.454216,-1.938229,33.457588,-23.075968,-36.326618,-21.042734
3.593750,83.179001,-1.939335,32.375057,-23.026546,-35.458378,-21.143417
3.600000,71.604042,-1.939403,30.578274,-23.064419,-33.281960,-21.326813
3.606250,57.966892,-1.938096,29.917490,-23.203091,-29.954430,-21.587124
3.612500,42.602463,-1.935916,28.939039,-23.427603,-25.751848,-21.897800
3.618750,25.934704,-1.933322,28.047441,-23.756371,-21.070829,-22.233643
3.625000,8.457245,-1.930079,27.353704,-24.199211,-16.690025,-22.637642
3.631250,-9.295650,-1.925977,27.469004,-24.718956,-10.814322,-23.071392
3.637500,-26.780596,-1.921527,28.696220,-25.280613,-5.158998,-23.506311
3.643750,-43.469391,-1.917416,31.174391,-25.846527,0.249157,-23.923092
3.650000,-58.869049,-1.913926,33.037975,-26.371788,5.321073,-24.304333
3.656250,-72.548920,-1.911040,35.848732,-26.781706,9.970444,-24.633612
3.662500,-84.167328,-1.908844,38.780510,-27.121445,14.102821,-24.905489
3.668750,-93.486786,-1.907563,42.757729,-27.369059,17.577353,-25.126610
3.675000,-100.383461,-1.906883,46.100655,-27.496706,20.307421,-25.295811
3.681250,-104.855003,-1.906344,48.539474,-27.501539,22.238377,-25.411535
3.687500,-107.024544,-1.906221,49.833340,-27.396502,23.291746,-25.477182
3.693750,-107.132660,-1.907378,49.832840,-27.207634,23.415478,-25.501621
3.700000,-105.518028,-1.909657,48.546902,-26.940578,22.614664,-25.495728
3.706250,-102.600983,-1.912123,46.127735,-26.612904,21.020689,-25.452431
3.712500,-98.872177,-1.914352,42.559322,-26.264000,18.851782,-25.365454
3.718750,-94.869484,-1.916913,36.137161,-25.920925,16.258051,-25.239723
3.725000,-88.973808,-1.920129,28.783556,-25.599457,13.568151,-25.091011
3.731250,-83.076126,-1.923429,20.229540,-25.344732,11.388841,-24.958340
3.737500,-77.173233,-1.926285,12.415246,-25.179136,10.131946,-24.853565
3.743750,-71.268066,-1.928884,4.085817,-25.089037,10.211583,-24.799026
3.750000,-65.364105,-1.931584,-4.205132,-25.062313,10.222103,-24.709846
3.756250,-59.461575,-1.934313,-12.062158,-25.094671,10.144813,-24.605940
3.762500,-53.558094,-1.936810,-19.064302,-25.165392,11.308563,-24.487776
3.768750,-47.654629,-1.939360,-24.770794,-25.237576,13.451899,-24.404221
3.775000,-41.752827,-1.942224,-28.956186,-25.323387,16.118492,-24.344189
3.781250,-35.851620,-1.945186,-31.508692,-25.409332,18.708303,-24.291965
3.787500,-29.949186,-1.947872,-32.075966,-25.475342,20.857132,-24.240370
3.793750,-24.046694,-1.950619,-30.571730,-25.536535,22.257454,-24.192923
3.800000,-18.146215,-1.953786,-28.918583,-25.536484,22.715244,-24.141556
3.806250,-12.246293,-1.957246,-24.767532,-25.449707,22.243580,-24.050566
3.812500,-6.345079,-1.960882,-19.629148,-25.316069,20.708563,-23.928167
3.818750,-0.443473,-1.964826,-14.050797,-25.152515,17.991987,-23.785149
3.825000,5.458942,-1.969125,-8.570868,-24.973303,14.229210,-23.627911
3.831250,11.365292,-1.973086,-1.535008,-24.793137,9.687513,-23.467230
3.837500,17.275866,-1.976421,5.242698,-24.626059,4.687684,-23.339575
3.843750,23.185932,-1.979849,11.917454,-24.467558,-0.427904,-23.201210
3.850000,29.093313,-1.983762,16.804348,-24.311741,-6.349125,-23.033085
3.856250,35.001930,-1.987517,21.580616,-24.167946,-11.885651,-22.874992
3.862500,40.914555,-1.990484,25.824883,-24.034678,-17.015024,-22.735615
3.868750,46.826797,-1.993309,29.207579,-23.898830,-21.715752,-22.611794
3.875000,52.732338,-1.997218,31.410482,-23.738438,-26.013300,-22.492908
3.881250,58.633785,-2.002311,32.075413,-23.559000,-29.977709,-22.363394
3.887500,64.538834,-2.007550,30.808319,-23.362909,-33.792603,-22.227686
3.893750,70.450409,-2.012334,27.539604,-23.131758,-37.714592,-22.091053
3.900000,76.363411,-2.017370,24.344440,-22.855467,-41.875145,-21.945883
3.906250,82.273125,-2.023456,19.774702,-22.534027,-44.576019,-21.790506
3.912500,88.183159,-2.030539,14.297626,-22.168818,-47.685188,-21.619932
3.918750,94.099396,-2.038030,8.377860,-21.767344,-50.913830,-21.421465
3.925000,98.129311,-2.045342,2.383042,-21.356647,-54.021336,-21.167868
3.931250,101.893959,-2.052244,-3.345552,-20.961924,-57.070007,-20.949036
3.937500,104.859642,-2.058679,-8.377344,-20.603582,-57.861305,-20.760794
3.943750,106.533371,-2.064471,-12.387601,-20.304577,-57.471439,-20.611460
3.950000,106.489273,-2.069135,-15.155210,-20.086950,-55.435070,-20.514694
3.956250,104.386436,-2.072136,-16.555277,-19.968853,-51.397602,-20.485743
3.962500,99.985275,-2.073366,-16.530283,-19.959993,-45.111214,-20.537085
3.968750,93.159836,-2.073168,-15.079111,-20.058084,-36.435436,-20.676706
3.975000,83.907799,-2.071657,-14.148543,-20.229252,-25.375853,-20.915249
3.981250,72.349777,-2.068863,-10.050345,-20.523031,-12.098991,-21.281044
3.987500,58.721401,-2.064978,-5.695917,-20.924532,1.789675,-21.688877
3.993750,43.361340,-2.060261,-0.409886,-21.388784,16.943115,-22.199314
4.000000,26.695824,-2.054932,5.168185,-21.912088,32.561234,-22.819412
4.006250,9.217355,-2.048922,10.687990,-22.478115,47.776894,-23.581207
4.012500,-8.543416,-2.042765,15.879193,-23.059124,61.519276,-24.340178
4.018750,-26.042999,-2.037386,20.489849,-23.622267,74.471626,-25.074999
4.025000,-42.747135,-2.032930,24.235842,-24.152031,84.682457,-25.819523
4.031250,-58.159016,-2.028981,28.979286,-24.638620,93.057213,-26.578880
4.037500,-71.850037,-2.025593,31.352005,-25.061316,98.726707,-27.298876
4.043750,-83.482025,-2.023483,33.397728,-25.407312,101.974327,-27.949686
4.050000,-92.817017,-2.022770,34.969746,-25.676416,103.198303,-28.514410
4.056250,-99.726646,-2.022421,35.999489,-25.859440,102.925926,-28.983082
4.062500,-104.208488,-2.021868,36.564075,-25.938179,99.959625,-29.322994
4.068750,-106.390572,-2.022097,36.610367,-25.929977,96.698715,-29.520111
4.075000,-106.515007,-2.024272,36.155994,-25.851955,93.200630,-29.581869
4.081250,-104.915833,-2.027731,35.381615,-25.717846,89.695061,-29.512489
4.087500,-102.010002,-2.030996,34.541553,-25.536137,84.341492,-29.313038
4.093750,-98.290283,-2.033661,33.939674,-25.315939,78.868156,-28.989868
4.100000,-94.298042,-2.036551,31.994774,-25.071257,73.129875,-28.563168
4.106250,-88.415070,-2.040332,30.703434,-24.807554,67.027969,-28.073109
4.112500,-82.532440,-2.044603,29.969584,-24.516682,60.647099,-27.476099
4.118750,-76.646820,-2.049166,29.534420,-24.214582,54.156353,-26.808775
4.125000,-70.759422,-2.054322,29.106110,-23.916800,47.289333,-26.111864
4.131250,-64.870872,-2.060100,28.513447,-23.632278,40.195557,-25.415546
4.137500,-58.977707,-2.065864,27.642797,-23.364458,33.073593,-24.743202
4.143750,-53.078327,-2.071341,26.407028,-23.112617,26.137590,-24.112289
4.150000,-47.175961,-2.076766,24.722895,-22.875549,19.576187,-23.535870
4.156250,-41.273487,-2.082547,24.682968,-22.649153,13.562801,-23.014883
4.162500,-35.369381,-2.088621,24.879772,-22.423521,8.245558,-22.563330
4.168750,-29.461756,-2.094791,23.897638,-22.186613,5.330607,-22.181019
4.175000,-23.550339,-2.100980,23.601053,-21.958162,2.250111,-21.867699
4.181250,-17.634972,-2.107065,23.789070,-21.742762,0.721552,-21.616716
4.187500,-11.714958,-2.112839,24.265303,-21.545248,0.626891,-21.366869
4.193750,-5.790387,-2.118236,24.807594,-21.371475,2.021425,-21.229448
4.200000,0.138007,-2.123011,25.186014,-21.229271,2.991005,-21.175518
4.206250,6.069683,-2.126883,25.184820,-21.125841,4.213192,-21.183636
4.212500,12.004019,-2.129655,24.639086,-21.058313,6.719082,-21.210377
4.218750,17.937307,-2.131721,25.612928,-21.015524,8.274082,-21.260300
4.225000,23.866718,-2.133542,24.698851,-20.993469,8.875063,-21.333755
4.231250,29.792257,-2.135243,23.874254,-20.980726,8.373668,-21.416695
4.237500,35.715263,-2.136739,22.932310,-20.976759,6.601853,-21.486782
4.243750,41.636078,-2.138010,21.537191,-20.998308,5.475888,-21.552938
4.250000,47.555546,-2.138956,19.529053,-21.030298,3.376310,-21.614504
4.256250,53.472912,-2.139503,16.764090,-21.055147,0.828998,-21.655325
4.262500,59.386044,-2.140157,13.008619,-21.058102,-1.755200,-21.664164
4.268750,65.291672,-2.141610,8.063264,-21.028637,-4.020626,-21.630507
4.275000,71.190987,-2.144212,1.749173,-20.959414,-5.654016,-21.547520
4.281250,77.089645,-2.147455,-3.926400,-20.838411,-6.384070,-21.403156
4.287500,82.990372,-2.151082,-10.494928,-20.662529,-6.010472,-21.168009
4.293750,88.890434,-2.155868,-17.699965,-20.454926,-4.632580,-20.912994
4.300000,94.789940,-2.162026,-25.169718,-20.217283,-2.521300,-20.640339
4.306250,98.801476,-2.168364,-32.462761,-19.952820,0.517479,-20.347290
4.312500,102.551582,-2.173814,-39.259701,-19.672440,4.278211,-20.043673
4.318750,105.502968,-2.178790,-45.291454,-19.390730,8.500138,-19.743076
4.325000,107.155373,-2.184242,-50.355324,-19.128929,12.869370,-19.463078
4.331250,107.084160,-2.190066,-54.305466,-18.910057,17.081366,-19.218653
4.337500,104.955421,-2.195174,-57.043434,-18.781702,20.863300,-19.012236
4.343750,100.533020,-2.199100,-58.591263,-18.654280,23.991987,-18.786726
4.350000,93.691002,-2.202095,-57.944241,-18.598757,25.995461,-18.666048
4.356250,84.427208,-2.204037,-56.000160,-18.650436,28.543556,-18.630550
4.362500,72.863792,-2.204392,-52.557812,-18.808357,30.388693,-18.690805
4.368750,59.235081,-2.203528,-47.705189,-19.064627,31.887064,-18.872974
4.375000,43.875633,-2.202309,-41.646164,-19.405996,33.286697,-19.117647
4.381250,27.212732,-2.200645,-34.652420,-19.811216,34.639606,-19.406693
4.387500,9.743050,-2.197848,-27.049570,-20.253952,36.747322,-19.747250
4.393750,-8.002625,-2.194237,-19.249115,-20.717451,37.933052,-20.167177
4.400000,-25.484644,-2.190934,-11.709614,-21.189394,39.759281,-20.642252
4.406250,-42.170319,-2.188132,-2.635968,-21.651863,41.806278,-21.146105
4.412500,-57.561310,-2.185037,4.388894,-22.091074,43.783909,-21.660275
4.418750,-71.229645,-2.181666,11.209001,-22.501467,45.477119,-22.170925
4.425000,-82.840042,-2.178943,17.653160,-22.821470,46.803043,-22.630333
4.431250,-92.156746,-2.177286,23.550550,-23.050343,47.773003,-23.011061
4.437500,-99.052017,-2.175997,28.507816,-23.200140,48.154907,-23.309292
4.443750,-103.523529,-2.174870,32.480019,-23.278353,47.949314,-23.518095
4.450000,-105.697136,-2.174803,35.534363,-23.286959,47.283478,-23.630239
4.456250,-105.810959,-2.176212,37.798519,-23.230394,46.326214,-23.644367
4.462500,-104.199379,-2.178293,39.472809,-23.118734,45.260281,-23.566422
4.468750,-101.285515,-2.180670,40.847172,-22.971491,44.306362,-23.418310
4.475000,-97.564011,-2.183787,40.405678,-22.787142,43.761086,-23.186129
4.481250,-93.569572,-2.187699,40.313057,-22.559017,42.346416,-22.856480
4.487500,-87.675423,-2.191591,40.232906,-22.319233,41.596157,-22.475243
4.493750,-81.775520,-2.195108,39.972363,-22.089220,41.208038,-22.072237
4.500000,-75.876892,-2.199516,39.465282,-21.880016,40.963516,-21.668940
4.506250,-69.981163,-2.205506,38.687164,-21.692089,40.653286,-21.280092
4.512500,-64.080414,-2.211894,37.630520,-21.513031,40.058243,-20.914946
4.518750,-58.167034,-2.217246,36.294548,-21.288261,38.932270,-20.583393
4.525000,-52.244473,-2.221660,34.708061,-21.102953,36.960133,-20.320824
4.531250,-46.322865,-2.226298,33.956650,-20.965258,33.691238,-20.115751
4.537500,-40.403324,-2.231569,33.532173,-20.832060,30.485554,-19.945484
4.543750,-34.478008,-2.236669,32.030098,-20.692144,25.846291,-19.820965
4.550000,-28.544092,-2.240783,31.167559,-20.572060,20.100752,-19.718851
4.556250,-22.604893,-2.243979,30.659687,-20.494772,13.651352,-19.698757
4.562500,-16.663998,-2.246655,30.285936,-20.479322,7.208019,-19.777124
4.568750,-10.722035,-2.248865,29.823002,-20.551678,0.746587,-19.951281
4.575000,-4.777212,-2.250280,29.044031,-20.771801,-5.548856,-20.168821
4.581250,1.170849,-2.250524,27.755028,-21.055460,-11.361662,-20.440914
4.587500,7.119907,-2.249516,24.704121,-21.424252,-16.185011,-20.779997
4.593750,13.067245,-2.247538,22.758129,-21.898188,-19.838022,-21.178215
4.600000,19.010843,-2.244786,20.043299,-22.480938,-22.270832,-21.615499
4.606250,24.950556,-2.241002,16.434622,-23.235809,-23.626648,-22.103775
4.612500,30.885715,-2.236274,12.874802,-24.029757,-24.177111,-22.632807
4.618750,36.811134,-2.231575,8.694990,-24.895306,-23.991383,-23.180727
4.625000,42.724247,-2.227662,4.252609,-25.812508,-23.351023,-23.731579
4.631250,48.631138,-2.223905,-0.162352,-26.747526,-22.575695,-24.272392
4.637500,54.536728,-2.219307,-4.285063,-27.657417,-22.031544,-24.785767
4.643750,60.437309,-2.214409,-7.867969,-28.489347,-22.080078,-25.236752
4.650000,66.324341,-2.210761,-12.606976,-29.182281,-23.071886,-25.577995
4.656250,72.196533,-2.209135,-14.639806,-29.708426,-25.386608,-25.816509
4.662500,78.062813,-2.209102,-16.014185,-30.059706,-27.594627,-25.973961
4.668750,83.928177,-2.210330,-16.600876,-30.205690,-31.079193,-26.023972
4.675000,89.792831,-2.213059,-16.424217,-30.134192,-35.600819,-25.958384
4.681250,93.763374,-2.217130,-15.617117,-29.848005,-40.952171,-25.778139
4.687500,97.465042,-2.221878,-14.383150,-29.371271,-46.909992,-25.494318
4.693750,100.364525,-2.227602,-12.969423,-28.741724,-53.206272,-25.118895
4.700000,101.966507,-2.235248,-11.670188,-27.988150,-59.494667,-24.654064
4.706250,101.845940,-2.244626,-10.973851,-27.114725,-65.411102,-24.092306
4.712500,99.674294,-2.253928,-11.124679,-26.163456,-70.519989,-23.486235
4.718750,95.217773,-2.261909,-12.467408,-25.210018,-76.226273,-22.892698
