Anritsu VNA Frequency[GHz],S21[deg],S21[dB],S11[deg],S11[dB],S22[deg],S22[dB]
1338121383.54,2012_05_27_13:23:03,+40.679,+10.275,+55.340,+10.289,+13.904,+13.714,+14.010,+13.761,10.372083,-15.840
3.006250,34.307446,-1.756441,59.393181,-26.662560,-79.770386,-27.428833
3.012500,34.307446,-1.756441,59.393181,-26.662560,-79.770386,-27.428833
3.018750,34.307446,-1.756441,59.393181,-26.662560,-79.770386,-27.428833
3.025000,34.307446,-1.756441,59.393181,-26.662560,-79.770386,-27.428833
3.031250,34.307446,-1.756441,59.393181,-26.662560,-79.770386,-27.428833
3.037500,34.307446,-1.756441,59.393181,-26.662560,-79.770386,-27.428833
3.043750,34.307446,-1.756441,59.393181,-26.662560,-79.770386,-27.428833
3.050000,34.307446,-1.756441,59.393181,-26.662560,-79.770386,-27.428833
3.056250,34.307446,-1.756441,59.393181,-26.662560,-79.770386,-27.428833
3.062500,34.307446,-1.756441,59.393181,-26.662560,-79.770386,-27.428833
3.068750,34.307446,-1.756441,59.393181,-26.662560,-79.770386,-27.428833
3.075000,34.307446,-1.756441,59.393181,-26.662560,-79.770386,-27.428833
3.081250,34.307446,-1.756441,59.393181,-26.662560,-79.770386,-27.428833
3.087500,34.307446,-1.756441,59.393181,-26.662560,-79.770386,-27.428833
3.093750,34.307446,-1.758370,59.393181,-26.458290,-79.770386,-27.179014
3.100000,40.214714,-1.760568,56.706352,-26.302357,-81.795059,-26.946133
3.106250,46.122002,-1.762748,53.133892,-26.217281,-82.201408,-26.732056
3.112500,52.029552,-1.764945,49.046867,-26.224121,-80.635338,-26.510138
3.118750,57.936623,-1.767294,43.039906,-26.264847,-78.933174,-26.209925
3.125000,63.842407,-1.769730,38.241627,-26.305981,-74.892479,-25.947598
3.131250,69.748032,-1.772220,33.849083,-26.374460,-68.735481,-25.658850
3.137500,75.652496,-1.775026,30.129782,-26.471291,-60.855778,-25.333937
3.143750,81.555359,-1.778384,27.290310,-26.588684,-51.437096,-24.980955
3.150000,87.459290,-1.781968,25.509579,-26.712246,-40.637501,-24.612137
3.156250,93.366425,-1.785335,24.910933,-26.827440,-28.628643,-24.246056
3.162500,97.380920,-1.788405,25.558409,-26.921093,-15.613853,-23.906746
3.168750,101.122612,-1.791564,27.469021,-26.985285,-3.694342,-23.642159
3.175000,104.057289,-1.795024,30.684023,-26.998346,8.584556,-23.398195
3.181250,105.695007,-1.798570,33.446667,-26.946424,21.105677,-23.176973
3.187500,105.610252,-1.801954,37.229504,-26.847902,32.586010,-23.009756
3.193750,103.462082,-1.805083,41.327187,-26.714628,42.596809,-22.912966
3.200000,99.012756,-1.807911,45.163200,-26.554180,50.809994,-22.889938
3.206250,92.140358,-1.810341,48.256710,-26.376905,56.940708,-22.941072
3.212500,82.843147,-1.812627,50.191151,-26.196796,60.796284,-23.073439
3.218750,71.241516,-1.815137,50.653858,-26.023682,62.271114,-23.269943
3.225000,57.573772,-1.817541,51.645477,-25.851498,61.113209,-23.475754
3.231250,42.183197,-1.819402,51.703197,-25.680485,57.610844,-23.699347
3.237500,25.495014,-1.820979,49.338085,-25.511387,53.872639,-23.932247
3.243750,7.997191,-1.822846,46.660652,-25.321377,48.402317,-24.151815
3.250000,-9.777435,-1.825278,43.539238,-25.149914,41.870872,-24.338835
3.256250,-27.278650,-1.827865,39.624840,-25.010536,34.868484,-24.492254
3.262500,-43.971115,-1.830110,35.140789,-24.886480,28.043953,-24.601198
3.268750,-59.364231,-1.832028,30.036060,-24.773655,22.078220,-24.656660
3.275000,-73.033951,-1.834060,24.189516,-24.670858,17.513435,-24.658844
3.281250,-84.640877,-1.836485,17.489201,-24.568985,14.792246,-24.615070
3.287500,-93.945702,-1.839290,9.847992,-24.455795,14.210617,-24.538673
3.293750,-100.824280,-1.842197,1.226272,-24.293194,15.921120,-24.431072
3.300000,-105.276672,-1.844960,-6.197088,-24.124651,19.966105,-24.293556
3.306250,-107.423721,-1.847514,-14.852370,-23.989239,26.207294,-24.152340
3.312500,-107.503540,-1.849810,-23.505686,-23.867149,34.339302,-24.038465
3.318750,-105.857803,-1.851968,-31.872051,-23.766348,43.981647,-23.973495
3.325000,-102.913383,-1.853942,-39.688129,-23.703646,54.688290,-23.967876
3.331250,-99.162430,-1.855587,-46.692917,-23.705832,65.938576,-24.024717
3.337500,-95.137802,-1.856853,-52.705479,-23.845840,77.155426,-24.142557
3.343750,-89.218277,-1.857742,-57.783749,-24.003628,87.761002,-24.306519
3.350000,-83.299492,-1.858270,-62.221905,-24.226091,97.508148,-24.461443
3.356250,-77.381737,-1.858488,-65.665932,-24.555389,106.112762,-24.660097
3.362500,-71.466095,-1.858564,-66.407028,-25.011850,112.369034,-24.910686
3.368750,-65.552406,-1.858363,-66.088722,-25.576063,116.406250,-25.201847
3.375000,-59.639687,-1.857609,-64.586716,-26.220919,117.827957,-25.578199
3.381250,-53.728897,-1.856437,-61.909302,-26.911579,116.453590,-25.915228
3.387500,-47.824409,-1.855683,-58.149666,-27.609480,112.931763,-26.239441
3.393750,-41.926258,-1.855733,-53.464561,-28.269157,106.694153,-26.544102
3.400000,-36.030460,-1.856161,-48.073151,-28.847771,98.301117,-26.821596
3.406250,-30.133146,-1.856400,-42.306587,-29.323912,88.760056,-27.102301
3.412500,-24.236130,-1.856800,-36.489185,-29.672022,78.734039,-27.352331
3.418750,-18.343493,-1.858068,-28.684851,-29.869905,66.864037,-27.550541
3.425000,-12.453824,-1.860327,-22.437080,-29.913635,55.439537,-27.690641
3.431250,-6.560986,-1.862729,-15.891818,-29.817814,44.891418,-27.778822
3.437500,-0.663587,-1.865025,-9.308004,-29.566813,35.676350,-27.818556
3.443750,5.233680,-1.867948,-2.702092,-29.159054,28.470530,-27.758099
3.450000,11.129622,-1.871835,3.405447,-28.640661,21.559740,-27.626577
3.456250,17.029646,-1.875903,8.849320,-28.050625,16.725733,-27.437378
3.462500,22.938555,-1.879385,13.623006,-27.433292,13.668057,-27.192894
3.468750,28.852768,-1.882204,17.804859,-26.835367,12.076083,-26.890886
3.475000,34.767139,-1.884776,21.502092,-26.322918,11.597736,-26.546217
3.481250,40.681084,-1.887262,24.972046,-25.847240,11.841413,-26.173922
3.487500,46.594021,-1.889749,26.955719,-25.440781,12.435340,-25.768389
3.493750,52.505264,-1.892656,28.829681,-25.139662,12.952098,-25.337811
3.500000,58.415638,-1.896051,30.422003,-24.949036,12.954146,-24.893532
3.506250,64.328430,-1.899211,31.629374,-24.855013,12.110795,-24.445972
3.512500,70.245522,-1.901566,32.355492,-24.822277,10.152797,-24.004475
3.518750,76.162376,-1.903695,32.573650,-24.750885,6.877395,-23.573723
3.525000,82.072815,-1.906729,32.505756,-24.739004,2.128985,-23.160278
3.531250,87.978279,-1.910871,32.634907,-24.729198,-2.066134,-22.778694
3.537500,93.886139,-1.915259,32.644451,-24.685453,-7.162791,-22.445076
3.543750,97.904716,-1.919337,32.787689,-24.599329,-12.737556,-22.154493
3.550000,101.652481,-1.923609,33.401794,-24.443436,-18.504158,-21.872047
3.556250,104.593704,-1.928564,32.931305,-24.219688,-23.996086,-21.544403
3.562500,106.239601,-1.933816,33.076904,-23.956972,-28.907988,-21.301359
3.568750,106.169563,-1.938266,33.497105,-23.682199,-32.043350,-21.129095
3.575000,104.042946,-1.941310,33.913635,-23.422348,-34.396759,-21.028767
3.581250,99.617676,-1.943278,34.043385,-23.211535,-35.699238,-21.014040
3.587500,92.766861,-1.944823,33.628208,-23.086435,-35.967213,-21.045305
3.593750,83.490440,-1.945920,32.560497,-23.036711,-35.086182,-21.144403
3.600000,71.914406,-1.945987,30.777761,-23.073236,-32.895416,-21.326204
3.606250,58.276241,-1.944631,30.126162,-23.209980,-29.551531,-21.584801
3.612500,42.911037,-1.942394,29.150560,-23.432707,-25.330164,-21.893650
3.618750,26.242826,-1.939716,28.274090,-23.759783,-20.630564,-22.227840
3.625000,8.765471,-1.936374,27.599590,-24.202028,-16.229450,-22.629118
3.631250,-8.987088,-1.932158,27.735008,-24.721653,-10.334734,-23.060858
3.637500,-26.471605,-1.927588,28.979055,-25.283564,-4.670188,-23.494341
3.643750,-43.159794,-1.923312,31.474161,-25.850082,0.747697,-23.909616
3.650000,-58.558281,-1.919676,33.355518,-26.375969,5.826727,-24.289694
3.656250,-72.236877,-1.916621,36.185871,-26.785601,10.482611,-24.617743
3.662500,-83.854103,-1.914289,39.142738,-27.126209,14.613191,-24.888765
3.668750,-93.172394,-1.912868,43.136055,-27.374668,18.080294,-25.109789
3.675000,-100.067833,-1.912012,46.495358,-27.502813,20.800913,-25.278992
3.681250,-104.538170,-1.911321,48.947090,-27.507833,22.719469,-25.395164
3.687500,-106.706566,-1.911116,50.248718,-27.402695,23.760632,-25.461349
3.693750,-106.813606,-1.912199,50.251781,-27.213537,23.869272,-25.486465
3.700000,-105.198250,-1.914439,48.957897,-26.945396,23.051723,-25.481882
3.706250,-102.280586,-1.916891,46.522530,-26.616241,21.441965,-25.439913
3.712500,-98.551353,-1.919108,42.932491,-26.265425,19.258690,-25.354229
3.718750,-94.548653,-1.921728,36.484299,-25.920246,16.650478,-25.229612
3.725000,-88.652725,-1.925021,29.100607,-25.596285,13.949899,-25.082937
3.731250,-82.754814,-1.928353,20.511896,-25.339098,11.756600,-24.951447
3.737500,-76.851997,-1.931270,12.657286,-25.171139,10.492796,-24.847759
3.743750,-70.947006,-1.933937,4.288652,-25.078978,10.567664,-24.793921
3.750000,-65.043510,-1.936693,-4.039465,-25.050539,10.573028,-24.705750
3.756250,-59.140743,-1.939436,-11.930142,-25.081615,10.497037,-24.603035
3.762500,-53.237381,-1.941955,-18.960722,-25.151724,11.658816,-24.486080
3.768750,-47.334171,-1.944466,-24.693624,-25.223925,13.796621,-24.403284
3.775000,-41.432281,-1.947262,-28.897566,-25.309204,16.463861,-24.344088
3.781250,-35.531105,-1.950070,-31.464039,-25.395960,19.055975,-24.292568
3.787500,-29.628366,-1.952647,-32.033974,-25.464066,21.206886,-24.241558
3.793750,-23.725391,-1.955242,-30.519094,-25.529112,22.607689,-24.194733
3.800000,-17.824541,-1.958262,-28.857725,-25.530823,23.065094,-24.143950
3.806250,-11.924234,-1.961555,-24.681448,-25.447010,22.590630,-24.054180
3.812500,-6.022584,-1.965029,-19.523155,-25.316383,21.053125,-23.932482
3.818750,-0.120295,-1.968843,-13.917735,-25.155960,18.340879,-23.789658
3.825000,5.782845,-1.972974,-8.403065,-24.979979,14.579287,-23.632751
3.831250,11.689690,-1.976812,-1.327460,-24.802845,10.036239,-23.472452
3.837500,17.600544,-1.980088,5.491847,-24.638386,5.032657,-23.345345
3.843750,23.511066,-1.983461,12.207488,-24.482069,-0.086538,-23.207640
3.850000,29.418924,-1.987312,17.132282,-24.327532,-6.011137,-23.039839
3.856250,35.327663,-1.991078,21.941721,-24.184326,-11.548494,-22.882090
3.862500,41.240555,-1.994059,26.215721,-24.050571,-16.680149,-22.742996
3.868750,47.152641,-1.996934,29.622355,-23.913321,-21.386314,-22.619795
3.875000,53.058132,-2.000832,31.841389,-23.750374,-25.688828,-22.501696
3.881250,58.959297,-2.005962,32.520771,-23.567795,-29.658182,-22.372515
3.887500,64.864113,-2.011258,31.265228,-23.368073,-33.477329,-22.237280
3.893750,70.775230,-2.016111,28.002125,-23.133318,-37.404438,-22.101099
3.900000,76.688118,-2.021175,24.806812,-22.853258,-41.568687,-21.956280
3.906250,82.597679,-2.027295,20.230576,-22.528164,-44.271976,-21.800829
3.912500,88.507401,-2.034415,14.742363,-22.158968,-47.383484,-21.630175
3.918750,94.423584,-2.041978,8.809301,-21.753191,-50.613186,-21.431398
3.925000,98.453568,-2.049284,2.799607,-21.338724,-53.720783,-21.178057
3.931250,102.218918,-2.056211,-2.941523,-20.941645,-56.765503,-20.958595
3.937500,105.185188,-2.062720,-7.988208,-20.581665,-57.556808,-20.769775
3.943750,106.859718,-2.068544,-12.011893,-20.281458,-57.163574,-20.619741
3.950000,106.816811,-2.073252,-14.792594,-20.063282,-55.124531,-20.522301
3.956250,104.715416,-2.076254,-16.206251,-19.945137,-51.083645,-20.493006
3.962500,100.315811,-2.077555,-16.192348,-19.936853,-44.792480,-20.543777
3.968750,93.492073,-2.077404,-14.748550,-20.035376,-36.111748,-20.682991
3.975000,84.241890,-2.075913,-13.822453,-20.205635,-25.046780,-20.921593
3.981250,72.685928,-2.073134,-9.718983,-20.501028,-11.768518,-21.288376
3.987500,59.059452,-2.069226,-5.365889,-20.901672,2.119801,-21.696642
3.993750,43.701046,-2.064466,-0.075446,-21.365482,17.277451,-22.207420
4.000000,27.037138,-2.059089,5.512634,-21.887569,32.899590,-22.828136
4.006250,9.560000,-2.053070,11.042749,-22.451452,48.117607,-23.591309
4.012500,-8.199818,-2.046876,16.248144,-23.029625,61.879658,-24.352125
4.018750,-25.698679,-2.041397,20.875931,-23.589104,74.832336,-25.088709
4.025000,-42.402344,-2.036811,24.639490,-24.114658,85.049500,-25.834873
4.031250,-57.814346,-2.032731,29.401770,-24.596939,93.440079,-26.595913
4.037500,-71.505440,-2.029228,31.796062,-25.015320,99.128075,-27.317680
4.043750,-83.138069,-2.027001,33.862041,-25.357403,102.398300,-27.970291
4.050000,-92.473488,-2.026158,35.453274,-25.623291,103.648308,-28.536371
4.056250,-99.383827,-2.025748,36.501743,-25.803398,103.404488,-29.006250
4.062500,-103.866402,-2.025108,37.083370,-25.880699,100.465889,-29.347261
4.068750,-106.049202,-2.025251,37.140850,-25.871874,97.233368,-29.544970
4.075000,-106.174042,-2.027360,36.694324,-25.793936,93.763840,-29.607105
4.081250,-104.575226,-2.030794,35.923279,-25.660597,90.281662,-29.537792
4.087500,-101.669632,-2.034058,35.085854,-25.480213,84.947433,-29.338358
4.093750,-97.949547,-2.036720,34.485523,-25.262312,79.488304,-29.014502
4.100000,-93.956863,-2.039611,32.543190,-25.021248,73.758102,-28.587393
4.106250,-88.073059,-2.043435,31.252186,-24.761417,67.659836,-28.095785
4.112500,-82.189423,-2.047762,30.512999,-24.474163,61.272202,-27.497679
4.118750,-76.302719,-2.052366,30.071024,-24.175442,54.770592,-26.828846
4.125000,-70.414024,-2.057550,29.632799,-23.880672,47.886955,-26.130260
4.131250,-64.524109,-2.063316,29.031723,-23.598738,40.773872,-25.432156
4.137500,-58.629665,-2.069151,28.154293,-23.332796,33.627731,-24.757757
4.143750,-52.728889,-2.074635,26.912930,-23.082006,26.663404,-24.125080
4.150000,-46.824982,-2.080030,25.223873,-22.845177,20.072433,-23.547266
4.156250,-40.921318,-2.085783,25.181297,-22.618790,14.029888,-23.024660
4.162500,-35.016422,-2.091788,25.373827,-22.392109,8.688603,-22.569647
4.168750,-29.108036,-2.097878,24.383995,-22.155083,5.751525,-22.185375
4.175000,-23.195856,-2.104063,24.079939,-21.925419,2.653293,-21.870428
4.181250,-17.280035,-2.110077,24.260389,-21.708359,1.108933,-21.617834
4.187500,-11.359895,-2.115742,24.729368,-21.509060,1.006298,-21.365746
4.193750,-5.435268,-2.121022,25.262705,-21.333462,2.375843,-21.225702
4.200000,0.493140,-2.125689,25.631441,-21.189417,3.341719,-21.169172
4.206250,6.424630,-2.129437,25.619354,-21.084438,4.561796,-21.175447
4.212500,12.359030,-2.132116,25.064661,-21.015509,7.064586,-21.200199
4.218750,18.292202,-2.134062,26.027933,-20.971779,8.615406,-21.248293
4.225000,24.221571,-2.135750,25.102831,-20.949097,9.213943,-21.320112
4.231250,30.147181,-2.137309,24.267187,-20.935947,8.712447,-21.402048
4.237500,36.070316,-2.138665,23.311728,-20.932377,6.940993,-21.471272
4.243750,41.991745,-2.139793,21.901442,-20.954210,5.818875,-21.536760
4.250000,47.911667,-2.140606,19.878368,-20.986588,3.723534,-21.598188
4.256250,53.829815,-2.141021,17.096424,-21.011999,1.179050,-21.639135
4.262500,59.743710,-2.141520,13.326122,-21.015635,-1.399493,-21.648573
4.268750,65.650314,-2.142849,8.367508,-20.987499,-3.657977,-21.615868
4.275000,71.550598,-2.145349,2.042452,-20.919958,-5.284126,-21.534426
4.281250,77.450378,-2.148489,-3.646285,-20.800508,-6.007662,-21.391438
4.287500,83.352165,-2.152050,-10.227464,-20.626654,-5.629693,-21.157984
4.293750,89.253204,-2.156798,-17.443161,-20.420767,-4.243511,-20.904718
4.300000,95.153564,-2.162943,-24.920361,-20.184879,-2.127361,-20.633841
4.306250,99.165787,-2.169323,-32.217308,-19.922245,0.917712,-20.342710
4.312500,102.916458,-2.174835,-39.016888,-19.643631,4.683074,-20.041044
4.318750,105.868286,-2.179886,-45.048237,-19.363594,8.904802,-19.742287
4.325000,107.520874,-2.185472,-50.110641,-19.103184,13.277420,-19.464075
4.331250,107.449432,-2.191426,-54.057617,-18.885290,17.491016,-19.221100
4.337500,105.320274,-2.196698,-56.794697,-18.754354,21.273067,-19.015812
4.343750,100.897499,-2.200803,-58.337704,-18.629562,24.400826,-18.792574
4.350000,94.054779,-2.204011,-57.691315,-18.573708,26.405922,-18.672758
4.356250,84.789925,-2.206091,-55.749264,-18.624077,28.949751,-18.637865
4.362500,73.225418,-2.206622,-52.311115,-18.779999,30.795479,-18.698366
4.368750,59.595551,-2.205945,-47.465496,-19.033667,32.293419,-18.880592
4.375000,44.234943,-2.204834,-41.416290,-19.372013,33.697392,-19.125420
4.381250,27.570875,-2.203307,-34.436745,-19.774361,35.050964,-19.414768
4.387500,10.100159,-2.200604,-26.849094,-20.214155,37.158470,-19.754362
4.393750,-7.646553,-2.197061,-19.065948,-20.674818,38.348495,-20.173506
4.400000,-25.129253,-2.193794,-11.544657,-21.143982,40.183765,-20.647554
4.406250,-41.815331,-2.191016,-2.488495,-21.603859,42.243114,-21.150238
4.412500,-57.206753,-2.187911,4.520229,-22.041021,44.235085,-21.662840
4.418750,-70.875000,-2.184534,11.326869,-22.449724,45.945374,-22.172092
4.425000,-82.485161,-2.181831,17.757784,-22.768728,47.288509,-22.630533
4.431250,-91.801094,-2.180155,23.647276,-22.997602,48.277275,-23.010183
4.437500,-98.695518,-2.178860,28.601307,-23.148088,48.678978,-23.307690
4.443750,-103.165970,-2.177730,32.572578,-23.227386,48.489765,-23.516020
4.450000,-105.338173,-2.177657,35.627502,-23.237200,47.837067,-23.627937
4.456250,-105.450577,-2.179059,37.894047,-23.182087,46.889896,-23.641756
4.462500,-103.837509,-2.181160,39.573307,-23.072056,45.830524,-23.563665
4.468750,-100.922012,-2.183581,40.954403,-22.926510,44.878147,-23.415590
4.475000,-97.199257,-2.186748,40.519066,-22.743971,44.325733,-23.184427
4.481250,-93.203575,-2.190703,40.434677,-22.517656,42.900570,-22.855072
4.487500,-87.308205,-2.194672,40.359943,-22.279341,42.135742,-22.474102
4.493750,-81.407364,-2.198308,40.105068,-22.050198,41.728142,-22.071341
4.500000,-75.507912,-2.202794,39.602276,-21.841360,41.459255,-21.668110
4.506250,-69.611717,-2.208840,38.826736,-21.653442,41.120876,-21.279102
4.512500,-63.710644,-2.215356,37.770653,-21.474108,40.496178,-20.913670
4.518750,-57.796978,-2.220811,36.436600,-21.252375,39.340752,-20.581526
4.525000,-51.874447,-2.225318,34.846329,-21.064898,37.340706,-20.317333
4.531250,-45.952812,-2.230093,34.092819,-20.926134,34.053715,-20.111788
4.537500,-40.033188,-2.235489,33.667416,-20.792372,30.835730,-19.940468
4.543750,-34.108185,-2.240700,32.161297,-20.651739,26.183475,-19.814589
4.550000,-28.174639,-2.244941,31.298782,-20.530951,20.431223,-19.711313
4.556250,-22.235376,-2.248295,30.789349,-20.452528,13.977337,-19.689825
4.562500,-16.294556,-2.251103,30.414200,-20.435724,7.538852,-19.766905
4.568750,-10.352674,-2.253452,29.948874,-20.506145,1.090747,-19.940702
4.575000,-4.408020,-2.254979,29.163500,-20.719917,-5.193223,-20.157158
4.581250,1.539657,-2.255329,27.863472,-21.002098,-10.984754,-20.428797
4.587500,7.488436,-2.254471,24.811083,-21.368311,-15.789091,-20.767632
4.593750,13.436036,-2.252663,22.856415,-21.839073,-19.421144,-21.166071
4.600000,19.379589,-2.250012,20.125927,-22.417297,-21.834856,-21.604195
4.606250,25.319500,-2.246348,16.500319,-23.178818,-23.171476,-22.093138
4.612500,31.254755,-2.241728,12.930474,-23.972101,-23.703968,-22.623198
4.618750,37.180458,-2.237125,8.728086,-24.839758,-23.502258,-23.172247
4.625000,43.094398,-2.233265,4.261987,-25.762159,-22.848106,-23.725021
4.631250,49.001900,-2.229573,-0.176879,-26.705545,-22.064775,-24.267574
4.637500,54.908352,-2.225013,-4.324872,-27.626442,-21.516165,-24.782776
4.643750,60.810177,-2.220146,-7.933427,-28.471640,-21.564909,-25.235674
4.650000,66.698509,-2.216473,-12.695654,-29.179508,-22.559284,-25.579327
4.656250,72.572502,-2.214834,-14.746458,-29.721439,-24.877678,-25.819374
4.662500,78.440567,-2.214767,-16.135628,-30.088491,-27.092369,-25.979086
4.668750,84.307693,-2.215905,-16.729691,-30.249540,-30.585981,-26.031212
4.675000,90.174240,-2.218578,-16.553326,-30.191816,-35.117229,-25.967497
4.681250,94.146652,-2.222568,-15.739781,-29.917547,-40.476856,-25.788742
4.687500,97.850296,-2.227260,-14.492666,-29.449881,-46.441093,-25.506172
4.693750,100.751511,-2.232869,-13.059319,-28.826447,-52.740654,-25.131853
4.700000,102.354958,-2.240470,-11.738655,-28.074957,-59.031124,-24.668118
4.706250,102.235924,-2.249812,-11.010382,-27.201746,-64.945366,-24.107635
4.712500,100.065277,-2.259077,-11.123010,-26.248081,-70.055084,-23.501417
4.718750,95.609505,-2.267097,-12.425509,-25.289053,-75.760498,-22.907911
