Anritsu VNA Frequency[GHz],S21[deg],S21[dB],S11[deg],S11[dB],S22[deg],S22[dB]
1338088372.27,2012_05_27_04:12:52,+40.594,+10.294,+55.030,+10.306,+13.916,+13.728,+14.021,+13.772,10.383047,-16.514
3.006250,33.428543,-1.745909,58.736492,-26.678116,-80.887894,-27.436823
3.012500,33.428543,-1.745909,58.736492,-26.678116,-80.887894,-27.436823
3.018750,33.428543,-1.745909,58.736492,-26.678116,-80.887894,-27.436823
3.025000,33.428543,-1.745909,58.736492,-26.678116,-80.887894,-27.436823
3.031250,33.428543,-1.745909,58.736492,-26.678116,-80.887894,-27.436823
3.037500,33.428543,-1.745909,58.736492,-26.678116,-80.887894,-27.436823
3.043750,33.428543,-1.745909,58.736492,-26.678116,-80.887894,-27.436823
3.050000,33.428543,-1.745909,58.736492,-26.678116,-80.887894,-27.436823
3.056250,33.428543,-1.745909,58.736492,-26.678116,-80.887894,-27.436823
3.062500,33.428543,-1.745909,58.736492,-26.678116,-80.887894,-27.436823
3.068750,33.428543,-1.745909,58.736492,-26.678116,-80.887894,-27.436823
3.075000,33.428543,-1.745909,58.736492,-26.678116,-80.887894,-27.436823
3.081250,33.428543,-1.745909,58.736492,-26.678116,-80.887894,-27.436823
3.087500,33.428543,-1.745909,58.736492,-26.678116,-80.887894,-27.436823
3.093750,33.428543,-1.747797,58.736492,-26.478073,-80.887894,-27.187559
3.100000,39.334232,-1.749976,56.065029,-26.329906,-82.855751,-26.955336
3.106250,45.239914,-1.752197,52.521507,-26.254280,-83.213135,-26.742098
3.112500,51.146290,-1.754445,48.452026,-26.270880,-81.602303,-26.519323
3.118750,57.051853,-1.756870,42.462589,-26.318298,-79.866997,-26.219608
3.125000,62.956566,-1.759466,37.671818,-26.366945,-75.784233,-25.956715
3.131250,68.860733,-1.762141,33.297741,-26.442421,-69.608139,-25.667751
3.137500,74.764008,-1.765166,29.594730,-26.545353,-61.716908,-25.342047
3.143750,80.665771,-1.768722,26.769447,-26.666965,-52.289322,-24.988462
3.150000,86.568207,-1.772542,24.999426,-26.792244,-41.483665,-24.619398
3.156250,92.473724,-1.776106,24.405600,-26.907095,-29.472954,-24.253067
3.162500,96.486809,-1.779405,25.052757,-26.997782,-16.455276,-23.913343
3.168750,100.226685,-1.782800,26.963289,-27.057573,-2.642873,-23.649879
3.175000,103.159843,-1.786482,30.181137,-27.064928,9.911120,-23.404196
3.181250,104.796013,-1.790181,32.950554,-27.006954,23.237305,-23.182648
3.187500,104.709564,-1.793708,36.730495,-26.901178,36.013855,-23.015228
3.193750,102.559784,-1.796970,40.819294,-26.759619,47.747185,-22.918259
3.200000,98.108856,-1.799919,44.648949,-26.591133,58.024841,-22.894697
3.206250,91.234863,-1.802466,47.739414,-26.406202,66.463577,-22.944544
3.212500,81.936356,-1.804826,49.670811,-26.218939,72.745926,-23.075888
3.218750,70.333618,-1.807428,50.132137,-26.039850,76.649200,-23.271515
3.225000,56.664654,-1.809857,51.123882,-25.863192,77.800835,-23.476078
3.231250,41.272949,-1.811765,51.180096,-25.688810,76.371399,-23.698095
3.237500,24.583719,-1.813414,48.811348,-25.516722,74.364929,-23.929388
3.243750,7.084937,-1.815356,46.129192,-25.323063,70.199829,-24.147615
3.250000,-10.690722,-1.817860,42.998482,-25.149508,64.476051,-24.333387
3.256250,-28.192661,-1.820564,39.066517,-25.007977,57.749733,-24.485495
3.262500,-44.886208,-1.822903,34.567577,-24.881767,50.649349,-24.593489
3.268750,-60.280693,-1.824896,29.447876,-24.766939,43.872692,-24.648220
3.275000,-73.951744,-1.827039,23.583782,-24.662537,38.004150,-24.649536
3.281250,-85.560265,-1.829592,16.866316,-24.559772,33.547916,-24.605412
3.287500,-94.866638,-1.832435,9.199488,-24.445219,30.886833,-24.529827
3.293750,-101.747276,-1.835398,0.553932,-24.280411,30.276974,-24.422514
3.300000,-106.201874,-1.838282,-6.900114,-24.112356,31.881933,-24.284870
3.306250,-108.351387,-1.840866,-15.575786,-23.977219,35.680618,-24.143641
3.312500,-108.433464,-1.843204,-24.254827,-23.856203,41.491913,-24.030689
3.318750,-106.790237,-1.845356,-32.644306,-23.756937,49.049789,-23.966650
3.325000,-103.848709,-1.847331,-40.481438,-23.697123,58.014351,-23.961660
3.331250,-100.100281,-1.848906,-47.511154,-23.701471,67.953888,-24.018871
3.337500,-96.078018,-1.850096,-53.552692,-23.829235,78.353027,-24.136612
3.343750,-90.161102,-1.850935,-58.596004,-23.991972,88.672676,-24.300407
3.350000,-84.244644,-1.851387,-63.048973,-24.213491,96.516212,-24.453434
3.356250,-78.329048,-1.851446,-66.501785,-24.536987,105.114113,-24.652025
3.362500,-72.415428,-1.851401,-67.241234,-24.984386,111.368088,-24.900932
3.368750,-66.503838,-1.851068,-66.909111,-25.536657,115.403503,-25.190573
3.375000,-60.592491,-1.850134,-65.384735,-26.167919,116.820297,-25.566975
3.381250,-54.683369,-1.848844,-62.682228,-26.843653,115.469650,-25.901838
3.387500,-48.780537,-1.847933,-58.895874,-27.525713,111.949478,-26.224615
3.393750,-42.884052,-1.847823,-54.183060,-28.169991,105.720879,-26.527889
3.400000,-36.989872,-1.848081,-48.763290,-28.734224,97.345512,-26.803740
3.406250,-31.094225,-1.848149,-42.972000,-29.197351,87.825462,-27.083529
3.412500,-25.198915,-1.848364,-37.133121,-29.534807,77.823265,-27.332745
3.418750,-19.308311,-1.849514,-29.311188,-29.725178,65.980736,-27.530352
3.425000,-13.420753,-1.851640,-23.049459,-29.764519,54.583401,-27.670065
3.431250,-7.530066,-1.853938,-16.491968,-29.668013,44.064861,-27.757917
3.437500,-1.635221,-1.856103,-9.893704,-29.420725,34.874409,-27.797758
3.443750,4.259549,-1.858923,-3.278831,-29.020123,27.694950,-27.736889
3.450000,10.152850,-1.862735,2.832290,-28.511648,20.805775,-27.605494
3.456250,16.050179,-1.866699,8.277529,-27.934332,15.984055,-27.416601
3.462500,21.956242,-1.870052,13.049627,-27.330698,12.935892,-27.172295
3.468750,27.867340,-1.872823,17.236231,-26.747452,11.348906,-26.869413
3.475000,33.778793,-1.875321,20.942398,-26.248718,10.872326,-26.524338
3.481250,39.689690,-1.877694,24.425020,-25.788158,11.109841,-26.152254
3.487500,45.599899,-1.880124,26.412790,-25.394440,11.697485,-25.747309
3.493750,51.508308,-1.882920,28.296875,-25.103062,12.201754,-25.316559
3.500000,57.416080,-1.886184,29.897535,-24.919037,12.189382,-24.872320
3.506250,63.326733,-1.889162,31.110859,-24.827423,11.328871,-24.424910
3.512500,69.241310,-1.891363,31.846838,-24.794966,9.350413,-23.983662
3.518750,75.155815,-1.893340,32.082146,-24.737421,6.055393,-23.553514
3.525000,81.064232,-1.896186,31.960880,-24.720638,1.291711,-23.140579
3.531250,86.968124,-1.900117,32.079746,-24.707375,-2.915771,-22.759604
3.537500,92.874443,-1.904305,32.074352,-24.661907,-8.027142,-22.427134
3.543750,96.891640,-1.908190,32.194706,-24.574560,-13.617012,-22.138733
3.550000,100.638603,-1.912213,32.780296,-24.417736,-19.397203,-21.857599
3.556250,103.578476,-1.917024,32.274914,-24.193079,-24.893251,-21.529539
3.562500,105.223541,-1.922074,32.387035,-23.930218,-29.838491,-21.288322
3.568750,105.152740,-1.926300,32.774872,-23.655998,-32.984070,-21.118015
3.575000,103.025955,-1.929183,33.163471,-23.396702,-35.351639,-21.019709
3.581250,98.600014,-1.930970,33.270412,-23.186775,-36.675369,-21.007048
3.587500,91.748444,-1.932411,32.835052,-23.062468,-36.974308,-21.039856
3.593750,82.471420,-1.933470,31.746782,-23.013432,-36.117153,-21.140785
3.600000,70.894875,-1.933407,29.951193,-23.050957,-33.950195,-21.324795
3.606250,57.255955,-1.932022,29.294437,-23.189199,-30.632429,-21.585613
3.612500,41.890186,-1.929775,28.318419,-23.414026,-26.439747,-21.896955
3.618750,25.221176,-1.927157,27.422020,-23.741718,-21.766054,-22.233606
3.625000,7.742760,-1.923898,26.720123,-24.183409,-17.393871,-22.638559
3.631250,-10.010810,-1.919784,26.821060,-24.701605,-11.520021,-23.073236
3.637500,-27.496704,-1.915367,28.030277,-25.260794,-5.865958,-23.509546
3.643750,-44.186337,-1.911300,30.489651,-25.824696,-0.458621,-23.927460
3.650000,-59.586521,-1.907874,32.333134,-26.347979,4.611659,-24.310104
3.656250,-73.267036,-1.905054,35.119904,-26.756523,9.262483,-24.640781
3.662500,-84.886024,-1.902980,38.029327,-27.094173,13.398241,-24.914005
3.668750,-94.206367,-1.901770,41.986217,-27.340450,16.876606,-25.136299
3.675000,-101.104073,-1.901192,45.309563,-27.466883,19.612299,-25.306721
3.681250,-105.576637,-1.900711,47.731865,-27.470816,21.547783,-25.423403
3.687500,-107.747620,-1.900725,49.015133,-27.365314,22.605534,-25.489573
3.693750,-107.857094,-1.901984,49.012939,-27.176870,22.732063,-25.514160
3.700000,-106.243896,-1.904350,47.730553,-26.909828,21.934364,-25.508038
3.706250,-103.328529,-1.906902,45.319786,-26.583462,20.343470,-25.463976
3.712500,-99.601601,-1.910998,41.770359,-26.236139,18.175701,-25.375376
3.718750,-95.619186,-1.913720,35.371899,-25.894735,15.580074,-25.247463
3.725000,-89.724762,-1.917039,28.045889,-25.575300,12.889090,-25.096788
3.731250,-83.828476,-1.920427,19.521599,-25.322687,10.705353,-24.961523
3.737500,-77.927109,-1.923270,11.735469,-25.159304,9.446340,-24.853951
3.743750,-72.023514,-1.925849,3.435853,-25.071316,9.523687,-24.795959
3.750000,-66.121231,-1.928441,-4.829938,-25.046234,9.533049,-24.702969
3.756250,-60.220387,-1.931025,-12.665246,-25.079987,9.452379,-24.595303
3.762500,-54.318550,-1.933375,-19.650629,-25.151558,10.611598,-24.473354
3.768750,-48.416912,-1.935789,-25.346457,-25.224699,12.754109,-24.386169
3.775000,-42.516949,-1.938460,-29.519957,-25.310623,15.418797,-24.322737
3.781250,-36.617386,-1.941206,-32.070408,-25.396700,18.006611,-24.267099
3.787500,-30.716166,-1.943688,-32.642570,-25.462252,20.156080,-24.212679
3.793750,-24.815123,-1.946267,-31.152273,-25.521051,21.557705,-24.162977
3.800000,-18.916122,-1.949261,-27.620174,-25.520567,22.018255,-24.110004
3.806250,-13.017841,-1.952601,-23.209103,-25.432224,21.553535,-24.017675
3.812500,-7.118034,-1.956083,-17.283751,-25.297050,20.017799,-23.894796
3.818750,-1.217659,-1.959930,-10.426939,-25.132256,17.302704,-23.751806
3.825000,4.683561,-1.964114,-3.241085,-24.951694,13.540394,-23.595436
3.831250,10.588800,-1.967932,5.840843,-24.770372,9.001431,-23.436310
3.837500,16.497766,-1.971166,14.901871,-24.602182,4.005360,-23.311644
3.843750,22.406467,-1.974558,23.985374,-24.442863,-1.109678,-23.174868
3.850000,28.312437,-1.978423,31.283398,-24.286402,-7.032071,-23.009558
3.856250,34.219681,-1.982077,38.352905,-24.142590,-12.569596,-22.854616
3.862500,40.131313,-1.984975,44.659496,-24.009756,-17.700579,-22.718374
3.868750,46.042168,-1.987758,49.767292,-23.874832,-22.403284,-22.597734
3.875000,51.946297,-1.991591,53.269665,-23.715450,-26.702051,-22.481750
3.881250,57.846508,-1.996628,54.746044,-23.538105,-30.669209,-22.354803
3.887500,63.750618,-2.001798,53.763237,-23.343504,-34.488861,-22.221462
3.893750,69.661194,-2.006463,50.229507,-23.114189,-38.416012,-22.086868
3.900000,75.573181,-2.011426,46.237980,-22.839964,-42.581020,-21.943214
3.906250,81.482071,-2.017446,40.379425,-22.520454,-45.287853,-21.788908
3.912500,87.390869,-2.024455,33.187702,-22.157373,-48.403168,-21.619009
3.918750,93.306114,-2.031827,25.214006,-21.758451,-51.638142,-21.420870
3.925000,97.335098,-2.038997,16.923521,-21.350224,-54.752720,-21.167877
3.931250,101.098907,-2.045810,8.776359,-20.957581,-57.811073,-20.949017
3.937500,104.063492,-2.052200,1.321440,-20.601049,-58.608410,-20.760403
3.943750,105.736328,-2.057936,-4.992074,-20.303673,-58.227001,-20.610533
3.950000,105.691292,-2.062503,-9.827295,-20.087362,-56.197456,-20.513165
3.956250,103.587540,-2.065407,-12.955123,-19.970297,-52.166855,-20.483698
3.962500,99.185219,-2.066591,-14.234454,-19.962463,-45.884563,-20.534403
3.968750,92.358765,-2.066387,-13.597269,-20.061209,-37.209385,-20.673660
3.975000,83.105545,-2.064857,-12.947984,-20.234207,-26.149275,-20.912107
3.981250,71.546684,-2.062040,-10.755096,-20.528238,-12.865079,-21.274282
3.987500,57.917515,-2.058094,-6.413007,-20.930233,1.038949,-21.680681
3.993750,42.556652,-2.053366,-1.132600,-21.395485,16.207165,-22.188963
4.000000,25.890366,-2.047990,4.438395,-21.919901,31.845932,-22.806787
4.006250,8.411137,-2.041957,9.947888,-22.487259,47.089687,-23.566158
4.012500,-9.350600,-2.035790,15.127803,-23.069843,60.865261,-24.321779
4.018750,-26.850723,-2.030342,19.729519,-23.635117,73.850838,-25.051615
4.025000,-43.555744,-2.025781,23.464025,-24.167109,84.099236,-25.792360
4.031250,-58.968258,-2.021713,28.197258,-24.656082,92.515572,-26.547230
4.037500,-72.659698,-2.018207,30.559101,-25.081022,98.221893,-27.262568
4.043750,-84.292778,-2.016003,32.594059,-25.429155,101.503540,-27.908863
4.050000,-93.628532,-2.015167,34.154083,-25.699966,102.755547,-28.469166
4.056250,-100.539085,-2.014701,35.173416,-25.884193,102.504066,-28.934179
4.062500,-105.021538,-2.014052,35.728493,-25.963516,99.550026,-29.270723
4.068750,-107.204819,-2.014138,35.767052,-25.955179,96.291313,-29.464903
4.075000,-107.330200,-2.016241,35.308861,-25.876593,92.789177,-29.524744
4.081250,-105.731918,-2.019608,34.534855,-25.741350,89.269257,-29.454243
4.087500,-102.827423,-2.022818,33.699039,-25.557915,83.896263,-29.254353
4.093750,-99.108459,-2.025365,33.104992,-25.335258,78.396652,-28.931522
4.100000,-95.117241,-2.028211,31.169489,-25.087732,72.628494,-28.505974
4.106250,-89.235390,-2.031934,29.890690,-24.820631,66.497665,-28.017052
4.112500,-83.353867,-2.036222,29.172781,-24.526470,60.085060,-27.422304
4.118750,-77.469078,-2.040756,28.757082,-24.221031,53.560421,-26.757738
4.125000,-71.582977,-2.045914,28.349142,-23.920134,46.664890,-26.063829
4.131250,-65.695465,-2.051703,27.776863,-23.633003,39.546051,-25.370689
4.137500,-59.803192,-2.057529,26.924076,-23.362881,32.404243,-24.701471
4.143750,-53.904694,-2.063032,25.706638,-23.109200,25.452677,-24.073414
4.150000,-48.003448,-2.068529,24.037201,-22.870960,18.880186,-23.499371
4.156250,-42.101830,-2.074401,24.010551,-22.644325,12.863326,-22.979445
4.162500,-36.198826,-2.080601,24.219521,-22.418226,7.543550,-22.532232
4.168750,-30.292257,-2.086888,23.247952,-22.181875,4.626109,-22.151772
4.175000,-24.381905,-2.093271,22.953074,-21.954006,1.546010,-21.840889
4.181250,-18.467556,-2.099532,23.143450,-21.739525,0.018967,-21.592306
4.187500,-12.548785,-2.105479,23.621351,-21.543503,-0.074276,-21.344603
4.193750,-6.625364,-2.111020,24.165302,-21.371447,1.321969,-21.209782
4.200000,-0.698263,-2.115956,24.544065,-21.230833,2.295803,-21.158525
4.206250,5.232250,-2.119952,24.542858,-21.129227,3.519458,-21.169523
4.212500,11.165190,-2.122845,23.997131,-21.063412,6.021886,-21.198793
4.218750,17.096863,-2.125002,24.971992,-21.022196,7.576898,-21.251488
4.225000,23.024773,-2.126905,24.055977,-21.001379,8.175286,-21.327572
4.231250,28.948709,-2.128645,23.231033,-20.989672,7.669870,-21.413061
4.237500,34.870396,-2.130129,22.287735,-20.986235,5.891120,-21.485016
4.243750,40.789619,-2.131327,20.892782,-21.007904,4.755702,-21.553024
4.250000,46.707619,-2.132202,18.885666,-21.039738,2.645697,-21.616278
4.256250,52.623390,-2.132637,16.120657,-21.064060,0.083021,-21.658289
4.262500,58.534889,-2.133143,12.364344,-21.066259,-2.516174,-21.667940
4.268750,64.439262,-2.134421,7.418941,-21.035749,-4.798922,-21.634792
4.275000,70.337036,-2.136892,1.102414,-20.965445,-6.450609,-21.552135
4.281250,76.234375,-2.139986,-4.577371,-20.843027,-7.199178,-21.407782
4.287500,82.133766,-2.143478,-11.150811,-20.665762,-6.846528,-21.172993
4.293750,88.032661,-2.148132,-18.361841,-20.456770,-5.487266,-20.918085
4.300000,93.930885,-2.154179,-25.838453,-20.218071,-3.393382,-20.645498
4.306250,97.941467,-2.160435,-33.139339,-19.952642,-0.369838,-20.352644
4.312500,101.690674,-2.165822,-39.944981,-19.671486,3.376788,-20.049307
4.318750,104.641029,-2.170770,-45.986282,-19.389360,7.583749,-19.748863
4.325000,106.292442,-2.176300,-51.060249,-19.127462,11.946600,-19.469296
4.331250,106.220299,-2.182174,-55.018631,-18.908993,16.155930,-19.225029
4.337500,104.090981,-2.187355,-57.763706,-18.783298,19.940630,-19.018948
4.343750,99.668114,-2.191387,-59.312023,-18.655119,23.078772,-18.793179
4.350000,92.825661,-2.194536,-58.669353,-18.600132,25.087418,-18.672405
4.356250,83.561340,-2.196579,-56.724564,-18.652866,27.647083,-18.636925
4.362500,71.997353,-2.197083,-53.276531,-18.812397,29.508970,-18.696829
4.368750,58.368210,-2.196355,-48.414074,-19.070211,31.027637,-18.879393
4.375000,43.008030,-2.195231,-42.340874,-19.412983,32.444107,-19.123251
4.381250,26.344460,-2.193605,-35.330502,-19.819469,33.814793,-19.411533
4.387500,8.874223,-2.190833,-27.706964,-20.263065,35.942677,-19.751438
4.393750,-8.872333,-2.187203,-19.885939,-20.727345,37.151089,-20.171045
4.400000,-26.355436,-2.183912,-12.327220,-21.199749,38.994831,-20.645466
4.406250,-43.042339,-2.181020,-3.234077,-21.662315,41.055607,-21.148800
4.412500,-58.434414,-2.177734,3.807660,-22.101494,43.042774,-21.662216
4.418750,-72.104118,-2.174166,10.642389,-22.511469,44.742405,-22.172287
4.425000,-83.716301,-2.171287,17.098316,-22.830410,46.071678,-22.630884
4.431250,-93.034714,-2.169410,23.001053,-23.058252,47.040417,-23.010429
4.437500,-99.931587,-2.167912,27.961256,-23.206635,47.418598,-23.307383
4.443750,-104.404999,-2.166591,31.932236,-23.283045,47.204830,-23.514959
4.450000,-106.580437,-2.166340,34.982063,-23.289572,46.529305,-23.625851
4.456250,-106.695976,-2.167575,37.239750,-23.230900,45.562313,-23.638638
4.462500,-105.085960,-2.169529,38.906178,-23.117104,44.485310,-23.559404
4.468750,-102.173149,-2.171797,40.270550,-22.968063,43.521015,-23.410561
4.475000,-98.453346,-2.174841,39.816727,-22.782217,42.966618,-23.176903
4.481250,-94.460190,-2.178732,39.715061,-22.552792,41.547546,-22.846310
4.487500,-88.566742,-2.182571,39.624214,-22.312246,40.792923,-22.464703
4.493750,-82.667885,-2.186110,39.352715,-22.082199,40.403759,-22.061659
4.500000,-76.770081,-2.190571,38.836773,-21.873632,40.161781,-21.658815
4.506250,-70.875198,-2.196597,38.051208,-21.687037,39.857788,-21.270576
4.512500,-64.974983,-2.203041,36.988258,-21.509537,39.271450,-20.906567
4.518750,-59.061817,-2.208404,35.646355,-21.284210,38.155514,-20.576454
4.525000,-53.139866,-2.212836,34.049931,-21.102541,36.190147,-20.316072
4.531250,-47.218987,-2.217551,33.291367,-20.968060,32.923809,-20.112362
4.537500,-41.299889,-2.222882,32.862640,-20.837385,29.723547,-19.943790
4.543750,-35.375423,-2.227981,31.353260,-20.700027,25.087648,-19.821701
4.550000,-29.442387,-2.232111,30.486666,-20.582979,19.339605,-19.721001
4.556250,-23.504076,-2.235297,29.972300,-20.508621,12.887156,-19.703150
4.562500,-17.564407,-2.238025,29.593557,-20.496225,6.437057,-19.783880
4.568750,-11.623831,-2.240245,29.126602,-20.571405,-0.033181,-19.960634
4.575000,-5.680490,-2.241699,28.344074,-20.793095,-6.352011,-20.179665
4.581250,0.265935,-2.241916,27.076563,-21.077673,-12.179992,-20.453299
4.587500,6.213191,-2.240877,24.030493,-21.446651,-17.020920,-20.794180
4.593750,12.158595,-2.238939,22.092827,-21.920589,-20.689863,-21.194546
4.600000,18.099926,-2.236218,19.394987,-22.502020,-23.140383,-21.633835
4.606250,24.037622,-2.232418,15.809512,-23.251894,-24.515202,-22.123842
4.612500,29.970539,-2.227706,12.248013,-24.040970,-25.079424,-22.654655
4.618750,35.893833,-2.223020,8.088385,-24.900255,-24.905933,-23.204103
4.625000,41.805077,-2.219116,3.663025,-25.809702,-24.273624,-23.756508
4.631250,47.710194,-2.215344,-0.741580,-26.735994,-23.502491,-24.298658
4.637500,53.614296,-2.210727,-4.863135,-27.636452,-22.955900,-24.813074
4.643750,59.513813,-2.205803,-8.454640,-28.458630,-22.997095,-25.264746
4.650000,65.399345,-2.202181,-13.211462,-29.141788,-23.977402,-25.605724
4.656250,71.270866,-2.200588,-15.267968,-29.658638,-26.277393,-25.844303
4.662500,77.136696,-2.200558,-16.676111,-30.001806,-28.470308,-26.001163
4.668750,83.001419,-2.201777,-17.301090,-30.141197,-31.936342,-26.050129
4.675000,88.865685,-2.204536,-17.165094,-30.064886,-36.440872,-25.983255
4.681250,94.730827,-2.208615,-16.401203,-29.775686,-41.777557,-25.801292
4.687500,98.705490,-2.213393,-15.209159,-29.297831,-47.724731,-25.515575
4.693750,102.410767,-2.219131,-13.833158,-28.669884,-54.013664,-25.137798
4.700000,105.310059,-2.226877,-12.567018,-27.920069,-60.300991,-24.670301
4.706250,106.914368,-2.236356,-11.903623,-27.051239,-66.219643,-24.105204
4.712500,106.807922,-2.245723,-12.077807,-26.105654,-71.328873,-23.497198
4.718750,104.653084,-2.253795,-13.437210,-25.159666,-77.039078,-22.901636
