Anritsu VNA Frequency[GHz],S21[deg],S21[dB],S11[deg],S11[dB],S22[deg],S22[dB]
1338061225.37,2012_05_26_20:40:25,+53.688,+125.22,+103.89,+125.49,+131.15,+133.23,+128.75,+130.47,128.201828,-7.992
3.006250,41.204838,-2.281183,65.756050,-27.143206,-80.243759,-28.069691
3.012500,41.204838,-2.281183,65.756050,-27.143206,-80.243759,-28.069691
3.018750,41.204838,-2.281183,65.756050,-27.143206,-80.243759,-28.069691
3.025000,41.204838,-2.281183,65.756050,-27.143206,-80.243759,-28.069691
3.031250,41.204838,-2.281183,65.756050,-27.143206,-80.243759,-28.069691
3.037500,41.204838,-2.281183,65.756050,-27.143206,-80.243759,-28.069691
3.043750,41.204838,-2.281183,65.756050,-27.143206,-80.243759,-28.069691
3.050000,41.204838,-2.281183,65.756050,-27.143206,-80.243759,-28.069691
3.056250,41.204838,-2.281183,65.756050,-27.143206,-80.243759,-28.069691
3.062500,41.204838,-2.281183,65.756050,-27.143206,-80.243759,-28.069691
3.068750,41.204838,-2.281183,65.756050,-27.143206,-80.243759,-28.069691
3.075000,41.204838,-2.281183,65.756050,-27.143206,-80.243759,-28.069691
3.081250,41.204838,-2.281183,65.756050,-27.143206,-80.243759,-28.069691
3.087500,41.204838,-2.281183,65.756050,-27.143206,-80.243759,-28.069691
3.093750,41.204838,-2.283402,65.756050,-26.949186,-80.243759,-27.858187
3.100000,47.128769,-2.285995,62.375431,-26.785267,-80.404602,-27.642353
3.106250,53.052727,-2.288712,58.121944,-26.679646,-79.700981,-27.422800
3.112500,58.977684,-2.291475,53.478123,-26.646421,-77.860779,-27.182251
3.118750,64.902443,-2.294374,47.052021,-26.685091,-74.665390,-26.871208
3.125000,70.826149,-2.297381,41.638241,-26.704596,-70.142365,-26.560966
3.131250,76.749435,-2.300508,36.872433,-26.748753,-64.372787,-26.225132
3.137500,82.671700,-2.303931,32.858452,-26.823948,-56.979004,-25.850843
3.143750,88.592400,-2.307858,29.788651,-26.925205,-48.047981,-25.446539
3.150000,94.513573,-2.312083,27.837336,-27.040789,-37.709976,-25.026056
3.156250,98.543015,-2.316119,27.120455,-27.156355,-28.010300,-24.609669
3.162500,102.301384,-2.319850,27.695486,-27.256971,-17.510235,-24.220936
3.168750,105.254326,-2.323615,29.581139,-27.330366,-6.937666,-23.896423
3.175000,106.908562,-2.327621,32.780567,-27.356728,3.041204,-23.635159
3.181250,106.838280,-2.331675,35.501575,-27.321470,12.309478,-23.390038
3.187500,104.704613,-2.335631,39.320751,-27.236763,19.929010,-23.197758
3.193750,100.270035,-2.339387,43.494236,-27.109932,25.575993,-23.077869
3.200000,93.412918,-2.342900,47.406544,-26.946980,29.141682,-23.037912
3.206250,84.132912,-2.346038,50.558929,-26.756050,30.567427,-23.075630
3.212500,72.550583,-2.348983,52.528381,-26.549427,29.895054,-23.196024
3.218750,58.901325,-2.352148,52.988087,-26.340275,27.290491,-23.412987
3.225000,43.526272,-2.355256,53.916138,-26.128845,22.754589,-23.633270
3.231250,26.855009,-2.357924,53.870449,-25.914389,16.538811,-23.874006
3.237500,9.378971,-2.360294,51.378204,-25.700676,11.093747,-24.134466
3.243750,-8.373033,-2.362806,48.541618,-25.477293,5.013709,-24.396255
3.250000,-25.855650,-2.365872,45.289330,-25.252762,-0.987000,-24.638247
3.256250,-42.532845,-2.369153,41.294708,-25.067509,-6.296847,-24.850531
3.262500,-57.909546,-2.372108,36.671116,-24.906757,-10.370143,-25.023348
3.268750,-71.559731,-2.374637,31.446203,-24.765345,-12.678486,-25.145649
3.275000,-83.145470,-2.377172,25.526691,-24.643112,-12.839787,-25.212877
3.281250,-92.431458,-2.380059,18.814636,-24.532803,-10.615486,-25.226120
3.287500,-99.294640,-2.383271,11.222207,-24.423021,-5.943953,-25.192762
3.293750,-103.731979,-2.386625,2.698879,-24.290592,1.065148,-25.114717
3.300000,-105.864944,-2.389822,-4.625156,-24.116442,10.178153,-24.992144
3.306250,-105.929703,-2.392801,-12.821846,-23.991104,21.028492,-24.843616
3.312500,-104.267967,-2.395507,-21.075525,-23.880089,33.102554,-24.695524
3.318750,-101.307564,-2.398125,-28.968649,-23.783609,45.805859,-24.571259
3.325000,-97.540955,-2.400661,-36.236835,-23.713575,58.518181,-24.484997
3.331250,-93.499748,-2.402895,-42.642040,-23.687361,70.620857,-24.443924
3.337500,-87.562805,-2.404738,-48.004570,-23.740999,83.657753,-24.451004
3.343750,-81.625252,-2.406255,-52.219631,-23.907225,95.698372,-24.500252
3.350000,-75.688217,-2.407460,-55.999725,-24.074453,104.881035,-24.559746
3.356250,-69.751617,-2.408352,-58.784729,-24.326452,112.857048,-24.631767
3.362500,-63.816559,-2.409157,-58.824238,-24.694424,118.589928,-24.771044
3.368750,-57.883354,-2.409680,-57.863888,-25.173475,122.044235,-24.958565
3.375000,-51.950562,-2.409721,-55.802223,-25.742943,122.934525,-25.210520
3.381250,-46.019581,-2.409306,-52.666386,-26.373606,121.105705,-25.500122
3.387500,-40.093788,-2.409069,-48.563351,-27.031078,117.007362,-25.779673
3.393750,-34.174381,-2.409526,-43.668644,-27.675175,110.388924,-26.057585
3.400000,-28.257933,-2.410336,-38.200310,-28.262772,101.651711,-26.295971
3.406250,-22.340879,-2.411009,-32.462902,-28.767307,91.726395,-26.564062
3.412500,-16.424349,-2.411720,-26.794109,-29.165850,81.505394,-26.823576
3.418750,-10.511837,-2.413064,-21.156281,-29.434322,69.461838,-27.047266
3.425000,-4.602919,-2.415341,-15.542324,-29.562143,57.890247,-27.224575
3.431250,1.307681,-2.417848,-10.226232,-29.552416,47.227245,-27.355476
3.437500,7.222300,-2.420187,-5.423475,-29.404726,37.927479,-27.446714
3.443750,13.136815,-2.422943,-1.153329,-29.101273,30.557419,-27.452394
3.450000,19.049692,-2.426659,2.353500,-28.675961,23.587795,-27.385122
3.456250,24.964918,-2.430706,4.974741,-28.163725,18.727476,-27.257860
3.462500,30.888029,-2.434250,6.807760,-27.604099,15.648514,-27.073864
3.468750,36.816833,-2.437131,8.063367,-27.038305,14.025618,-26.831715
3.475000,42.745865,-2.439739,8.992309,-26.514299,13.509344,-26.540644
3.481250,48.674099,-2.442343,9.915759,-26.047968,13.710095,-26.215401
3.487500,54.601353,-2.445049,9.641551,-25.617807,14.238256,-25.853888
3.493750,60.527584,-2.448130,9.841282,-25.270067,14.686873,-25.459454
3.500000,66.453346,-2.451620,10.301284,-25.021130,14.625385,-25.042995
3.506250,72.381470,-2.454975,10.948601,-24.866848,13.714237,-24.615099
3.512500,78.313210,-2.457648,11.710122,-24.787525,11.680983,-24.185862
3.518750,84.246017,-2.460016,12.527115,-24.732136,8.329604,-23.761454
3.525000,90.173813,-2.463094,13.363226,-24.639931,3.521951,-23.348461
3.531250,96.097191,-2.467272,15.034210,-24.607298,-0.692438,-22.959694
3.537500,100.126915,-2.471894,16.969704,-24.556601,-5.744817,-22.611393
3.543750,103.889183,-2.476207,19.300165,-24.470533,-11.179246,-22.317995
3.550000,106.849617,-2.480591,22.202671,-24.335604,-16.686632,-22.041889
3.556250,108.511505,-2.485517,24.022243,-24.136814,-21.944115,-21.761221
3.562500,108.450356,-2.490863,26.433907,-23.895908,-26.534090,-21.511395
3.568750,106.331306,-2.495648,28.922592,-23.639359,-30.885241,-21.351177
3.575000,101.918861,-2.499190,31.083876,-23.392956,-34.677567,-21.272141
3.581250,95.087128,-2.501669,32.537609,-23.189056,-38.063908,-21.300755
3.587500,85.830421,-2.503588,32.944492,-23.063414,-39.575176,-21.387484
3.593750,74.269997,-2.505119,32.091427,-23.024744,-41.456551,-21.538723
3.600000,60.645958,-2.505820,32.109421,-23.068579,-43.190319,-21.776974
3.606250,45.300049,-2.505201,31.375540,-23.213055,-44.716103,-22.098427
3.612500,28.655632,-2.503615,30.269236,-23.456577,-46.064510,-22.480194
3.618750,11.200760,-2.501561,29.223997,-23.798243,-47.341663,-22.888798
3.625000,-6.531149,-2.498974,28.457954,-24.259085,-48.885410,-23.353077
3.631250,-23.992168,-2.495531,28.407719,-24.808704,-48.780201,-23.846031
3.637500,-40.651859,-2.491637,29.444778,-25.411697,-48.398026,-24.336761
3.643750,-56.022366,-2.487970,31.740582,-26.029888,-47.460056,-24.801788
3.650000,-69.676689,-2.484971,33.445396,-26.620964,-45.801289,-25.221584
3.656250,-81.270821,-2.482557,36.125942,-27.128183,-43.326485,-25.578314
3.662500,-90.566650,-2.480783,39.043018,-27.526886,-40.000416,-25.861496
3.668750,-97.442177,-2.479854,43.184242,-27.839281,-35.894039,-26.074217
3.675000,-101.895958,-2.479632,46.680176,-28.026951,-31.136976,-26.218550
3.681250,-104.047035,-2.479759,49.348003,-28.077959,-25.881289,-26.294390
3.687500,-104.133217,-2.480286,50.944344,-27.997280,-20.348534,-26.304585
3.693750,-102.497765,-2.481951,51.285805,-27.807718,-14.806529,-26.258005
3.700000,-99.567360,-2.484830,50.292866,-27.538286,-9.531858,-26.168583
3.706250,-95.828026,-2.488134,48.118519,-27.182043,-4.739543,-26.042158
3.712500,-91.810020,-2.491220,44.856842,-26.777756,-0.541494,-25.872387
3.718750,-85.895020,-2.494454,38.707588,-26.368397,2.922599,-25.663485
3.725000,-79.981285,-2.498343,31.439411,-25.977777,5.588115,-25.419285
3.731250,-74.066383,-2.502445,22.900759,-25.636635,7.705007,-25.188141
3.737500,-68.146301,-2.506128,15.027678,-25.382875,9.593907,-24.988909
3.743750,-62.222332,-2.509403,6.461835,-25.219051,11.389969,-24.837772
3.750000,-56.298298,-2.512611,-2.186695,-25.133545,13.544209,-24.702679
3.756250,-50.375256,-2.515727,-10.441714,-25.120430,14.886064,-24.557001
3.762500,-44.451611,-2.518573,-17.875441,-25.163809,17.214563,-24.391666
3.768750,-38.527412,-2.521302,-24.034349,-25.230633,18.464476,-24.264240
3.775000,-32.604481,-2.524220,-28.603247,-25.312115,20.389576,-24.179928
3.781250,-26.682138,-2.527180,-31.480995,-25.409826,22.225266,-24.117170
3.787500,-20.758583,-2.529843,-32.349194,-25.500198,23.621113,-24.066311
3.793750,-14.835194,-2.532401,-31.043489,-25.579159,24.307644,-24.026854
3.800000,-8.913921,-2.535291,-29.434715,-25.645330,24.098866,-23.996803
3.806250,-2.994083,-2.538517,-25.484381,-25.608870,22.984573,-23.944342
3.812500,2.926270,-2.541907,-20.235882,-25.519621,20.959684,-23.864021
3.818750,8.846649,-2.545608,-14.438720,-25.396229,17.915764,-23.763704
3.825000,14.766541,-2.549713,-8.666911,-25.251846,13.963937,-23.648481
3.831250,20.689291,-2.553759,-1.293301,-25.099123,9.358414,-23.525311
3.837500,26.614965,-2.557341,5.833392,-24.950886,4.434267,-23.411591
3.843750,32.541088,-2.560935,12.819171,-24.811283,-0.437258,-23.329298
3.850000,38.464973,-2.564978,17.954260,-24.671371,-4.477233,-23.196203
3.856250,44.389034,-2.569035,22.957310,-24.537380,-9.403634,-23.060574
3.862500,50.316242,-2.572513,27.368229,-24.412481,-13.345434,-22.937965
3.868750,56.243988,-2.575806,30.836731,-24.289204,-16.379591,-22.830202
3.875000,62.166286,-2.579943,33.059879,-24.148991,-18.622267,-22.730946
3.881250,68.084671,-2.585299,33.769024,-23.969208,-20.235582,-22.626371
3.887500,74.005630,-2.590926,32.569878,-23.775150,-21.472515,-22.510704
3.893750,79.933418,-2.596116,29.258804,-23.552940,-22.703224,-22.392290
3.900000,85.864067,-2.601328,26.029016,-23.286726,-24.238327,-22.266636
3.906250,91.792328,-2.607433,21.468767,-22.973536,-26.367813,-22.130997
3.912500,95.824959,-2.614558,16.062759,-22.614223,-29.430307,-21.981333
3.918750,99.589752,-2.622235,10.296569,-22.215837,-31.859459,-21.810137
3.925000,102.556778,-2.629824,4.583453,-21.796530,-35.600140,-21.598326
3.931250,104.234001,-2.637043,-0.731170,-21.383404,-40.462765,-21.378735
3.937500,104.192932,-2.643865,-5.280130,-20.998142,-44.353828,-21.189507
3.943750,102.091881,-2.650171,-8.737583,-20.663088,-48.152046,-21.032963
3.950000,97.694611,-2.655601,-10.887199,-20.400221,-51.101089,-20.919207
3.956250,90.879875,-2.659583,-11.619876,-20.228340,-52.570213,-20.861866
3.962500,81.645905,-2.661868,-10.913791,-20.159412,-52.019875,-20.873432
3.968750,70.110504,-2.662734,-8.807855,-20.195349,-49.014294,-20.962683
3.975000,56.507473,-2.662372,-7.300164,-20.318575,-43.263908,-21.139353
3.981250,41.176723,-2.660783,-2.771817,-20.510021,-36.524948,-21.442621
3.987500,24.544067,-2.658051,2.138164,-20.838991,-27.060955,-21.783970
3.993750,7.099715,-2.654462,7.587636,-21.237337,-15.464483,-22.216806
4.000000,-10.624410,-2.650196,13.244294,-21.694853,-2.770512,-22.751324
4.006250,-28.082092,-2.645252,18.682732,-22.200104,10.300654,-23.396767
4.012500,-44.742451,-2.639854,23.611456,-22.730648,22.962440,-24.137300
4.018750,-60.114960,-2.634848,27.787252,-23.259056,33.773766,-24.850805
4.025000,-73.773041,-2.630586,30.971504,-23.763731,44.357639,-25.534378
4.031250,-85.372765,-2.626836,33.171021,-24.238194,51.833061,-26.258778
4.037500,-94.674370,-2.623587,34.509987,-24.666348,58.215973,-26.967667
4.043750,-101.558060,-2.621270,34.925301,-25.033400,62.106178,-27.627632
4.050000,-106.023170,-2.620199,34.362160,-25.335142,63.901550,-28.217400
4.056250,-108.186165,-2.619618,32.835239,-25.568319,64.104668,-28.722567
4.062500,-108.281212,-2.618891,30.513739,-25.710903,61.451527,-29.122002
4.068750,-106.653442,-2.618680,27.563650,-25.769014,58.318184,-29.390863
4.075000,-103.735519,-2.620214,24.106583,-25.758307,54.824795,-29.528137
4.081250,-100.014877,-2.623228,20.441107,-25.690760,51.152126,-29.535831
4.087500,-96.014931,-2.626391,16.953016,-25.573389,47.595943,-29.413374
4.093750,-90.111015,-2.628967,12.173076,-25.412474,44.511261,-29.163118
4.100000,-84.206161,-2.631596,8.140741,-25.216934,40.085316,-28.797836
4.106250,-78.305412,-2.635134,4.751213,-24.994532,36.027851,-28.345961
4.112500,-72.406204,-2.639437,1.954527,-24.742344,32.197598,-27.812241
4.118750,-66.504158,-2.644184,-0.332039,-24.464270,28.722845,-27.183043
4.125000,-60.599342,-2.649444,-2.298445,-24.174006,25.235601,-26.504696
4.131250,-54.692722,-2.655309,-4.082392,-23.882284,21.601328,-25.811274
4.137500,-48.782150,-2.661426,-5.766634,-23.595440,17.815586,-25.129822
4.143750,-42.865528,-2.667372,-7.403508,-23.315300,13.912790,-24.480452
4.150000,-36.945290,-2.673260,-9.058548,-23.043091,9.926750,-23.879101
4.156250,-31.023539,-2.679464,-8.638474,-22.777607,5.897970,-23.331141
4.162500,-25.100681,-2.686009,-7.582251,-22.516867,4.026745,-22.811890
4.168750,-19.174557,-2.692703,-7.374722,-22.253689,2.758656,-22.406099
4.175000,-13.244630,-2.699515,-6.067496,-21.992369,0.839622,-22.058628
4.181250,-7.311140,-2.706255,-4.010128,-21.744522,0.232343,-21.777327
4.187500,-1.372998,-2.712690,-1.502784,-21.517099,0.713918,-21.540472
4.193750,4.569851,-2.718755,1.136938,-21.317801,2.093904,-21.331694
4.200000,10.516175,-2.724277,3.582906,-21.153646,4.899075,-21.238470
4.206250,16.465567,-2.728944,5.518866,-21.032393,6.286561,-21.235119
4.212500,22.417604,-2.732557,8.837950,-20.956152,7.289433,-21.265440
4.218750,28.369314,-2.735349,11.979274,-20.915619,8.895685,-21.316633
4.225000,34.317822,-2.737815,15.254239,-20.903429,9.138023,-21.400768
4.231250,40.261883,-2.740128,17.011408,-20.909727,7.916812,-21.511236
4.237500,46.203590,-2.742206,19.092974,-20.925381,5.107739,-21.630831
4.243750,52.142689,-2.743946,21.049101,-20.966181,2.735467,-21.752422
4.250000,58.080658,-2.745351,22.473116,-21.024950,-0.732663,-21.879541
4.256250,64.016724,-2.746278,23.083559,-21.083340,-4.771179,-21.998058
4.262500,69.948669,-2.747131,22.502977,-21.125664,-8.858891,-22.094151
4.268750,75.874199,-2.748560,20.377401,-21.140636,-12.543025,-22.154106
4.275000,81.792580,-2.751014,18.565409,-21.121305,-15.424965,-22.167475
4.281250,87.708817,-2.754181,15.435093,-21.058340,-17.165033,-22.123018
4.287500,93.626480,-2.757690,11.259247,-20.943293,-17.496435,-21.998619
4.293750,97.649307,-2.762143,6.254823,-20.786102,-16.333708,-21.806807
4.300000,101.397507,-2.767961,0.635546,-20.596638,-14.016099,-21.590889
4.306250,104.344009,-2.774292,-5.261374,-20.376633,-10.437431,-21.339931
4.312500,106.002800,-2.780061,-11.149221,-20.133533,-5.737461,-21.058092
4.318750,105.944794,-2.785285,-16.784473,-19.877731,-0.216066,-20.755642
4.325000,103.820961,-2.790877,-21.970098,-19.626326,5.762150,-20.448530
4.331250,99.394608,-2.797074,-26.549109,-19.398228,11.800927,-20.152971
4.337500,92.550262,-2.802967,-30.385921,-19.217941,17.519777,-19.879391
4.343750,83.291389,-2.807882,-33.401997,-19.134768,22.561983,-19.615211
4.350000,71.735733,-2.811878,-34.744991,-19.034979,26.576466,-19.392450
4.356250,58.117409,-2.815000,-34.764091,-19.029549,30.958090,-19.254177
4.362500,42.777409,-2.816786,-33.485909,-19.130112,34.373333,-19.206938
4.368750,26.141956,-2.817300,-30.845354,-19.333761,37.132568,-19.273418
4.375000,8.697616,-2.817150,-26.923758,-19.631645,39.541279,-19.472645
4.381250,-9.024733,-2.816552,-21.883532,-20.007236,41.363644,-19.702715
4.387500,-26.475195,-2.814919,-15.946115,-20.436777,43.377377,-19.982540
4.393750,-43.120979,-2.812218,-9.412743,-20.898720,46.074970,-20.353228
4.400000,-58.476372,-2.809425,-2.661167,-21.378992,47.793026,-20.811232
4.406250,-72.115555,-2.806953,2.053439,-21.860439,49.834820,-21.321651
4.412500,-83.693405,-2.804180,8.211793,-22.325682,51.883152,-21.859617
4.418750,-92.971077,-2.800939,13.646047,-22.761410,53.709015,-22.405380
4.425000,-99.830818,-2.797941,18.170204,-23.132217,55.169704,-22.927996
4.431250,-104.275764,-2.795786,21.763798,-23.407522,56.259342,-23.381882
4.437500,-106.422874,-2.794140,24.207069,-23.593557,56.839531,-23.754045
4.443750,-106.506226,-2.792642,25.501619,-23.696934,56.828110,-24.035156
4.450000,-104.869064,-2.791997,25.820158,-23.718639,56.313911,-24.214241
4.456250,-101.941025,-2.792949,25.417112,-23.661283,55.452587,-24.285278
4.462500,-98.209160,-2.794970,24.614166,-23.532032,54.417149,-24.248182
4.468750,-94.199806,-2.797370,23.807467,-23.344471,53.418331,-24.112906
4.475000,-88.292908,-2.800356,21.542145,-23.116760,52.704235,-23.900827
4.481250,-82.386230,-2.804189,19.969646,-22.842033,50.817165,-23.575638
4.487500,-76.476517,-2.808520,19.017282,-22.539160,49.695694,-23.170710
4.493750,-70.561668,-2.812726,18.445915,-22.236185,48.838272,-22.724220
4.500000,-64.645760,-2.817593,18.146364,-21.952890,48.006199,-22.264620
4.506250,-58.731495,-2.823932,18.057243,-21.698851,47.007412,-21.813580
4.512500,-52.813232,-2.830944,18.125175,-21.472832,45.662487,-21.386900
4.518750,-46.883057,-2.837198,18.283195,-21.255953,43.782200,-20.997953
4.525000,-40.942471,-2.842299,18.443419,-20.988804,41.153023,-20.669535
4.531250,-34.999878,-2.847283,19.976767,-20.818743,37.474545,-20.444670
4.537500,-29.059374,-2.852753,21.714558,-20.686882,34.075588,-20.256269
4.543750,-23.115509,-2.858186,22.315510,-20.559940,29.274693,-20.132658
4.550000,-17.164297,-2.862714,23.593657,-20.449923,23.631920,-20.066671
4.556250,-11.206872,-2.866292,25.052137,-20.380131,17.427698,-20.037615
4.562500,-5.247571,-2.869223,26.341064,-20.370249,11.588788,-20.144676
4.568750,0.712450,-2.871657,27.148441,-20.441917,6.083040,-20.370295
4.575000,6.674320,-2.873377,27.182089,-20.632620,1.106714,-20.667841
4.581250,12.639282,-2.874004,26.201241,-20.946945,-3.486391,-21.005060
4.587500,18.605158,-2.873366,25.095654,-21.319218,-6.939192,-21.409332
4.593750,24.569847,-2.871685,23.280666,-21.795158,-9.125511,-21.878633
4.600000,30.530781,-2.869224,20.763371,-22.379519,-10.074219,-22.396336
4.606250,36.487259,-2.865956,17.558775,-23.103827,-9.954876,-22.953140
4.612500,42.439213,-2.861832,13.747490,-23.911787,-9.091928,-23.548607
4.618750,48.382988,-2.857542,9.773687,-24.781570,-7.706275,-24.159058
4.625000,54.316010,-2.853886,5.497823,-25.700071,-6.081345,-24.766563
4.631250,60.242447,-2.850483,1.123260,-26.638138,-4.574962,-25.357410
4.637500,66.167160,-2.846378,-3.118556,-27.556873,-3.571332,-25.919445
4.643750,72.088722,-2.841727,-8.881589,-28.409132,-3.447687,-26.423990
4.650000,77.998718,-2.837968,-14.331278,-29.142214,-4.580935,-26.830166
4.656250,83.893661,-2.836192,-17.687044,-29.708334,-7.272029,-27.105652
4.662500,89.780678,-2.836152,-20.809692,-30.095997,-9.810118,-27.290850
4.668750,95.666397,-2.837302,-23.667822,-30.286312,-13.923762,-27.371941
4.675000,99.657410,-2.839789,-26.102253,-30.263058,-19.158909,-27.335253
4.681250,103.375084,-2.843648,-28.070532,-30.023619,-25.238813,-27.177578
4.687500,106.289627,-2.848464,-29.607998,-29.585630,-31.894974,-26.906605
4.693750,107.909454,-2.854216,-30.800810,-28.983850,-38.838802,-26.534952
4.700000,107.805367,-2.861622,-31.764853,-28.265072,-45.722507,-26.070196
4.706250,105.637138,-2.870938,-32.784050,-27.428877,-52.174271,-25.511562
4.712500,101.176613,-2.880743,-34.219791,-26.509464,-57.812088,-24.853022
4.718750,94.308495,-2.889578,-36.111897,-25.562559,-64.072845,-24.202421
