Anritsu VNA Frequency[GHz],S21[deg],S21[dB],S11[deg],S11[dB],S22[deg],S22[dB]
1338109286.02,2012_05_27_10:01:26,+40.627,+10.245,+55.044,+10.256,+13.884,+13.693,+13.989,+13.738,10.342406,-15.947
3.006250,34.214874,-1.754441,59.418747,-26.664419,-79.977257,-27.434950
3.012500,34.214874,-1.754441,59.418747,-26.664419,-79.977257,-27.434950
3.018750,34.214874,-1.754441,59.418747,-26.664419,-79.977257,-27.434950
3.025000,34.214874,-1.754441,59.418747,-26.664419,-79.977257,-27.434950
3.031250,34.214874,-1.754441,59.418747,-26.664419,-79.977257,-27.434950
3.037500,34.214874,-1.754441,59.418747,-26.664419,-79.977257,-27.434950
3.043750,34.214874,-1.754441,59.418747,-26.664419,-79.977257,-27.434950
3.050000,34.214874,-1.754441,59.418747,-26.664419,-79.977257,-27.434950
3.056250,34.214874,-1.754441,59.418747,-26.664419,-79.977257,-27.434950
3.062500,34.214874,-1.754441,59.418747,-26.664419,-79.977257,-27.434950
3.068750,34.214874,-1.754441,59.418747,-26.664419,-79.977257,-27.434950
3.075000,34.214874,-1.754441,59.418747,-26.664419,-79.977257,-27.434950
3.081250,34.214874,-1.754441,59.418747,-26.664419,-79.977257,-27.434950
3.087500,34.214874,-1.754441,59.418747,-26.664419,-79.977257,-27.434950
3.093750,34.214874,-1.756139,59.418747,-26.462990,-79.977257,-27.184593
3.100000,40.121632,-1.758109,56.736530,-26.311983,-81.973854,-26.951485
3.106250,46.028606,-1.760063,53.169468,-26.232841,-82.359825,-26.737791
3.112500,51.936260,-1.762025,49.080921,-26.245577,-80.772995,-26.515802
3.118750,57.843102,-1.764184,43.071796,-26.290310,-79.053024,-26.215820
3.125000,63.748699,-1.766452,38.268200,-26.335800,-75.004082,-25.954109
3.131250,69.653847,-1.768793,33.874249,-26.408430,-68.840073,-25.665972
3.137500,75.558128,-1.771502,30.155418,-26.509302,-60.958542,-25.341507
3.143750,81.460518,-1.774748,27.313591,-26.629721,-51.541168,-24.988926
3.150000,87.363785,-1.778275,25.530050,-26.754992,-40.743240,-24.620649
3.156250,93.270248,-1.781592,24.927292,-26.870827,-28.738440,-24.254934
3.162500,97.284248,-1.784658,25.573019,-26.963976,-15.724841,-23.915592
3.168750,101.024963,-1.787825,27.483149,-27.027046,-3.808406,-23.651348
3.175000,103.958931,-1.791309,30.701048,-27.038197,8.469723,-23.406866
3.181250,105.595970,-1.794886,33.472061,-26.984568,20.989084,-23.184961
3.187500,105.510773,-1.798342,37.257015,-26.883259,32.467751,-23.017454
3.193750,103.362152,-1.801548,41.355457,-26.746794,42.479168,-22.920717
3.200000,98.912239,-1.804459,45.195549,-26.583054,50.694145,-22.896870
3.206250,92.039635,-1.807020,48.296780,-26.402721,56.828213,-22.947294
3.212500,82.742172,-1.809436,50.237072,-26.219467,60.685604,-23.079079
3.218750,71.140518,-1.812059,50.706791,-26.043560,62.163216,-23.276112
3.225000,57.473030,-1.814553,51.703876,-25.869614,61.008041,-23.481609
3.231250,42.082550,-1.816528,51.765564,-25.697372,57.508179,-23.705210
3.237500,25.394360,-1.818199,49.402157,-25.526304,53.771442,-23.938381
3.243750,7.896677,-1.820149,46.725067,-25.334944,48.303062,-24.158844
3.250000,-9.877813,-1.822644,43.602993,-25.161903,41.769794,-24.346935
3.256250,-27.378836,-1.825268,39.676407,-25.021540,34.767216,-24.501518
3.262500,-44.071472,-1.827539,35.186874,-24.896233,27.939827,-24.611727
3.268750,-59.465046,-1.829446,30.075222,-24.782467,21.970751,-24.668631
3.275000,-73.135330,-1.831422,24.218998,-24.679090,17.403002,-24.671917
3.281250,-84.742569,-1.833789,17.509411,-24.576851,14.676802,-24.628710
3.287500,-94.048004,-1.836476,9.855846,-24.463249,14.090741,-24.553892
3.293750,-100.927437,-1.839257,1.219728,-24.299250,15.799559,-24.446678
3.300000,-105.380478,-1.841937,-6.217277,-24.131048,19.840687,-24.309319
3.306250,-107.528198,-1.844373,-14.884151,-23.995831,26.078070,-24.167624
3.312500,-107.608795,-1.848114,-23.549677,-23.874245,34.208000,-24.053381
3.318750,-105.964554,-1.850254,-31.927401,-23.773659,43.849770,-23.987242
3.325000,-103.021477,-1.852233,-39.754642,-23.712132,54.556194,-23.980392
3.331250,-99.271538,-1.853887,-46.769688,-23.715885,65.808372,-24.035553
3.337500,-95.247955,-1.855178,-52.795753,-23.848413,77.028938,-24.151138
3.343750,-89.329315,-1.856109,-57.864220,-24.008444,87.635857,-24.313124
3.350000,-83.411095,-1.856703,-62.305157,-24.230171,97.381767,-24.465986
3.356250,-77.493668,-1.856987,-65.755905,-24.555782,105.987328,-24.662212
3.362500,-71.577965,-1.857151,-66.501762,-25.007364,112.245544,-24.910381
3.368750,-65.664177,-1.857074,-66.182129,-25.565563,116.282600,-25.199390
3.375000,-59.751060,-1.856408,-64.674461,-26.203445,117.700874,-25.574980
3.381250,-53.839703,-1.855383,-61.990231,-26.886621,116.337952,-25.910028
3.387500,-47.934799,-1.854709,-58.223709,-27.576538,112.808586,-26.233177
3.393750,-42.036221,-1.854821,-53.531956,-28.228840,106.567795,-26.537077
3.400000,-36.139915,-1.855313,-48.134949,-28.800833,98.175232,-26.813070
3.406250,-30.242109,-1.855603,-42.363060,-29.270897,88.634903,-27.093555
3.412500,-24.345058,-1.856030,-36.542206,-29.613987,78.610443,-27.343496
3.418750,-18.452646,-1.857317,-28.735411,-29.808844,66.743690,-27.541676
3.425000,-12.563540,-1.859568,-22.484426,-29.850863,55.321728,-27.681892
3.431250,-6.671333,-1.861927,-15.936366,-29.755430,44.777653,-27.769796
3.437500,-0.774977,-1.864158,-9.344798,-29.506664,35.567104,-27.809618
3.443750,5.121054,-1.866976,-2.732190,-29.102871,28.369755,-27.749231
3.450000,11.015631,-1.870799,3.379956,-28.589752,21.465612,-27.617731
3.456250,16.914223,-1.874790,8.829062,-28.006294,16.634779,-27.428751
3.462500,22.821602,-1.878149,13.609208,-27.396221,13.584551,-27.184839
3.468750,28.733934,-1.880883,17.801594,-26.805628,11.998376,-26.882135
3.475000,34.647026,-1.883376,21.515366,-26.301077,11.524458,-26.537430
3.481250,40.559418,-1.885716,25.006708,-25.832996,11.772264,-26.165047
3.487500,46.471306,-1.888123,27.004597,-25.433235,12.372163,-25.759886
3.493750,52.381535,-1.890963,28.893866,-25.137581,12.892081,-25.329058
3.500000,58.291210,-1.894262,30.503275,-24.951351,12.896911,-24.885107
3.506250,64.203613,-1.897327,31.727880,-24.859415,12.055356,-24.437557
3.512500,70.120316,-1.899590,32.469353,-24.826790,10.096041,-23.996284
3.518750,76.037315,-1.901659,32.706188,-24.763994,6.816321,-23.566261
3.525000,81.947845,-1.904618,32.628433,-24.750044,2.064830,-23.153311
3.531250,87.853630,-1.908673,32.756485,-24.738937,-2.129800,-22.771996
3.537500,93.761925,-1.913002,32.765476,-24.695312,-7.230036,-22.439032
3.543750,97.780922,-1.917027,32.902977,-24.608648,-12.808468,-22.150333
3.550000,101.529465,-1.921233,33.508999,-24.452351,-18.581545,-21.868906
3.556250,104.471359,-1.926137,33.022583,-24.227648,-24.073551,-21.541168
3.562500,106.117752,-1.931318,33.150982,-23.964499,-29.003387,-21.299387
3.568750,106.048271,-1.935722,33.553753,-23.689425,-32.139713,-21.128504
3.575000,103.922676,-1.938718,33.955070,-23.428888,-34.498569,-21.029295
3.581250,99.497833,-1.940638,34.070980,-23.217340,-35.808762,-21.015835
3.587500,92.647255,-1.942143,33.641605,-23.091448,-36.089569,-21.047974
3.593750,83.371399,-1.943239,32.560368,-23.040640,-35.217339,-21.148050
3.600000,71.795677,-1.943239,30.767445,-23.075829,-33.034763,-21.330545
3.606250,58.157955,-1.941833,30.107870,-23.212070,-29.698244,-21.590115
3.612500,42.792995,-1.939554,29.129271,-23.434521,-25.484560,-21.900173
3.618750,26.124977,-1.936899,28.237888,-23.760422,-20.793659,-22.235247
3.625000,8.647715,-1.933549,27.544493,-24.201031,-16.405590,-22.638094
3.631250,-9.104802,-1.929321,27.659302,-24.718744,-10.518384,-23.071114
3.637500,-26.589474,-1.924731,28.884459,-25.278452,-4.857002,-23.505589
3.643750,-43.277679,-1.920479,31.359053,-25.842844,0.555186,-23.921770
3.650000,-58.676197,-1.916865,33.219135,-26.367104,5.629886,-24.302816
3.656250,-72.355255,-1.913839,36.025173,-26.775003,10.278018,-24.632065
3.662500,-83.972603,-1.911537,38.952168,-27.114031,14.406601,-24.903936
3.668750,-93.291199,-1.910134,42.925423,-27.361229,17.874279,-25.125479
3.675000,-100.187019,-1.909355,46.265518,-27.488356,20.596283,-25.295338
3.681250,-104.657753,-1.908699,48.700779,-27.492964,22.515881,-25.411757
3.687500,-106.826508,-1.908546,49.991062,-27.387751,23.557850,-25.477980
3.693750,-106.933868,-1.909645,49.989330,-27.199045,23.670383,-25.503012
3.700000,-105.318939,-1.911858,48.698578,-26.931894,22.857388,-25.497702
3.706250,-102.401665,-1.914317,46.275593,-26.604565,21.253778,-25.454939
3.712500,-98.672638,-1.916522,42.703957,-26.255825,19.076298,-25.368174
3.718750,-94.669876,-1.919085,36.277702,-25.912952,16.476461,-25.242540
3.725000,-88.774078,-1.922285,28.920761,-25.591925,13.780732,-25.093805
3.731250,-82.876266,-1.925560,20.361263,-25.337454,11.598077,-24.960690
3.737500,-76.973602,-1.928380,12.539083,-25.172594,10.341915,-24.855169
3.743750,-71.068382,-1.930927,4.203747,-25.082989,10.422997,-24.800554
3.750000,-65.164436,-1.933553,-4.095510,-25.056589,10.437557,-24.710665
3.756250,-59.261837,-1.936208,-11.960611,-25.089458,10.365500,-24.606350
3.762500,-53.358036,-1.938647,-18.972256,-25.160753,11.532730,-24.487938
3.768750,-47.454323,-1.941077,-24.688572,-25.233597,13.679846,-24.404268
3.775000,-41.552338,-1.943778,-28.879910,-25.319429,16.351187,-24.344421
3.781250,-35.650616,-1.946580,-31.440376,-25.406378,18.945189,-24.292830
3.787500,-29.747656,-1.949137,-32.011356,-25.473160,21.096462,-24.241974
3.793750,-23.844400,-1.951737,-30.508560,-25.534872,22.498259,-24.195559
3.800000,-17.943607,-1.954754,-28.855635,-25.535213,22.956516,-24.145809
3.806250,-12.043481,-1.958097,-24.701063,-25.449137,22.485250,-24.056454
3.812500,-6.141802,-1.961601,-19.557730,-25.316198,20.945831,-23.935452
3.818750,-0.239770,-1.965447,-13.972523,-25.153255,18.230434,-23.793848
3.825000,5.662891,-1.969622,-8.482331,-24.974812,14.465528,-23.638002
3.831250,11.569378,-1.973462,-1.433543,-24.795126,9.921258,-23.478699
3.837500,17.479845,-1.976733,5.357644,-24.628323,4.919399,-23.351974
3.843750,23.389767,-1.980101,12.047302,-24.470182,-0.201602,-23.214458
3.850000,29.296717,-1.983963,16.947021,-24.314552,-6.130943,-23.046747
3.856250,35.204784,-1.987625,21.735807,-24.170992,-11.670830,-22.888651
3.862500,41.117046,-1.990536,25.992334,-24.037502,-16.805674,-22.748894
3.868750,47.028587,-1.993312,29.385942,-23.901253,-21.514257,-22.624676
3.875000,52.933250,-1.997125,31.596045,-23.740219,-25.820528,-22.505083
3.881250,58.833969,-2.002184,32.269836,-23.560081,-29.793312,-22.374575
3.887500,64.738297,-2.007402,31.009090,-23.362795,-33.618870,-22.237700
3.893750,70.648994,-2.012158,27.743656,-23.130728,-37.550854,-22.099842
3.900000,76.561264,-2.017150,24.551447,-22.853479,-41.722389,-21.953379
3.906250,82.470444,-2.023223,19.982084,-22.530869,-44.432072,-21.796719
3.912500,88.379654,-2.030333,14.503524,-22.164656,-47.547970,-21.624992
3.918750,94.295403,-2.037874,8.583146,-21.761927,-50.783306,-21.425377
3.925000,98.324951,-2.045235,2.584889,-21.350018,-53.892418,-21.170456
3.931250,102.089676,-2.052223,-3.145458,-20.954735,-56.941292,-20.950357
3.937500,105.055511,-2.058772,-8.181779,-20.596067,-57.730667,-20.761055
3.943750,106.729553,-2.064677,-12.194448,-20.296701,-57.336761,-20.610609
3.950000,106.686172,-2.069464,-14.965749,-20.078871,-55.293392,-20.512701
3.956250,104.584450,-2.072577,-16.369297,-19.960592,-51.246674,-20.482954
3.962500,100.184380,-2.073931,-16.347321,-19.951942,-44.949085,-20.533520
3.968750,93.360321,-2.073850,-14.899162,-20.050026,-36.260345,-20.672709
3.975000,84.109665,-2.072452,-13.971030,-20.220909,-25.188393,-20.911289
3.981250,72.553497,-2.069710,-9.874157,-20.514727,-11.897292,-21.276726
3.987500,58.927109,-2.065862,-5.517354,-20.915943,1.993410,-21.684727
3.993750,43.568859,-2.061153,-0.231264,-21.379681,17.160030,-22.195387
4.000000,26.905146,-2.055817,5.348164,-21.902239,32.784023,-22.815985
4.006250,9.428521,-2.049809,10.869777,-22.466879,48.002922,-23.576792
4.012500,-8.330837,-2.043633,16.063187,-23.046356,61.751236,-24.336765
4.018750,-25.829109,-2.038177,20.679173,-23.608006,74.697517,-25.071966
4.025000,-42.532284,-2.033613,24.427843,-24.135897,84.903145,-25.816460
4.031250,-57.943314,-2.029558,29.175488,-24.620663,93.278618,-26.575645
4.037500,-71.633492,-2.026119,31.554201,-25.041561,98.942711,-27.295065
4.043750,-83.265175,-2.023947,33.605118,-25.386036,102.186592,-27.945065
4.050000,-92.599869,-2.023144,35.183315,-25.653727,103.409431,-28.508736
4.056250,-99.509483,-2.022786,36.218632,-25.835613,103.137077,-28.976349
4.062500,-103.991409,-2.022205,36.787476,-25.913946,100.171371,-29.314978
4.068750,-106.173561,-2.022375,36.838177,-25.905743,96.913750,-29.510815
4.075000,-106.298019,-2.024542,36.387020,-25.828022,93.421051,-29.571495
4.081250,-104.698929,-2.028025,35.615402,-25.694315,89.921906,-29.501204
4.087500,-101.793091,-2.031371,34.778355,-25.513416,84.576530,-29.300940
4.093750,-98.073006,-2.034040,34.178722,-25.294102,79.111206,-28.977079
4.100000,-94.080528,-2.036955,32.236221,-25.050901,73.381927,-28.550482
4.106250,-88.197296,-2.040778,30.945547,-24.789089,67.289047,-28.059977
4.112500,-82.314423,-2.045150,30.211180,-24.499607,60.912296,-27.463390
4.118750,-76.428314,-2.049746,29.774063,-24.198927,54.427963,-26.796782
4.125000,-70.540588,-2.054953,29.341482,-23.902491,47.565144,-26.100733
4.131250,-64.651749,-2.060721,28.745241,-23.619173,40.473293,-25.405630
4.137500,-58.758389,-2.066557,27.870161,-23.352425,33.349972,-24.734510
4.143750,-52.858860,-2.072034,26.629791,-23.101112,26.410316,-24.104918
4.150000,-46.956505,-2.077445,24.941259,-22.864307,19.842245,-23.529835
4.156250,-41.053921,-2.083199,24.898550,-22.638187,13.821178,-23.009634
4.162500,-35.149853,-2.089240,25.093185,-22.412905,8.493067,-22.557354
4.168750,-29.242294,-2.095307,24.105175,-22.176228,5.571024,-22.175444
4.175000,-23.330963,-2.101456,23.802521,-21.947792,2.480118,-21.861902
4.181250,-17.415413,-2.107452,23.987129,-21.732134,0.941804,-21.609674
4.187500,-11.495608,-2.113086,24.460207,-21.534590,0.839490,-21.359938
4.193750,-5.570904,-2.118306,24.999802,-21.360758,2.217800,-21.220011
4.200000,0.357858,-2.122936,25.375212,-21.218267,3.180019,-21.163921
4.206250,6.290175,-2.126662,25.371048,-21.114693,4.395457,-21.169773
4.212500,12.225161,-2.129308,24.824142,-21.046846,6.893580,-21.194160
4.218750,18.159075,-2.131193,25.796612,-21.003923,8.441635,-21.241911
4.225000,24.089142,-2.132870,24.881277,-20.981699,9.037656,-21.313437
4.231250,30.015579,-2.134470,24.053629,-20.968992,8.533258,-21.394764
4.237500,35.939575,-2.135854,23.108826,-20.965090,6.760035,-21.463486
4.243750,41.861591,-2.137048,21.712557,-20.986490,5.635410,-21.528740
4.250000,47.781857,-2.137934,19.702387,-21.018417,3.539160,-21.589893
4.256250,53.700157,-2.138463,16.935778,-21.043152,0.995664,-21.630718
4.262500,59.614044,-2.139078,13.178449,-21.046083,-1.582770,-21.640062
4.268750,65.520569,-2.140512,8.232633,-21.016752,-3.841624,-21.607420
4.275000,71.420319,-2.143153,1.919224,-20.947824,-5.467875,-21.525867
4.281250,77.319412,-2.146453,-3.757160,-20.827059,-6.189210,-21.383175
4.287500,83.220573,-2.150110,-10.324593,-20.651384,-5.808252,-21.150249
4.293750,89.121048,-2.154916,-17.528624,-20.444271,-4.419591,-20.897459
4.300000,95.020523,-2.161129,-24.995834,-20.207027,-2.301624,-20.626856
4.306250,99.032059,-2.167523,-32.285435,-19.942955,0.745075,-20.336052
4.312500,102.781952,-2.173053,-39.078686,-19.662956,4.511998,-20.034531
4.318750,105.732925,-2.178082,-45.105869,-19.381731,8.734443,-19.735758
4.325000,107.384850,-2.183597,-50.165390,-19.120300,13.108115,-19.457394
4.331250,107.313103,-2.189490,-54.111488,-18.901842,17.321726,-19.214163
4.337500,105.183807,-2.194687,-56.846371,-18.773415,21.104040,-19.008572
4.343750,100.760681,-2.198686,-58.388569,-18.647043,24.231899,-18.785570
4.350000,93.917816,-2.201832,-57.742435,-18.591906,26.237932,-18.665447
4.356250,84.653168,-2.203888,-55.795807,-18.643639,28.781723,-18.630445
4.362500,73.088814,-2.204359,-52.352970,-18.801897,30.626762,-18.691269
4.368750,59.459461,-2.203631,-47.500286,-19.058275,32.124393,-18.874231
4.375000,44.099361,-2.202523,-41.442616,-19.399836,33.517761,-19.119694
4.381250,27.435734,-2.201000,-34.452579,-19.805279,34.868553,-19.409643
4.387500,9.965300,-2.198337,-26.852455,-20.248243,36.973942,-19.751055
4.393750,-7.780698,-2.194809,-19.055719,-20.712179,38.156418,-20.171902
4.400000,-25.263115,-2.191596,-11.520749,-21.184233,39.981689,-20.648041
4.406250,-41.948639,-2.188858,-2.452846,-21.646702,42.027985,-21.153051
4.412500,-57.339760,-2.185738,4.567243,-22.085909,44.005222,-21.668114
4.418750,-71.007812,-2.182345,11.382082,-22.496542,45.698997,-22.179943
4.425000,-82.617996,-2.179591,17.822134,-22.816563,47.025173,-22.640862
4.431250,-91.934059,-2.177896,23.713469,-23.045437,47.997009,-23.022856
4.437500,-98.828751,-2.176505,28.666302,-23.195223,48.382149,-23.322197
4.443750,-103.299271,-2.175284,32.635124,-23.273500,48.178719,-23.532087
4.450000,-105.472206,-2.175087,35.683994,-23.281878,47.515648,-23.645187
4.456250,-105.584839,-2.176374,37.943569,-23.225021,46.561558,-23.660044
4.462500,-103.972092,-2.178327,39.614208,-23.113155,45.497211,-23.582516
4.468750,-101.056992,-2.180588,40.984184,-22.965643,44.544556,-23.434517
4.475000,-97.334511,-2.183595,40.538521,-22.781338,43.999279,-23.202351
4.481250,-93.338829,-2.187412,40.441692,-22.553112,42.584869,-22.872257
4.487500,-87.443382,-2.191223,40.357689,-22.313208,41.833908,-22.490280
4.493750,-81.542488,-2.194710,40.093433,-22.083197,41.443886,-22.086195
4.500000,-75.642685,-2.199041,39.582767,-21.873922,41.197128,-21.681549
4.506250,-69.745964,-2.204991,38.801380,-21.686220,40.883190,-21.290960
4.512500,-63.844376,-2.211379,37.742165,-21.507420,40.284367,-20.923908
4.518750,-57.930168,-2.216687,36.404507,-21.283443,39.154812,-20.590492
4.525000,-52.007172,-2.221109,34.813389,-21.098150,37.178478,-20.325182
4.531250,-46.084900,-2.225755,34.062595,-20.960672,33.910152,-20.118235
4.537500,-40.164989,-2.231018,33.634304,-20.827782,30.707548,-19.945793
4.543750,-34.239544,-2.236100,32.129177,-20.688208,26.067339,-19.819366
4.550000,-28.305796,-2.240228,31.265747,-20.568495,20.321943,-19.714993
4.556250,-22.366661,-2.243456,30.755964,-20.491125,13.881414,-19.692945
4.562500,-16.426079,-2.246191,30.380495,-20.475372,7.443544,-19.769156
4.568750,-10.484381,-2.248426,29.913933,-20.547709,0.992025,-19.941586
4.575000,-4.540250,-2.249871,29.132719,-20.764614,-5.292330,-20.157747
4.581250,1.407333,-2.250160,27.840096,-21.047731,-11.092258,-20.428297
4.587500,7.355719,-2.249214,24.785784,-21.414930,-15.901069,-20.766056
4.593750,13.302454,-2.247360,22.837433,-21.887253,-19.540447,-21.163719
4.600000,19.245268,-2.244737,20.123571,-22.467758,-21.957838,-21.600538
4.606250,25.184368,-2.241095,16.514339,-23.220055,-23.296408,-22.087988
4.612500,31.118975,-2.236486,12.961103,-24.011791,-23.832512,-22.616663
4.618750,37.044289,-2.231962,8.784412,-24.875078,-23.633747,-23.164654
4.625000,42.957314,-2.228209,4.348859,-25.790474,-22.980669,-23.715942
4.631250,48.864506,-2.224652,-0.056197,-26.724386,-22.196692,-24.257401
4.637500,54.770382,-2.220237,-4.167778,-27.633751,-21.646660,-24.771381
4.643750,60.671722,-2.215547,-7.739027,-28.465637,-21.692503,-25.223465
4.650000,66.559845,-2.212076,-12.464610,-29.159409,-22.684809,-25.566036
4.656250,72.433441,-2.210624,-14.482730,-29.686691,-25.004967,-25.805967
4.662500,78.301300,-2.210778,-15.841898,-30.039806,-27.222229,-25.965151
4.668750,84.168152,-2.212164,-16.413694,-30.188219,-30.718784,-26.016901
4.675000,90.034668,-2.215005,-16.222593,-30.119444,-35.254845,-25.953236
4.681250,94.007133,-2.219198,-15.401927,-29.836220,-40.622196,-25.774836
4.687500,97.710831,-2.224047,-14.156557,-29.362104,-46.595783,-25.492886
4.693750,100.612167,-2.229828,-12.733178,-28.735098,-52.907391,-25.119154
4.700000,102.215660,-2.237540,-11.427055,-27.984015,-59.212456,-24.656164
4.706250,102.096878,-2.246956,-10.726849,-27.112782,-65.142555,-24.096432
4.712500,99.926308,-2.256255,-10.874072,-26.163324,-70.263252,-23.491346
4.718750,95.470764,-2.264254,-12.212412,-25.211258,-75.981728,-22.898966
