Anritsu VNA Frequency[GHz],S21[deg],S21[dB],S11[deg],S11[dB],S22[deg],S22[dB]
1338120402.75,2012_05_27_13:06:42,+40.690,+10.224,+55.333,+10.240,+13.880,+13.688,+13.986,+13.735,10.333986,-15.840
3.006250,34.354801,-1.754255,59.501492,-26.658689,-79.698433,-27.441357
3.012500,34.354801,-1.754255,59.501492,-26.658689,-79.698433,-27.441357
3.018750,34.354801,-1.754255,59.501492,-26.658689,-79.698433,-27.441357
3.025000,34.354801,-1.754255,59.501492,-26.658689,-79.698433,-27.441357
3.031250,34.354801,-1.754255,59.501492,-26.658689,-79.698433,-27.441357
3.037500,34.354801,-1.754255,59.501492,-26.658689,-79.698433,-27.441357
3.043750,34.354801,-1.754255,59.501492,-26.658689,-79.698433,-27.441357
3.050000,34.354801,-1.754255,59.501492,-26.658689,-79.698433,-27.441357
3.056250,34.354801,-1.754255,59.501492,-26.658689,-79.698433,-27.441357
3.062500,34.354801,-1.754255,59.501492,-26.658689,-79.698433,-27.441357
3.068750,34.354801,-1.754255,59.501492,-26.658689,-79.698433,-27.441357
3.075000,34.354801,-1.754255,59.501492,-26.658689,-79.698433,-27.441357
3.081250,34.354801,-1.754255,59.501492,-26.658689,-79.698433,-27.441357
3.087500,34.354801,-1.754255,59.501492,-26.658689,-79.698433,-27.441357
3.093750,34.354801,-1.755926,59.501492,-26.455303,-79.698433,-27.188702
3.100000,40.262157,-1.757908,56.806950,-26.300505,-81.723907,-26.954121
3.106250,46.169544,-1.759920,53.226711,-26.216625,-82.133804,-26.739277
3.112500,52.077427,-1.761975,49.131824,-26.224977,-80.566193,-26.517479
3.118750,57.984982,-1.764228,43.120655,-26.266481,-78.855927,-26.214895
3.125000,63.891182,-1.766648,38.318382,-26.308517,-74.832130,-25.953066
3.131250,69.797142,-1.769129,33.921764,-26.377945,-68.675850,-25.665298
3.137500,75.701904,-1.772009,30.198128,-26.475807,-60.798649,-25.340973
3.143750,81.605171,-1.775433,27.355078,-26.593891,-51.383793,-24.988317
3.150000,87.509483,-1.779160,25.574829,-26.717955,-40.587509,-24.619650
3.156250,93.416893,-1.782693,24.974030,-26.833536,-28.583855,-24.253597
3.162500,97.431877,-1.785953,25.619959,-26.927111,-15.572631,-23.913839
3.168750,101.173599,-1.789295,27.530478,-26.991678,-3.656877,-23.648771
3.175000,104.108810,-1.792898,30.747507,-27.004475,8.622201,-23.403837
3.181250,105.746735,-1.796623,33.513630,-26.952637,21.140368,-23.182085
3.187500,105.662346,-1.800211,37.298683,-26.853865,32.620827,-23.013784
3.193750,103.514488,-1.803488,41.397541,-26.720060,42.636215,-22.915739
3.200000,99.065170,-1.806471,45.236095,-26.559439,50.851959,-22.891506
3.206250,92.192894,-1.809042,48.333649,-26.381886,56.988274,-22.940971
3.212500,82.895676,-1.811460,50.271450,-26.201338,60.848877,-23.072233
3.218750,71.294350,-1.814079,50.736889,-26.027735,62.332264,-23.267536
3.225000,57.626675,-1.816571,51.730850,-25.855021,61.181995,-23.472160
3.231250,42.236050,-1.818535,51.788116,-25.683622,57.687714,-23.694872
3.237500,25.547628,-1.820164,49.423157,-25.514116,53.958549,-23.927027
3.243750,8.049804,-1.822097,46.745441,-25.323404,48.496128,-24.146225
3.250000,-9.724990,-1.824610,43.623093,-25.151384,41.970032,-24.333439
3.256250,-27.226229,-1.827272,39.701691,-25.011353,34.973797,-24.487349
3.262500,-43.918884,-1.829567,35.215054,-24.886803,28.152998,-24.597073
3.268750,-59.312363,-1.831521,30.107784,-24.773542,22.189848,-24.653515
3.275000,-72.982559,-1.833586,24.254826,-24.670387,17.627831,-24.657038
3.281250,-84.589584,-1.836043,17.550398,-24.568382,14.906546,-24.614010
3.287500,-93.894562,-1.838854,9.902588,-24.454979,14.326579,-24.538788
3.293750,-100.773430,-1.841771,1.277245,-24.291826,16.036299,-24.432426
3.300000,-105.226166,-1.844574,-6.149991,-24.123531,20.081121,-24.295967
3.306250,-107.373772,-1.847120,-14.810431,-23.988197,26.320955,-24.155195
3.312500,-107.454079,-1.849450,-23.467070,-23.866486,34.454243,-24.041901
3.318750,-105.808563,-1.851628,-31.837038,-23.765669,44.098400,-23.976635
3.325000,-102.864586,-1.853666,-39.656780,-23.703297,54.807014,-23.970774
3.331250,-99.114120,-1.855357,-46.664806,-23.705973,66.060066,-24.027119
3.337500,-95.089806,-1.856656,-52.677929,-23.844103,77.280975,-24.143660
3.343750,-89.170677,-1.857624,-57.740753,-24.001802,87.891136,-24.306463
3.350000,-83.252075,-1.858250,-62.173958,-24.223822,97.641068,-24.460539
3.356250,-77.334427,-1.858558,-65.610451,-24.551323,106.246094,-24.658167
3.362500,-71.418678,-1.858710,-66.342979,-25.005493,112.506187,-24.907700
3.368750,-65.504921,-1.858604,-66.007919,-25.567104,116.544434,-25.198090
3.375000,-59.592022,-1.857933,-64.482124,-26.208965,117.962067,-25.572304
3.381250,-53.680988,-1.856863,-61.778381,-26.896275,116.579147,-25.908504
3.387500,-47.775902,-1.856160,-57.989887,-27.590525,113.052170,-26.232208
3.393750,-41.877281,-1.856252,-53.275517,-28.246767,106.802094,-26.535936
3.400000,-35.980839,-1.856712,-47.855671,-28.822186,98.393982,-26.811924
3.406250,-30.082872,-1.856990,-42.063263,-29.295473,88.835274,-27.091511
3.412500,-24.185297,-1.857358,-36.222065,-29.641182,78.788712,-27.340349
3.418750,-18.292368,-1.858634,-28.400002,-29.837437,66.896027,-27.537117
3.425000,-12.402442,-1.860860,-22.138123,-29.880018,55.447777,-27.675600
3.431250,-6.509390,-1.863209,-15.585073,-29.783873,44.876495,-27.761950
3.437500,-0.612189,-1.865427,-8.995205,-29.533831,35.639034,-27.800133
3.443750,5.284773,-1.868275,-2.392302,-29.127378,28.417542,-27.738195
3.450000,11.180394,-1.872084,3.706000,-28.610617,21.493050,-27.605452
3.456250,17.080183,-1.876059,9.137028,-28.023355,16.646173,-27.414864
3.462500,22.988445,-1.879422,13.892579,-27.409016,13.584089,-27.169979
3.468750,28.902037,-1.882173,18.055710,-26.814142,11.988570,-26.867489
3.475000,34.815899,-1.884646,21.734016,-26.304821,11.515970,-26.522627
3.481250,40.729156,-1.887018,25.186352,-25.832315,11.768720,-26.150091
3.487500,46.641735,-1.889441,27.150023,-25.428823,12.379064,-25.745663
3.493750,52.552795,-1.892257,29.007347,-25.130138,12.913151,-25.315809
3.500000,58.463070,-1.895555,30.586710,-24.941893,12.935581,-24.873030
3.506250,64.376045,-1.898661,31.786341,-24.849464,12.114225,-24.427118
3.512500,70.293419,-1.900948,32.509472,-24.817572,10.178363,-23.987257
3.518750,76.210594,-1.903014,32.725616,-24.748960,6.923095,-23.558769
3.525000,82.121613,-1.905978,32.641071,-24.737787,2.193244,-23.147377
3.531250,88.027901,-1.910041,32.766338,-24.728167,-1.982481,-22.767698
3.537500,93.936546,-1.914386,32.771656,-24.685219,-7.067591,-22.435852
3.543750,97.955833,-1.918403,32.911037,-24.599415,-12.633592,-22.147181
3.550000,101.704399,-1.922570,33.519268,-24.444342,-18.399977,-21.865604
3.556250,104.646446,-1.927433,33.038818,-24.220644,-23.889273,-21.540386
3.562500,106.292969,-1.932562,33.171326,-23.958397,-28.799561,-21.298613
3.568750,106.223457,-1.936887,33.578960,-23.683956,-31.942795,-21.127573
3.575000,104.097588,-1.939824,33.984097,-23.424391,-34.303398,-21.028090
3.581250,99.672585,-1.941642,34.101620,-23.214031,-35.617653,-21.014345
3.587500,92.821983,-1.943014,33.672462,-23.090187,-35.898666,-21.046127
3.593750,83.545700,-1.943980,32.591663,-23.040577,-35.029255,-21.145540
3.600000,71.969620,-1.943875,30.802814,-23.077892,-32.849548,-21.327755
3.606250,58.331345,-1.942369,30.142639,-23.215460,-29.516359,-21.586725
3.612500,42.966137,-1.940020,29.164955,-23.439997,-25.304434,-21.896017
3.618750,26.297661,-1.937253,28.280233,-23.768030,-20.612562,-22.230190
3.625000,8.820060,-1.933834,27.603004,-24.211740,-16.222958,-22.631866
3.631250,-8.932828,-1.929573,27.735874,-24.733385,-10.335061,-23.063873
3.637500,-26.417685,-1.924972,28.983292,-25.296610,-4.673517,-23.497709
3.643750,-43.106045,-1.920729,31.478575,-25.864408,0.738744,-23.913469
3.650000,-58.505013,-1.917109,33.362606,-26.391407,5.817777,-24.293919
3.656250,-72.184052,-1.914128,36.195065,-26.801922,10.471086,-24.622232
3.662500,-83.801506,-1.911887,39.151688,-27.142906,14.601462,-24.894276
3.668750,-93.119919,-1.910553,43.148846,-27.391411,18.069036,-25.115782
3.675000,-100.015526,-1.909861,46.510906,-27.519087,20.790932,-25.285959
3.681250,-104.486053,-1.909321,48.965088,-27.523293,22.712215,-25.402933
3.687500,-106.654701,-1.909209,50.269825,-27.416988,23.755417,-25.469578
3.693750,-106.761887,-1.910383,50.274567,-27.226130,23.867466,-25.495235
3.700000,-105.146278,-1.912719,48.984791,-26.956057,23.052780,-25.491100
3.706250,-102.228592,-1.915220,46.552048,-26.625044,21.444609,-25.449503
3.712500,-98.499207,-1.917503,42.965542,-26.272148,19.265844,-25.363815
3.718750,-94.496292,-1.920100,36.520523,-25.924612,16.661760,-25.239431
3.725000,-88.600212,-1.923348,29.140734,-25.599060,13.963821,-25.092314
3.731250,-82.702179,-1.926640,20.556826,-25.339636,11.778114,-24.960213
3.737500,-76.799217,-1.929462,12.706471,-25.170237,10.520191,-24.855814
3.743750,-70.893845,-1.932047,4.345487,-25.076958,10.599652,-24.801390
3.750000,-64.989899,-1.934714,-3.977353,-25.047676,10.612274,-24.712406
3.756250,-59.087303,-1.937306,-11.865108,-25.078394,10.541567,-24.608545
3.762500,-53.183903,-1.939716,-18.892786,-25.148106,11.711190,-24.490376
3.768750,-47.280571,-1.942106,-24.619011,-25.219250,13.857885,-24.406628
3.775000,-41.378937,-1.944829,-28.816290,-25.304985,16.533234,-24.346491
3.781250,-35.477623,-1.947603,-31.381035,-25.391733,19.133007,-24.293953
3.787500,-29.575035,-1.950121,-31.946894,-25.459888,21.292135,-24.242090
3.793750,-23.672689,-1.952688,-30.434019,-25.524956,22.700916,-24.194363
3.800000,-17.772120,-1.955705,-28.768656,-25.527369,23.164810,-24.143284
3.806250,-11.872205,-1.959040,-24.595240,-25.443722,22.697666,-24.052958
3.812500,-5.970915,-1.962520,-19.438208,-25.313381,21.165499,-23.930893
3.818750,-0.069023,-1.966396,-13.838491,-25.153555,18.455122,-23.787983
3.825000,5.833372,-1.970581,-8.328117,-24.978096,14.698099,-23.630848
3.831250,11.740120,-1.974464,-1.259743,-24.801743,10.154873,-23.470757
3.837500,17.650831,-1.977765,5.551141,-24.638191,5.154113,-23.344179
3.843750,23.561117,-1.981144,12.257582,-24.482821,0.033762,-23.206861
3.850000,29.468616,-1.985043,17.170519,-24.329315,-5.889884,-23.039585
3.856250,35.377125,-1.988768,21.971067,-24.187201,-11.428799,-22.882246
3.862500,41.289967,-1.991709,26.236147,-24.054575,-16.563944,-22.743774
3.868750,47.202240,-1.994529,29.633535,-23.918148,-21.273319,-22.621561
3.875000,53.107967,-1.998381,31.844767,-23.756149,-25.579786,-22.504417
3.881250,59.009464,-2.003464,32.516563,-23.574467,-29.551607,-22.376326
3.887500,64.914497,-2.008695,31.256182,-23.375196,-33.372753,-22.241962
3.893750,70.826103,-2.013438,27.989946,-23.140652,-37.303856,-22.106731
3.900000,76.739288,-2.018433,24.793949,-22.860794,-41.471188,-21.962708
3.906250,82.649597,-2.024509,20.219790,-22.535215,-44.176537,-21.807781
3.912500,88.560074,-2.031600,14.735102,-22.165655,-47.290104,-21.638035
3.918750,94.476898,-2.039114,8.806647,-21.759623,-50.523674,-21.439953
3.925000,98.507492,-2.046413,2.801887,-21.344374,-53.631348,-21.186668
3.931250,102.273262,-2.053343,-2.933710,-20.946583,-56.678738,-20.966978
3.937500,105.240219,-2.059874,-7.971755,-20.585640,-57.469254,-20.778034
3.943750,106.915466,-2.065743,-11.988249,-20.284624,-57.077511,-20.627628
3.950000,106.872910,-2.070511,-14.762476,-20.065651,-55.037766,-20.529732
3.956250,104.772072,-2.073610,-16.169752,-19.946814,-50.996532,-20.499777
3.962500,100.372536,-2.074983,-16.151699,-19.938053,-44.705231,-20.549644
3.968750,93.548950,-2.074958,-14.704387,-20.036270,-36.024178,-20.687883
3.975000,84.298904,-2.073604,-13.774371,-20.205896,-24.960165,-20.925501
3.981250,72.742668,-2.070960,-9.672644,-20.501040,-11.678956,-21.291559
3.987500,59.116192,-2.067195,-5.315438,-20.901598,2.203625,-21.698824
3.993750,43.757935,-2.062644,-0.024404,-21.365128,17.360029,-22.209183
4.000000,27.093786,-2.057413,5.563313,-21.886688,32.978584,-22.829128
4.006250,9.616654,-2.051548,11.092447,-22.450554,48.189751,-23.590267
4.012500,-8.143097,-2.045501,16.296923,-23.028513,61.930172,-24.350607
4.018750,-25.641809,-2.040154,20.923872,-23.587677,74.870949,-25.086002
4.025000,-42.345390,-2.035735,24.686602,-24.112965,85.072327,-25.830696
4.031250,-57.756950,-2.031773,29.449865,-24.594984,93.437996,-26.590185
4.037500,-71.447540,-2.028363,31.843449,-25.013281,99.098000,-27.309933
4.043750,-83.079544,-2.026201,33.908978,-25.355221,102.338310,-27.960196
4.050000,-92.414551,-2.025413,35.500675,-25.621033,103.555946,-28.524031
4.056250,-99.324463,-2.024983,36.549007,-25.801523,103.278557,-28.991497
4.062500,-103.806633,-2.024312,37.130585,-25.879047,100.306648,-29.330158
4.068750,-105.988914,-2.024406,37.189411,-25.870537,97.044418,-29.525742
4.075000,-106.113670,-2.026423,36.741989,-25.793240,93.547729,-29.586138
4.081250,-104.514687,-2.029765,35.971310,-25.660662,90.043343,-29.515474
4.087500,-101.609474,-2.032905,35.132324,-25.481588,84.692917,-29.315210
4.093750,-97.889709,-2.035425,34.529495,-25.264751,79.224625,-28.991016
4.100000,-93.897644,-2.038178,32.583607,-25.024580,73.492462,-28.563797
4.106250,-88.014542,-2.041837,31.290884,-24.765949,67.396530,-28.073174
4.112500,-82.131935,-2.046048,30.549961,-24.479712,61.018356,-27.476770
4.118750,-76.246086,-2.050559,30.103355,-24.182024,54.532085,-26.809984
4.125000,-70.358406,-2.055679,29.661989,-23.888111,47.670406,-26.113791
4.131250,-64.469406,-2.061418,29.056822,-23.606768,40.581295,-25.418375
4.137500,-58.575817,-2.067196,28.174765,-23.341284,33.462719,-24.747019
4.143750,-52.675583,-2.072690,26.930502,-23.090593,26.527899,-24.117517
4.150000,-46.772327,-2.078107,25.238201,-22.853807,19.965969,-23.542744
4.156250,-40.868683,-2.083923,25.192867,-22.627602,13.952405,-23.023127
4.162500,-34.963478,-2.090031,25.387106,-22.400244,8.632372,-22.570841
4.168750,-29.054777,-2.096232,24.394260,-22.162497,5.718069,-22.188768
4.175000,-23.142212,-2.102482,24.090075,-21.931963,2.635424,-21.875263
4.181250,-17.225670,-2.108645,24.271294,-21.714327,1.102588,-21.623781
4.187500,-11.304365,-2.114406,24.742302,-21.513981,1.005527,-21.374008
4.193750,-5.378688,-2.119806,25.278212,-21.337259,2.391490,-21.234289
4.200000,0.550860,-2.124636,25.648771,-21.192293,3.355598,-21.178310
4.206250,6.483708,-2.128517,25.638868,-21.086279,4.571939,-21.184464
4.212500,12.419025,-2.131288,25.086157,-21.016487,7.071673,-21.208975
4.218750,18.353069,-2.133350,26.052032,-20.971861,8.618427,-21.256702
4.225000,24.283142,-2.135188,25.129019,-20.948515,9.209989,-21.328024
4.231250,30.209555,-2.136902,24.294449,-20.934845,8.702358,-21.408976
4.237500,36.133160,-2.138414,23.341070,-20.930683,6.926003,-21.477303
4.243750,42.054783,-2.139694,21.933182,-20.952042,5.800229,-21.541737
4.250000,47.974503,-2.140642,19.911137,-20.984392,3.701994,-21.602045
4.256250,53.892422,-2.141193,17.132486,-21.009735,1.157144,-21.641790
4.262500,59.806129,-2.141798,13.364683,-21.013641,-1.419678,-21.649908
4.268750,65.712753,-2.143262,8.409164,-20.985514,-3.675363,-21.616278
4.275000,71.612617,-2.145823,2.087631,-20.918118,-5.297610,-21.533695
4.281250,77.511971,-2.149039,-3.595284,-20.799038,-6.013566,-21.390011
4.287500,83.413193,-2.152645,-10.171511,-20.625309,-5.627373,-21.155897
4.293750,89.314102,-2.157371,-17.381594,-20.419756,-4.231089,-20.901896
4.300000,95.214195,-2.163441,-24.852495,-20.184080,-2.105685,-20.630600
4.306250,99.226265,-2.169722,-32.143055,-19.921717,0.948941,-20.339283
4.312500,102.977066,-2.175110,-38.936378,-19.643452,4.723669,-20.037590
4.318750,105.928978,-2.180031,-44.961601,-19.363710,8.952669,-19.738806
4.325000,107.581932,-2.185420,-50.018486,-19.103453,13.331539,-19.460732
4.331250,107.510925,-2.191205,-53.961311,-18.885935,17.549200,-19.218090
4.337500,105.382294,-2.196296,-56.694439,-18.756845,21.333408,-19.013355
4.343750,100.960213,-2.200247,-58.234756,-18.632551,24.462486,-18.790159
4.350000,94.118256,-2.203271,-57.585827,-18.577913,26.468801,-18.671141
4.356250,84.854317,-2.205257,-55.641800,-18.629740,29.011435,-18.636734
4.362500,73.290947,-2.205635,-52.202766,-18.787485,30.855108,-18.697823
4.368750,59.662296,-2.204874,-47.355843,-19.043257,32.350742,-18.880461
4.375000,44.303001,-2.203696,-41.305565,-19.384100,33.747120,-19.126276
4.381250,27.640009,-2.202089,-34.325150,-19.788904,35.097054,-19.416155
4.387500,10.170186,-2.199321,-26.736176,-20.231176,37.201996,-19.756756
4.393750,-7.575314,-2.195754,-18.950485,-20.694262,38.386883,-20.176716
4.400000,-25.057207,-2.192460,-11.427948,-21.165627,40.216835,-20.651676
4.406250,-41.742615,-2.189642,-2.370093,-21.627312,42.271717,-21.155251
4.412500,-57.133476,-2.186447,4.640152,-22.065973,44.259399,-21.668663
4.418750,-70.801582,-2.183008,11.447864,-22.475729,45.964790,-22.178869
4.425000,-82.411842,-2.180210,17.881308,-22.795389,47.304695,-22.638107
4.431250,-91.727936,-2.178445,23.770885,-23.024244,48.291023,-23.018417
4.437500,-98.622650,-2.177101,28.724794,-23.174314,48.690247,-23.316469
4.443750,-103.093620,-2.175901,32.695435,-23.252909,48.499485,-23.525429
4.450000,-105.266518,-2.175685,35.748680,-23.261715,47.847012,-23.637547
4.456250,-105.379723,-2.177040,38.012997,-23.205254,46.901810,-23.651525
4.462500,-103.767189,-2.179122,39.689804,-23.093847,45.843830,-23.573355
4.468750,-100.851959,-2.181489,41.067692,-22.946733,44.894535,-23.425179
4.475000,-97.129494,-2.184641,40.629120,-22.762728,44.345596,-23.193596
4.481250,-93.133690,-2.188627,40.539417,-22.535032,42.925896,-22.863670
4.487500,-87.238220,-2.192618,40.461521,-22.295271,42.165363,-22.482199
4.493750,-81.336891,-2.196316,40.203461,-22.065042,41.762215,-22.078787
4.500000,-75.436539,-2.200857,39.697102,-21.855394,41.498756,-21.674953
4.506250,-69.539520,-2.206992,38.917934,-21.667177,41.165169,-21.285393
4.512500,-63.637119,-2.213568,37.859596,-21.487730,40.545330,-20.919361
4.518750,-57.722408,-2.219092,36.523132,-21.264484,39.393703,-20.586472
4.525000,-51.798935,-2.223651,34.930004,-21.076899,37.397133,-20.321848
4.531250,-45.876221,-2.228482,34.176029,-20.938267,34.115364,-20.116001
4.537500,-39.955761,-2.233866,33.748283,-20.804272,30.898243,-19.944197
4.543750,-34.029938,-2.239078,32.239292,-20.663492,26.248104,-19.818132
4.550000,-28.095985,-2.243248,31.375402,-20.542515,20.495850,-19.714788
4.556250,-22.156786,-2.246542,30.863558,-20.464127,14.046780,-19.692871
4.562500,-16.216166,-2.249284,30.486322,-20.447264,7.611186,-19.769922
4.568750,-10.274785,-2.251532,30.019484,-20.517937,1.165373,-19.943094
4.575000,-4.330907,-2.252939,29.231024,-20.733566,-5.118119,-20.159922
4.581250,1.616257,-2.253205,27.921196,-21.015749,-10.909614,-20.431208
4.587500,7.564081,-2.252235,24.866951,-21.383091,-15.708614,-20.769783
4.593750,13.510251,-2.250356,22.910839,-21.855581,-19.338982,-21.168066
4.600000,19.452648,-2.247677,20.179417,-22.435232,-21.751211,-21.605589
4.606250,25.391184,-2.243982,16.552315,-23.194984,-23.087681,-22.093941
4.612500,31.325308,-2.239368,12.989671,-23.989325,-23.621416,-22.623741
4.618750,37.250046,-2.234784,8.790027,-24.857285,-23.420341,-23.172321
4.625000,43.162617,-2.231002,4.331948,-25.779175,-22.768377,-23.724283
4.631250,49.069107,-2.227408,-0.095335,-26.720869,-21.989119,-24.266239
4.637500,54.974785,-2.222955,-4.227046,-27.639250,-21.446091,-24.780834
4.643750,60.875557,-2.218177,-7.815277,-28.481119,-21.501188,-25.233221
4.650000,66.763344,-2.214670,-12.554743,-29.185093,-22.504423,-25.575968
4.656250,72.636719,-2.213158,-14.581227,-29.722551,-24.830906,-25.815454
4.662500,78.504219,-2.213210,-15.943697,-30.084869,-27.056318,-25.974491
4.668750,84.371063,-2.214485,-16.514128,-30.241434,-30.560024,-26.026031
4.675000,90.237320,-2.217213,-16.316521,-30.179232,-35.100643,-25.961882
4.681250,94.209366,-2.221250,-15.484102,-29.900936,-40.470112,-25.782824
4.687500,97.912994,-2.225975,-14.221251,-29.429785,-46.442722,-25.500040
4.693750,100.814148,-2.231618,-12.777715,-28.803905,-52.750702,-25.125793
4.700000,102.417480,-2.239181,-11.451136,-28.050594,-59.047039,-24.662397
4.706250,102.298607,-2.248495,-10.723194,-27.176531,-64.966026,-24.102379
4.712500,100.127945,-2.257701,-10.842706,-26.222374,-70.078445,-23.496359
4.718750,95.672119,-2.265672,-12.154229,-25.264303,-75.784760,-22.903397
