Anritsu VNA Frequency[GHz],S21[deg],S21[dB],S11[deg],S11[dB],S22[deg],S22[dB]
1338087391.33,2012_05_27_03:56:31,+40.620,+10.254,+55.057,+10.269,+13.913,+13.723,+14.018,+13.769,10.367659,-16.634
3.006250,33.429813,-1.745785,58.688568,-26.670080,-80.820786,-27.436470
3.012500,33.429813,-1.745785,58.688568,-26.670080,-80.820786,-27.436470
3.018750,33.429813,-1.745785,58.688568,-26.670080,-80.820786,-27.436470
3.025000,33.429813,-1.745785,58.688568,-26.670080,-80.820786,-27.436470
3.031250,33.429813,-1.745785,58.688568,-26.670080,-80.820786,-27.436470
3.037500,33.429813,-1.745785,58.688568,-26.670080,-80.820786,-27.436470
3.043750,33.429813,-1.745785,58.688568,-26.670080,-80.820786,-27.436470
3.050000,33.429813,-1.745785,58.688568,-26.670080,-80.820786,-27.436470
3.056250,33.429813,-1.745785,58.688568,-26.670080,-80.820786,-27.436470
3.062500,33.429813,-1.745785,58.688568,-26.670080,-80.820786,-27.436470
3.068750,33.429813,-1.745785,58.688568,-26.670080,-80.820786,-27.436470
3.075000,33.429813,-1.745785,58.688568,-26.670080,-80.820786,-27.436470
3.081250,33.429813,-1.745785,58.688568,-26.670080,-80.820786,-27.436470
3.087500,33.429813,-1.745785,58.688568,-26.670080,-80.820786,-27.436470
3.093750,33.429813,-1.747700,58.688568,-26.470633,-80.820786,-27.183216
3.100000,39.334927,-1.749848,56.017387,-26.321924,-82.803925,-26.948627
3.106250,45.240269,-1.751983,52.467686,-26.245993,-83.178024,-26.733974
3.112500,51.146378,-1.754174,48.393585,-26.261982,-81.587807,-26.511263
3.118750,57.051922,-1.756530,42.395905,-26.308405,-79.870171,-26.208347
3.125000,62.956432,-1.759006,37.596581,-26.355949,-75.801193,-25.947098
3.131250,68.860870,-1.761566,33.213242,-26.430590,-69.642380,-25.658651
3.137500,74.764183,-1.764443,29.502611,-26.532648,-61.761593,-25.333990
3.143750,80.666229,-1.767852,26.668907,-26.653709,-52.345932,-24.981483
3.150000,86.569145,-1.771539,24.892313,-26.779005,-41.550392,-24.613579
3.156250,92.475288,-1.774995,24.291428,-26.893883,-29.546507,-24.248444
3.162500,96.488884,-1.778153,24.936369,-26.985304,-16.533527,-23.910151
3.168750,100.229530,-1.781418,26.844103,-27.045799,-2.720412,-23.647604
3.175000,103.163193,-1.785002,30.063313,-27.054514,9.834224,-23.403418
3.181250,104.800011,-1.788651,32.835514,-26.997898,23.165281,-23.182619
3.187500,104.714516,-1.792130,36.619373,-26.893389,35.948490,-23.016592
3.193750,102.565247,-1.795345,40.715263,-26.753607,47.695129,-22.920834
3.200000,98.114876,-1.798288,44.553970,-26.586657,57.983173,-22.898226
3.206250,91.241531,-1.800822,47.653023,-26.403103,66.433937,-22.949205
3.212500,81.943581,-1.803244,49.592903,-26.217030,72.729797,-23.081507
3.218750,70.341057,-1.805887,50.061649,-26.039209,76.644829,-23.277800
3.225000,56.672714,-1.808402,51.059410,-25.863386,77.806763,-23.482962
3.231250,41.281250,-1.810378,51.121948,-25.689573,76.385437,-23.705807
3.237500,24.592253,-1.812091,48.756393,-25.518063,74.385361,-23.937696
3.243750,7.093625,-1.814088,46.076279,-25.325266,70.222740,-24.156082
3.250000,-10.681815,-1.816674,42.951408,-25.152195,64.499039,-24.341986
3.256250,-28.183821,-1.819441,39.019451,-25.011015,57.770874,-24.494308
3.262500,-44.877361,-1.821805,34.523247,-24.885242,50.665421,-24.602076
3.268750,-60.271873,-1.823850,29.404264,-24.770739,43.880943,-24.656324
3.275000,-73.943207,-1.825961,23.542301,-24.666868,38.003658,-24.657436
3.281250,-85.551826,-1.828482,16.826572,-24.564581,33.537880,-24.613331
3.287500,-94.858299,-1.831336,9.163182,-24.450426,30.867266,-24.537439
3.293750,-101.739159,-1.834262,0.519717,-24.285637,30.247078,-24.429577
3.300000,-106.193886,-1.837062,-6.925721,-24.117868,31.844210,-24.291775
3.306250,-108.343819,-1.839597,-15.595862,-23.982523,35.636517,-24.150570
3.312500,-108.426407,-1.841848,-24.267872,-23.861139,41.441082,-24.037577
3.318750,-106.783241,-1.843979,-32.649811,-23.761692,48.994160,-23.973621
3.325000,-103.841949,-1.845920,-40.477932,-23.701334,57.956989,-23.968958
3.331250,-100.093674,-1.847499,-47.499729,-23.704762,67.895927,-24.026518
3.337500,-96.071953,-1.848701,-53.529285,-23.835398,78.296730,-24.144489
3.343750,-90.155197,-1.849575,-58.584724,-23.997663,88.618820,-24.308374
3.350000,-84.238945,-1.850068,-63.032677,-24.219475,96.464439,-24.462027
3.356250,-78.323418,-1.850255,-66.480919,-24.544353,105.067329,-24.660599
3.362500,-72.409981,-1.850332,-67.223228,-24.993879,111.326057,-24.909483
3.368750,-66.498474,-1.850147,-66.899780,-25.549410,115.365601,-25.198807
3.375000,-60.587234,-1.849428,-65.386711,-26.184011,116.786224,-25.575638
3.381250,-54.678188,-1.848288,-62.699173,-26.863739,115.438393,-25.908878
3.387500,-48.775326,-1.847563,-58.928963,-27.550129,111.919983,-26.231068
3.393750,-42.878735,-1.847632,-54.233624,-28.198631,105.694168,-26.533630
3.400000,-36.984158,-1.848056,-48.831169,-28.766565,97.319931,-26.808695
3.406250,-31.088520,-1.848269,-43.056129,-29.233398,87.801109,-27.087572
3.412500,-25.192896,-1.848626,-37.234116,-29.573946,77.799973,-27.335802
3.418750,-19.302221,-1.849844,-29.426310,-29.766632,65.957428,-27.532507
3.425000,-13.414455,-1.852036,-23.174040,-29.807627,54.560162,-27.671467
3.431250,-7.523595,-1.854312,-16.623407,-29.712317,44.040775,-27.758425
3.437500,-1.628469,-1.856469,-10.028585,-29.464342,34.852501,-27.797552
3.443750,4.266318,-1.859260,-3.414623,-29.062696,27.676498,-27.736605
3.450000,10.159646,-1.862954,2.699464,-28.552746,20.791410,-27.605068
3.456250,16.057104,-1.866863,8.149283,-27.972750,15.971831,-27.416227
3.462500,21.963087,-1.870114,12.930420,-27.366127,12.927497,-27.171577
3.468750,27.874077,-1.872772,17.127029,-26.779676,11.342454,-26.868744
3.475000,33.785324,-1.875177,20.846773,-26.277489,10.872356,-26.524035
3.481250,39.695831,-1.877492,24.342953,-25.812986,11.113147,-26.151913
3.487500,45.605778,-1.879843,26.346516,-25.416006,11.704184,-25.746798
3.493750,51.514175,-1.882642,28.243528,-25.121769,12.211319,-25.315895
3.500000,57.421436,-1.885892,29.857531,-24.935141,12.201729,-24.871445
3.506250,63.331734,-1.888887,31.083626,-24.841667,11.343293,-24.423758
3.512500,69.246056,-1.891098,31.831989,-24.808245,9.365705,-23.982174
3.518750,75.160652,-1.893119,32.073372,-24.746021,6.069405,-23.551828
3.525000,81.068970,-1.896026,31.979464,-24.728060,1.303399,-23.138525
3.531250,86.972717,-1.900040,32.111416,-24.713966,-2.906447,-22.757097
3.537500,92.878937,-1.904297,32.114017,-24.667225,-8.022372,-22.423792
3.543750,96.896355,-1.908223,32.244568,-24.578636,-13.614397,-22.135405
3.550000,100.643425,-1.912293,32.840805,-24.420483,-19.397686,-21.853880
3.556250,103.583733,-1.917077,32.345131,-24.194672,-24.897854,-21.524809
3.562500,105.229095,-1.922124,32.464916,-23.930635,-29.843878,-21.284185
3.568750,105.158737,-1.926338,32.859299,-23.655458,-32.991180,-21.113756
3.575000,103.032059,-1.929185,33.251232,-23.395538,-35.360950,-21.015310
3.581250,98.606148,-1.930942,33.356014,-23.185774,-36.686081,-21.001919
3.587500,91.754852,-1.932299,32.922306,-23.060865,-36.988197,-21.034817
3.593750,82.477966,-1.933243,31.830233,-23.012255,-36.132236,-21.135931
3.600000,70.901596,-1.933134,30.028986,-23.050371,-33.965855,-21.319649
3.606250,57.262894,-1.931670,29.367006,-23.189205,-30.648848,-21.580235
3.612500,41.896973,-1.929410,28.381294,-23.414333,-26.458090,-21.891314
3.618750,25.227659,-1.926733,27.478832,-23.743643,-21.786320,-22.227896
3.625000,7.749271,-1.923429,26.769562,-24.186699,-17.419346,-22.631948
3.631250,-10.004609,-1.919322,26.864878,-24.705902,-11.551196,-23.066109
3.637500,-27.490463,-1.914865,28.069454,-25.266819,-5.902862,-23.502047
3.643750,-44.180252,-1.910827,30.523691,-25.832119,-0.505596,-23.919331
3.650000,-59.580574,-1.907465,32.365097,-26.356567,4.562326,-24.301374
3.656250,-73.261093,-1.904657,35.150101,-26.766140,9.206327,-24.631500
3.662500,-84.879944,-1.902583,38.056980,-27.105104,13.336580,-24.904539
3.668750,-94.200218,-1.901451,42.012802,-27.351912,16.809324,-25.126692
3.675000,-101.097633,-1.900907,45.337505,-27.478779,19.541670,-25.297136
3.681250,-105.570099,-1.900485,47.761421,-27.482735,21.473482,-25.414116
3.687500,-107.740852,-1.900523,49.045761,-27.377161,22.529106,-25.480688
3.693750,-107.850220,-1.901820,49.044861,-27.187908,22.656782,-25.505821
3.700000,-106.237007,-1.904218,47.760773,-26.920361,21.861746,-25.500525
3.706250,-103.321648,-1.906802,45.350994,-26.592733,20.272293,-25.457287
3.712500,-99.594597,-1.909123,41.799450,-26.243958,18.109541,-25.369930
3.718750,-95.593903,-1.911744,35.399689,-25.900963,15.520096,-25.243639
3.725000,-89.700127,-1.915027,28.072277,-25.579741,12.833733,-25.093740
3.731250,-83.804276,-1.918366,19.547646,-25.324947,10.655805,-24.959354
3.737500,-77.903282,-1.921209,11.759606,-25.159744,9.402242,-24.852589
3.743750,-72.000130,-1.923808,3.455323,-25.069948,9.482146,-24.795250
3.750000,-66.098259,-1.926498,-4.813047,-25.042994,9.495760,-24.702757
3.756250,-60.197300,-1.929132,-12.651632,-25.074999,9.416156,-24.595057
3.762500,-54.295330,-1.931552,-19.638094,-25.144547,10.576167,-24.473721
3.768750,-48.393368,-1.933982,-25.340836,-25.216841,12.721769,-24.386288
3.775000,-42.492886,-1.936748,-29.516628,-25.301291,15.386872,-24.322441
3.781250,-36.592670,-1.939552,-32.069027,-25.386463,17.972971,-24.266487
3.787500,-30.691101,-1.942045,-32.645317,-25.451448,20.120996,-24.211548
3.793750,-24.789434,-1.944627,-31.154390,-25.509920,21.523243,-24.161543
3.800000,-18.889635,-1.947620,-27.628321,-25.508947,21.980701,-24.107744
3.806250,-12.990429,-1.950915,-23.221588,-25.420588,21.514069,-24.015207
3.812500,-7.089833,-1.954375,-17.299248,-25.285761,19.979092,-23.892094
3.818750,-1.188984,-1.958171,-10.443908,-25.121122,17.264496,-23.748562
3.825000,4.712662,-1.962285,-3.261310,-24.941118,13.507449,-23.592121
3.831250,10.618485,-1.966023,5.816579,-24.760199,8.968815,-23.433113
3.837500,16.527969,-1.969244,14.873057,-24.592642,3.975540,-23.308689
3.843750,22.436626,-1.972568,23.951050,-24.433989,-1.136891,-23.172388
3.850000,28.342478,-1.976370,31.243406,-24.278046,-7.055946,-23.007601
3.856250,34.249180,-1.980004,38.308128,-24.134735,-12.588746,-22.853281
3.862500,40.159973,-1.982874,44.609684,-24.002480,-17.714458,-22.717882
3.868750,46.070141,-1.985654,49.712727,-23.867743,-22.411724,-22.598347
3.875000,51.973316,-1.989496,53.211121,-23.708811,-26.707243,-22.483686
3.881250,57.872581,-1.994584,54.687359,-23.531244,-30.671568,-22.357952
3.887500,63.775291,-1.999772,53.702576,-23.336737,-34.486168,-22.226063
3.893750,69.684509,-2.004538,50.170467,-23.107351,-38.411350,-22.092638
3.900000,75.595352,-2.009610,46.181381,-22.832848,-42.574635,-21.950161
3.906250,81.503265,-2.015746,40.327271,-22.513039,-45.279686,-21.796803
3.912500,87.411369,-2.022913,33.139748,-22.149853,-48.394569,-21.627834
3.918750,93.326019,-2.030482,25.172108,-21.750465,-51.629139,-21.430174
3.925000,97.354637,-2.037854,16.889402,-21.341743,-54.742023,-21.177296
3.931250,101.118622,-2.044842,8.748368,-20.949041,-57.799896,-20.958267
3.937500,104.083427,-2.051392,1.301860,-20.592316,-58.597828,-20.769278
3.943750,105.756683,-2.057319,-5.004727,-20.294664,-58.216026,-20.618687
3.950000,105.712608,-2.062070,-9.832875,-20.078350,-56.186699,-20.520247
3.956250,103.609535,-2.065114,-12.957710,-19.961544,-52.156010,-20.489439
3.962500,99.208092,-2.066427,-14.234113,-19.953571,-45.873528,-20.538588
3.968750,92.382545,-2.066296,-13.596328,-20.052338,-37.199463,-20.675966
3.975000,83.130226,-2.064806,-12.947639,-20.225433,-26.140125,-20.913101
3.981250,71.572006,-2.062004,-10.751625,-20.519670,-12.860189,-21.274269
3.987500,57.943253,-2.058082,-6.408778,-20.922173,1.040988,-21.679396
3.993750,42.582592,-2.053314,-1.126698,-21.387764,16.205105,-22.186998
4.000000,25.916544,-2.047918,4.444069,-21.912359,31.836744,-22.804379
4.006250,8.437369,-2.041839,9.954950,-22.479963,47.071709,-23.564306
4.012500,-9.324698,-2.035656,15.137539,-23.063034,60.842735,-24.320501
4.018750,-26.825401,-2.030210,19.744589,-23.628494,73.819344,-25.051226
4.025000,-43.530788,-2.025673,23.486715,-24.160774,84.058472,-25.793201
4.031250,-58.944031,-2.021623,28.227999,-24.650202,92.467178,-26.549538
4.037500,-72.636131,-2.018161,30.599287,-25.075497,98.167542,-27.266594
4.043750,-84.269363,-2.015977,32.644146,-25.423826,101.445007,-27.914495
4.050000,-93.605545,-2.015221,34.215225,-25.694866,102.694954,-28.476467
4.056250,-100.516243,-2.014838,35.244450,-25.879259,102.444405,-28.942732
4.062500,-104.999191,-2.014207,35.809040,-25.958750,99.493889,-29.280224
4.068750,-107.182434,-2.014372,35.855816,-25.950756,96.241096,-29.475210
4.075000,-107.307877,-2.016501,35.403725,-25.872154,92.745079,-29.535341
4.081250,-105.709526,-2.019828,34.633415,-25.736832,89.234123,-29.464882
4.087500,-102.804619,-2.022997,33.799488,-25.553335,83.869781,-29.264774
4.093750,-99.085648,-2.025491,33.203926,-25.330706,78.379654,-28.941404
4.100000,-95.094482,-2.028232,31.264671,-25.083181,72.622238,-28.515249
4.106250,-89.212494,-2.031830,29.982191,-24.816084,66.498329,-28.025351
4.112500,-83.331047,-2.035957,29.257553,-24.521677,60.094097,-27.429777
4.118750,-77.446419,-2.040412,28.830561,-24.216295,53.576397,-26.764128
4.125000,-71.560440,-2.045435,28.411077,-23.915524,46.685642,-26.069324
4.131250,-65.673538,-2.051095,27.826420,-23.628265,39.569435,-25.375477
4.137500,-59.781624,-2.056838,26.962711,-23.357889,32.428730,-24.705437
4.143750,-53.883591,-2.062271,25.733274,-23.104155,25.476727,-24.076872
4.150000,-47.982635,-2.067727,24.054863,-22.865927,18.903175,-23.502697
4.156250,-42.081448,-2.073623,24.017641,-22.639099,12.881760,-22.982309
4.162500,-36.178654,-2.079849,24.218672,-22.413429,7.561738,-22.533901
4.168750,-30.271984,-2.086187,23.241331,-22.176529,4.637822,-22.153187
4.175000,-24.361345,-2.092650,22.940252,-21.948534,1.554618,-21.841742
4.181250,-18.446674,-2.099000,23.126671,-21.734268,0.024257,-21.592705
4.187500,-12.527429,-2.105061,23.603819,-21.538141,-0.071704,-21.344006
4.193750,-6.603216,-2.110705,24.147717,-21.366079,1.314679,-21.208342
4.200000,-0.675260,-2.115686,24.526751,-21.225618,2.279597,-21.156210
4.206250,5.256187,-2.119752,24.525982,-21.124155,3.496214,-21.165907
4.212500,11.190266,-2.122686,23.983006,-21.058390,5.992453,-21.194229
4.218750,17.123138,-2.124846,24.959072,-21.017490,7.539207,-21.245947
4.225000,23.051929,-2.126755,24.044693,-20.997099,8.129622,-21.321247
4.231250,28.976748,-2.128458,23.222290,-20.985859,7.617013,-21.405827
4.237500,34.898952,-2.129893,22.280664,-20.982939,5.832342,-21.477261
4.243750,40.818665,-2.131084,20.886442,-21.005201,4.691854,-21.545013
4.250000,46.736908,-2.131882,18.879519,-21.037552,2.578732,-21.608202
4.256250,52.652889,-2.132256,16.114809,-21.062538,0.016286,-21.650536
4.262500,58.564426,-2.132766,12.359294,-21.065298,-2.582298,-21.660521
4.268750,64.468338,-2.134054,7.413422,-21.035297,-4.861971,-21.628002
4.275000,70.365738,-2.136515,1.098845,-20.965284,-6.507504,-21.546114
4.281250,76.262558,-2.139582,-4.580223,-20.843069,-7.248672,-21.402512
4.287500,82.161484,-2.143114,-11.153655,-20.666059,-6.886014,-21.169098
4.293750,88.059807,-2.147826,-18.363720,-20.457163,-5.518547,-20.915102
4.300000,93.957451,-2.153912,-25.838741,-20.218281,-3.415053,-20.643667
4.306250,97.967567,-2.160223,-33.137497,-19.952665,-0.382905,-20.351784
4.312500,101.716370,-2.165684,-39.942337,-19.671164,3.372604,-20.049219
4.318750,104.666283,-2.170642,-45.981937,-19.388615,7.586913,-19.749580
4.325000,106.317215,-2.176167,-51.053623,-19.126139,11.955570,-19.470409
4.331250,106.244568,-2.182038,-55.012386,-18.907207,16.168617,-19.226515
4.337500,104.114777,-2.187208,-57.757298,-18.780817,19.954912,-19.020302
4.343750,99.691483,-2.191202,-59.308193,-18.652193,23.094728,-18.794922
4.350000,92.848312,-2.194274,-58.665367,-18.596985,25.106865,-18.673836
4.356250,83.583534,-2.196234,-56.722790,-18.649193,27.665516,-18.638000
4.362500,72.018898,-2.196644,-53.276859,-18.808357,29.525318,-18.697969
4.368750,58.389252,-2.195804,-48.417446,-19.065937,31.042318,-18.879827
4.375000,43.028561,-2.194564,-42.347103,-19.408730,32.458916,-19.123507
4.381250,26.364553,-2.192850,-35.339191,-19.815212,33.832005,-19.411438
4.387500,8.893831,-2.189981,-27.717958,-20.258881,35.962765,-19.751312
4.393750,-8.852944,-2.186256,-19.899380,-20.723509,37.172749,-20.170914
4.400000,-26.336241,-2.182859,-12.340856,-21.195978,39.019360,-20.645481
4.406250,-43.022736,-2.179895,-3.247405,-21.658854,41.085297,-21.148888
4.412500,-58.414803,-2.176550,3.795316,-22.098276,43.078926,-21.662832
4.418750,-72.084030,-2.172958,10.630687,-22.508112,44.784725,-22.173359
4.425000,-83.695503,-2.170007,17.088396,-22.827219,46.121239,-22.632513
4.431250,-93.013115,-2.168151,22.994612,-23.054846,47.097122,-23.012663
4.437500,-99.909172,-2.166646,27.956408,-23.202932,47.480343,-23.310223
4.443750,-104.381691,-2.165315,31.929762,-23.278967,47.271770,-23.518396
4.450000,-106.556282,-2.165030,34.981178,-23.284836,46.601261,-23.629791
4.456250,-106.671104,-2.166281,37.239483,-23.225266,45.637249,-23.643143
4.462500,-105.060356,-2.168295,38.906345,-23.110691,44.562386,-23.564365
4.468750,-102.146942,-2.170572,40.271027,-22.960529,43.598972,-23.415686
4.475000,-98.426712,-2.173676,39.817726,-22.773239,43.044281,-23.182228
4.481250,-94.433151,-2.177613,39.715351,-22.542862,41.622589,-22.851587
4.487500,-88.539879,-2.181510,39.623833,-22.301107,40.865368,-22.469818
4.493750,-82.641190,-2.185143,39.352951,-22.069946,40.472507,-22.066540
4.500000,-76.743752,-2.189687,38.836887,-21.860327,40.226673,-21.663227
4.506250,-70.849068,-2.195811,38.050171,-21.672873,39.918243,-21.274698
4.512500,-64.949257,-2.202413,36.987804,-21.494576,39.328346,-20.910166
4.518750,-59.036549,-2.207891,35.647457,-21.269026,38.208858,-20.579582
4.525000,-53.115032,-2.212473,34.054089,-21.086542,36.240067,-20.318596
4.531250,-47.194355,-2.217336,33.296448,-20.951761,32.970989,-20.114557
4.537500,-41.275684,-2.222819,32.867088,-20.820963,29.768677,-19.945801
4.543750,-35.351036,-2.228049,31.360445,-20.683628,25.131807,-19.823008
4.550000,-29.417841,-2.232334,30.495085,-20.566721,19.383665,-19.722391
4.556250,-23.479105,-2.235687,29.979752,-20.492460,12.930506,-19.704222
4.562500,-17.538872,-2.238543,29.600962,-20.480501,6.480114,-19.784983
4.568750,-11.597601,-2.240838,29.132763,-20.556168,0.006446,-19.961390
4.575000,-5.653266,-2.242342,28.348810,-20.777449,-6.311400,-20.180374
4.581250,0.294343,-2.242605,27.067612,-21.062561,-12.139648,-20.453852
4.587500,6.242634,-2.241602,24.011404,-21.431538,-16.980513,-20.794436
4.593750,12.189274,-2.239632,22.065187,-21.905275,-20.650936,-21.194275
4.600000,18.131845,-2.236816,19.356298,-22.487015,-23.103388,-21.633261
4.606250,24.070688,-2.232949,15.751519,-23.237432,-24.480398,-22.122494
4.612500,30.004665,-2.228116,12.183468,-24.026535,-25.050978,-22.652704
4.618750,35.928638,-2.223307,8.005378,-24.885918,-24.880293,-23.201395
4.625000,41.840523,-2.219275,3.563813,-25.795424,-24.248072,-23.753044
4.631250,47.745895,-2.215394,-0.854014,-26.721813,-23.479916,-24.294392
4.637500,53.649975,-2.210679,-4.984951,-27.622475,-22.936489,-24.808163
4.643750,59.548912,-2.205674,-8.581495,-28.444670,-22.979801,-25.259108
4.650000,65.433861,-2.202021,-13.338333,-29.128050,-23.961685,-25.599693
4.656250,71.304420,-2.200428,-15.390752,-29.645468,-26.263424,-25.838026
4.662500,77.169022,-2.200431,-16.789122,-29.988810,-28.457052,-25.994993
4.668750,83.032570,-2.201756,-17.400204,-30.128643,-31.922894,-26.044193
4.675000,88.895821,-2.204622,-17.247095,-30.052593,-36.426277,-25.977787
4.681250,94.759750,-2.208866,-16.463175,-29.763929,-41.762218,-25.796513
4.687500,98.733299,-2.213856,-15.248948,-29.286547,-47.707767,-25.511627
4.693750,102.437363,-2.219797,-13.850324,-28.658859,-53.995655,-25.134647
4.700000,105.336143,-2.227761,-12.561306,-27.909189,-60.281017,-24.668013
4.706250,106.940063,-2.237412,-11.873977,-27.040930,-66.198219,-24.103888
4.712500,106.833488,-2.246954,-12.028431,-26.095711,-71.305885,-23.496790
4.718750,104.679169,-2.255181,-13.367509,-25.150110,-77.016960,-22.901995
