Anritsu VNA Frequency[GHz],S21[deg],S21[dB],S11[deg],S11[dB],S22[deg],S22[dB]
1338072680.7,2012_05_26_23:51:20,+41.509,+10.441,+57.463,+10.462,+14.142,+13.954,+14.240,+14.007,10.605695,-18.118
3.006250,34.537155,-1.776044,59.866673,-26.662746,-79.479721,-27.511513
3.012500,34.537155,-1.776044,59.866673,-26.662746,-79.479721,-27.511513
3.018750,34.537155,-1.776044,59.866673,-26.662746,-79.479721,-27.511513
3.025000,34.537155,-1.776044,59.866673,-26.662746,-79.479721,-27.511513
3.031250,34.537155,-1.776044,59.866673,-26.662746,-79.479721,-27.511513
3.037500,34.537155,-1.776044,59.866673,-26.662746,-79.479721,-27.511513
3.043750,34.537155,-1.776044,59.866673,-26.662746,-79.479721,-27.511513
3.050000,34.537155,-1.776044,59.866673,-26.662746,-79.479721,-27.511513
3.056250,34.537155,-1.776044,59.866673,-26.662746,-79.479721,-27.511513
3.062500,34.537155,-1.776044,59.866673,-26.662746,-79.479721,-27.511513
3.068750,34.537155,-1.776044,59.866673,-26.662746,-79.479721,-27.511513
3.075000,34.537155,-1.776044,59.866673,-26.662746,-79.479721,-27.511513
3.081250,34.537155,-1.776044,59.866673,-26.662746,-79.479721,-27.511513
3.087500,34.537155,-1.776044,59.866673,-26.662746,-79.479721,-27.511513
3.093750,34.537155,-1.778032,59.866673,-26.461935,-79.479721,-27.256111
3.100000,40.445385,-1.780330,57.164421,-26.308676,-81.549469,-27.020006
3.106250,46.353653,-1.782632,53.586834,-26.227673,-81.991936,-26.804470
3.112500,52.262344,-1.785010,49.495171,-26.238449,-80.453636,-26.584204
3.118750,58.170048,-1.787613,43.491787,-26.283541,-78.778786,-26.276758
3.125000,64.076775,-1.790332,38.670944,-26.327616,-74.799248,-26.015059
3.131250,69.983154,-1.793139,34.273075,-26.398539,-68.667877,-25.726423
3.137500,75.888451,-1.796287,30.549742,-26.497513,-60.814827,-25.401131
3.143750,81.792137,-1.799969,27.704800,-26.616734,-51.423256,-25.046835
3.150000,87.696625,-1.803953,25.920671,-26.741623,-40.647614,-24.675802
3.156250,93.604309,-1.807679,25.316486,-26.857655,-28.662754,-24.306917
3.162500,97.619522,-1.811111,25.955635,-26.951572,-15.667282,-23.963791
3.168750,101.361702,-1.814642,27.860416,-27.015280,-3.762862,-23.694567
3.175000,104.297417,-1.818401,31.067423,-27.027058,8.499651,-23.447239
3.181250,105.936226,-1.822237,33.817635,-26.974392,21.009710,-23.222490
3.187500,105.852470,-1.825883,37.587936,-26.873983,32.484653,-23.051367
3.193750,103.705284,-1.829233,41.670902,-26.737650,42.497158,-22.950195
3.200000,99.257072,-1.832287,45.492298,-26.573139,50.711903,-22.922600
3.206250,92.385780,-1.834932,48.569263,-26.391069,56.849285,-22.969515
3.212500,83.089882,-1.837401,50.483837,-26.205093,60.715160,-23.097748
3.218750,71.489807,-1.840074,50.923428,-26.025476,62.208279,-23.292191
3.225000,57.823658,-1.842596,51.887318,-25.847378,61.076084,-23.495749
3.231250,42.434402,-1.844571,51.917053,-25.670362,57.593758,-23.717152
3.237500,25.747583,-1.846251,49.522610,-25.494846,53.881580,-23.948574
3.243750,8.251216,-1.848227,46.812660,-25.299366,48.443649,-24.167339
3.250000,-9.522196,-1.850737,43.657730,-25.122225,41.945187,-24.354488
3.256250,-27.021971,-1.853390,39.709797,-24.977867,34.981522,-24.508425
3.262500,-43.713146,-1.855681,35.199051,-24.849543,28.196089,-24.617979
3.268750,-59.105358,-1.857617,30.068178,-24.733564,22.269070,-24.674448
3.275000,-72.774269,-1.859635,24.197496,-24.628994,17.741144,-24.677761
3.281250,-84.380165,-1.862031,17.482327,-24.526890,15.052050,-24.634888
3.287500,-93.684349,-1.864806,9.829511,-24.414490,14.500988,-24.559158
3.293750,-100.562683,-1.867657,1.205672,-24.253748,16.237320,-24.451576
3.300000,-105.014465,-1.870321,-6.223572,-24.086441,20.295898,-24.313929
3.306250,-107.161423,-1.872768,-14.850830,-23.953482,26.539827,-24.171432
3.312500,-107.241028,-1.874974,-23.478642,-23.834324,34.669670,-24.055889
3.318750,-105.594772,-1.877079,-31.812119,-23.735956,44.302158,-23.988111
3.325000,-102.650414,-1.878981,-39.587246,-23.675741,54.988895,-23.979357
3.331250,-98.899002,-1.880559,-46.546642,-23.678549,66.209702,-24.033018
3.337500,-94.873825,-1.881750,-52.506264,-23.812281,77.387108,-24.147528
3.343750,-88.953796,-1.882656,-57.457134,-23.972273,87.944466,-24.308449
3.350000,-83.034180,-1.883193,-61.846554,-24.193047,97.635544,-24.461710
3.356250,-77.115356,-1.883414,-65.219574,-24.517256,106.186989,-24.657482
3.362500,-71.198593,-1.883547,-65.873329,-24.966360,112.389053,-24.905634
3.368750,-65.283890,-1.883397,-65.462875,-25.522177,116.375732,-25.194708
3.375000,-59.369530,-1.882704,-63.868111,-26.158321,117.749702,-25.565306
3.381250,-53.457489,-1.881614,-61.103561,-26.840492,116.344139,-25.902405
3.387500,-47.551441,-1.880884,-57.267254,-27.530497,112.787369,-26.225340
3.393750,-41.651745,-1.880953,-52.518181,-28.183538,106.526337,-26.528723
3.400000,-35.754738,-1.881403,-47.076603,-28.757103,98.121208,-26.802347
3.406250,-29.856289,-1.881631,-41.275181,-29.229227,88.572571,-27.079792
3.412500,-23.958216,-1.881997,-35.443859,-29.575411,78.557213,-27.326761
3.418750,-18.064983,-1.883197,-27.645802,-29.773657,66.706528,-27.521961
3.425000,-12.174883,-1.885356,-21.419197,-29.819242,55.305714,-27.659353
3.431250,-6.281779,-1.887653,-14.910315,-29.726334,44.786381,-27.745054
3.437500,-0.384444,-1.889822,-8.374773,-29.481255,35.600494,-27.784084
3.443750,5.512723,-1.892602,-1.841504,-29.080603,28.424854,-27.723347
3.450000,11.408232,-1.896374,4.191662,-28.569426,21.548021,-27.592348
3.456250,17.307802,-1.900299,9.555836,-27.986883,16.742510,-27.404839
3.462500,23.215801,-1.903606,14.244224,-27.376308,13.712301,-27.163189
3.468750,29.129147,-1.906292,18.342319,-26.783693,12.137750,-26.865038
3.475000,35.042828,-1.908687,21.957533,-26.273134,11.670425,-26.524837
3.481250,40.955650,-1.911021,25.342867,-25.802235,11.921440,-26.157770
3.487500,46.867912,-1.913382,27.249693,-25.397741,12.521229,-25.758764
3.493750,52.778736,-1.916117,29.058832,-25.096144,13.037099,-25.334337
3.500000,58.688698,-1.919259,30.597546,-24.903868,13.032413,-24.896416
3.506250,64.601440,-1.922227,31.761353,-24.806553,12.177287,-24.454863
3.512500,70.518349,-1.924337,32.457520,-24.771311,10.202541,-24.018555
3.518750,76.435356,-1.926253,32.655388,-24.704426,6.908901,-23.592180
3.525000,82.346451,-1.929030,32.496952,-24.688162,2.143392,-23.182144
3.531250,88.253120,-1.932881,32.617554,-24.676790,-2.065387,-22.802771
3.537500,94.161964,-1.937038,32.612808,-24.633526,-7.175394,-22.470350
3.543750,98.181961,-1.940811,32.739174,-24.548807,-12.753349,-22.181374
3.550000,101.931877,-1.944786,33.334858,-24.396769,-18.524260,-21.899452
3.556250,104.874908,-1.949480,32.846275,-24.176682,-24.013872,-21.576378
3.562500,106.522957,-1.954488,32.983395,-23.918352,-28.926315,-21.332670
3.568750,106.454971,-1.958706,33.400288,-23.648085,-33.935478,-21.161108
3.575000,104.330811,-1.961571,33.817215,-23.392677,-36.533241,-21.061331
3.581250,99.907730,-1.963366,33.951359,-23.186554,-38.608360,-21.049177
3.587500,93.058990,-1.964757,33.540291,-23.065353,-40.131474,-21.083273
3.593750,83.784691,-1.965733,32.471100,-23.019253,-40.930450,-21.185274
3.600000,72.210663,-1.965701,30.692484,-23.059128,-40.756336,-21.370722
3.606250,58.574207,-1.964318,30.049738,-23.200010,-39.661026,-21.633530
3.612500,43.210739,-1.962095,29.080650,-23.428131,-37.807816,-21.947510
3.618750,26.544081,-1.959499,28.199257,-23.758774,-35.472176,-22.285713
3.625000,9.067860,-1.956285,27.525024,-24.204069,-33.313087,-22.691877
3.631250,-8.683532,-1.952229,27.648907,-24.726923,-29.429497,-23.128134
3.637500,-26.167053,-1.947870,28.882599,-25.291555,-25.441498,-23.565950
3.643750,-42.854404,-1.943896,31.367331,-25.860895,-21.283827,-23.984987
3.650000,-58.252205,-1.940589,33.237801,-26.390465,-16.978119,-24.368246
3.656250,-71.930283,-1.937934,36.058338,-26.806532,-12.572215,-24.698977
3.662500,-83.546837,-1.936001,39.015171,-27.149088,-8.148854,-24.971771
3.668750,-92.864609,-1.934995,43.011730,-27.399862,-3.863090,-25.193171
3.675000,-99.759819,-1.934639,46.375233,-27.529903,0.159005,-25.362053
3.681250,-104.230072,-1.934443,48.836117,-27.535858,3.798861,-25.476614
3.687500,-106.398468,-1.934722,50.152924,-27.430227,6.894053,-25.539959
3.693750,-106.505318,-1.936249,50.172707,-27.238329,9.291648,-25.561281
3.700000,-104.889534,-1.938897,48.894356,-26.968428,10.879704,-25.552032
3.706250,-101.971901,-1.941722,46.477116,-26.635721,11.668420,-25.505175
3.712500,-98.242752,-1.944271,42.908642,-26.279676,11.758267,-25.414454
3.718750,-94.239609,-1.947088,36.474651,-25.928764,11.185046,-25.284397
3.725000,-88.343491,-1.950567,29.098532,-25.599619,10.169942,-25.131004
3.731250,-82.445282,-1.954062,20.517845,-25.335840,9.234984,-24.992760
3.737500,-76.542061,-1.957068,12.663987,-25.162340,8.734053,-24.881920
3.743750,-70.636452,-1.959770,4.283535,-25.066072,9.033143,-24.821020
3.750000,-64.731773,-1.962510,-4.064957,-25.034588,10.859147,-24.728333
3.756250,-58.828426,-1.965196,-11.979568,-25.063755,10.719069,-24.621149
3.762500,-52.923962,-1.967633,-19.040001,-25.132835,11.815096,-24.498800
3.768750,-47.019356,-1.970051,-24.802187,-25.206127,13.877351,-24.411104
3.775000,-41.116142,-1.972803,-29.028574,-25.293961,16.467825,-24.348139
3.781250,-35.213276,-1.975588,-31.620029,-25.384645,18.981211,-24.293386
3.787500,-29.309002,-1.978087,-32.219967,-25.456505,21.053202,-24.240149
3.793750,-23.404818,-1.980662,-30.734184,-25.523363,22.379347,-24.191402
3.800000,-17.502279,-1.983653,-29.088928,-25.532858,22.763830,-24.140612
3.806250,-11.600487,-1.986971,-24.932081,-25.454618,22.220348,-24.051537
3.812500,-5.697179,-1.990456,-19.775032,-25.328770,20.626289,-23.930780
3.818750,0.206549,-1.994269,-14.163842,-25.172995,17.866611,-23.790180
3.825000,6.110681,-1.998449,-8.638277,-25.001305,14.075911,-23.636007
3.831250,12.018945,-2.002278,-1.545656,-24.827608,9.515650,-23.478920
3.837500,17.930840,-2.005557,5.294205,-24.665648,4.510421,-23.355486
3.843750,23.842106,-2.008937,12.032705,-24.511469,-0.596474,-23.222387
3.850000,29.750547,-2.012775,16.982832,-24.358898,-6.509248,-23.059029
3.856250,35.659847,-2.016452,21.822083,-24.217241,-12.017713,-22.905638
3.862500,41.573196,-2.019361,26.126574,-24.085070,-17.110384,-22.771082
3.868750,47.486073,-2.022111,29.562666,-23.949612,-21.767868,-22.652523
3.875000,53.391800,-2.025904,31.812878,-23.789795,-26.018753,-22.539087
3.881250,59.293373,-2.030914,32.529125,-23.608063,-29.933044,-22.414595
3.887500,65.198433,-2.036032,31.308411,-23.409477,-33.693413,-22.283249
3.893750,71.110023,-2.040730,28.073660,-23.176088,-37.561840,-22.150023
3.900000,77.023170,-2.045656,24.907614,-22.897408,-41.672226,-22.007450
3.906250,82.933243,-2.051641,20.361494,-22.572821,-44.328869,-21.853514
3.912500,88.843216,-2.058642,14.902472,-22.204128,-47.400040,-21.684101
3.918750,94.759697,-2.066073,9.001865,-21.798857,-50.597095,-21.486752
3.925000,98.789902,-2.073286,3.027091,-21.383625,-53.675034,-21.234955
3.931250,102.555321,-2.080162,-2.679408,-20.984751,-56.673141,-21.013775
3.937500,105.521629,-2.086599,-7.696137,-20.622370,-57.432701,-20.823154
3.943750,107.196411,-2.092394,-11.693935,-20.319143,-57.014637,-20.670849
3.950000,107.153336,-2.097108,-14.451469,-20.097120,-54.950386,-20.570723
3.956250,105.051529,-2.100120,-15.845059,-19.974945,-50.884083,-20.538261
3.962500,100.651291,-2.101424,-15.818661,-19.962318,-44.565983,-20.585617
3.968750,93.827209,-2.101334,-14.369396,-20.057180,-35.859097,-20.721392
3.975000,84.576759,-2.099904,-13.448721,-20.227028,-24.768547,-20.955784
3.981250,73.020264,-2.097198,-9.366491,-20.516970,-11.458277,-21.322456
3.987500,59.393654,-2.093354,-5.031792,-20.916090,2.442487,-21.727234
3.993750,44.035278,-2.088707,0.224595,-21.379477,17.627386,-22.235083
4.000000,27.371410,-2.083432,5.772130,-21.902176,33.268467,-22.853024
4.006250,9.894922,-2.077487,11.255271,-22.467611,48.500992,-23.609396
4.012500,-7.864355,-2.071402,16.406542,-23.048429,62.305824,-24.371590
4.018750,-25.362072,-2.066005,20.975752,-23.612608,75.265411,-25.107430
4.025000,-42.064461,-2.061485,24.681925,-24.143711,85.482880,-25.850842
4.031250,-57.474659,-2.057451,29.389929,-24.632269,93.891357,-26.609175
4.037500,-71.163864,-2.053970,31.730436,-25.057667,99.594284,-27.327864
4.043750,-82.794373,-2.051752,33.747002,-25.407032,102.881599,-27.977196
4.050000,-92.127777,-2.050875,35.296474,-25.680153,104.149704,-28.539837
4.056250,-99.035889,-2.050350,36.309010,-25.867735,103.923477,-29.006544
4.062500,-103.516098,-2.049577,36.859715,-25.951460,100.998756,-29.345175
4.068750,-105.696785,-2.049511,36.899403,-25.947979,97.777565,-29.540985
4.075000,-105.819870,-2.051368,36.444145,-25.874376,94.316772,-29.601667
4.081250,-104.219101,-2.054498,35.673405,-25.744179,90.838486,-29.531855
4.087500,-101.312370,-2.057463,34.842709,-25.566046,85.502502,-29.332714
4.093750,-97.591316,-2.059761,34.254547,-25.348726,80.034065,-29.009974
4.100000,-93.597694,-2.062259,32.327641,-25.106689,74.288109,-28.584370
4.106250,-87.713257,-2.065673,31.053446,-24.844889,68.163719,-28.093885
4.112500,-81.829811,-2.069606,30.331425,-24.554958,61.735794,-27.499723
4.118750,-75.942970,-2.073870,29.911682,-24.252394,55.190411,-26.834660
4.125000,-70.054741,-2.078751,29.499674,-23.952814,48.260475,-26.139879
4.131250,-64.165352,-2.084278,28.925007,-23.665682,41.093822,-25.445543
4.137500,-58.271286,-2.089922,28.071817,-23.394236,33.890739,-24.774851
4.143750,-52.371056,-2.095342,26.854559,-23.138172,26.865730,-24.145668
4.150000,-46.467751,-2.100767,25.186745,-22.896248,20.214724,-23.570776
4.156250,-40.563980,-2.106666,25.164831,-22.664837,14.114168,-23.051399
4.162500,-34.658901,-2.112925,25.378902,-22.433201,8.714513,-22.592607
4.168750,-28.750069,-2.119350,24.401419,-22.191813,5.718172,-22.209808
4.175000,-22.837234,-2.125908,24.113190,-21.957771,2.579914,-21.894060
4.181250,-16.920454,-2.132418,24.309673,-21.736538,1.005463,-21.639795
4.187500,-10.999063,-2.138633,24.791706,-21.533308,0.876824,-21.391020
4.193750,-5.072759,-2.144458,25.336380,-21.354261,2.187996,-21.246462
4.200000,0.857264,-2.149693,25.714617,-21.206501,3.126861,-21.187332
4.206250,6.790824,-2.153985,25.710121,-21.098236,4.324632,-21.191959
4.212500,12.726893,-2.157181,25.157887,-21.026438,6.806834,-21.215504
4.218750,18.661932,-2.159583,26.120480,-20.980682,8.339175,-21.263134
4.225000,24.593361,-2.161655,25.193377,-20.956335,8.924663,-21.335224
4.231250,30.520514,-2.163581,24.353577,-20.941999,8.416642,-21.418386
4.237500,36.445427,-2.165225,23.395964,-20.936766,6.648101,-21.489683
4.243750,42.367531,-2.166531,21.987070,-20.957245,5.541533,-21.557295
4.250000,48.288673,-2.167521,19.964144,-20.988754,3.472967,-21.621462
4.256250,54.207550,-2.168062,17.185234,-21.013763,0.963851,-21.665592
4.262500,60.121811,-2.168651,13.421280,-21.017754,-1.570861,-21.678408
4.268750,66.029190,-2.170020,8.472351,-20.990160,-3.778898,-21.649368
4.275000,71.929863,-2.172543,2.159540,-20.923601,-5.350629,-21.571589
4.281250,77.829819,-2.175723,-3.514359,-20.805765,-6.015382,-21.432499
4.287500,83.731842,-2.179327,-10.074980,-20.633383,-5.577739,-21.203745
4.293750,89.633583,-2.184089,-17.262554,-20.429060,-4.125237,-20.952963
4.300000,95.534546,-2.190277,-24.709734,-20.195215,-1.949323,-20.684532
4.306250,99.547356,-2.196693,-31.973892,-19.934814,1.146673,-20.395370
4.312500,103.298737,-2.202261,-38.740185,-19.658392,4.956656,-20.094931
4.318750,106.251465,-2.207359,-44.738747,-19.380381,9.212363,-19.796513
4.325000,107.905396,-2.212981,-49.768753,-19.121504,13.608766,-19.517883
4.331250,107.835487,-2.218951,-53.686733,-18.904766,17.834387,-19.273922
4.337500,105.707863,-2.224245,-56.396133,-18.772821,21.614857,-19.067942
4.343750,101.287033,-2.228356,-57.903404,-18.650991,24.729244,-18.845453
4.350000,94.446388,-2.231521,-57.241604,-18.594269,26.746532,-18.723228
4.356250,85.183731,-2.233613,-55.279541,-18.643044,29.274202,-18.686657
4.362500,73.621521,-2.234108,-51.825951,-18.796906,31.101805,-18.745527
4.368750,59.994324,-2.233337,-46.967312,-19.048254,32.585365,-18.926001
4.375000,44.635971,-2.232107,-40.910110,-19.384214,33.993587,-19.173462
4.381250,27.974274,-2.230372,-33.928131,-19.784445,35.338284,-19.463564
4.387500,10.505662,-2.227535,-26.344141,-20.222490,37.443626,-19.804636
4.393750,-7.238795,-2.223767,-18.570747,-20.681973,38.638653,-20.226049
4.400000,-24.719786,-2.220292,-11.062233,-21.150097,40.488560,-20.703293
4.406250,-41.404308,-2.217302,-2.023519,-21.609533,42.568180,-21.209925
4.412500,-56.794281,-2.213918,4.964866,-22.046305,44.584843,-21.726934
4.418750,-70.461784,-2.210263,11.748422,-22.454441,46.320160,-22.241213
4.425000,-82.071434,-2.207294,18.146042,-22.775373,47.681973,-22.705633
4.431250,-91.387482,-2.205384,24.000399,-23.005880,48.687523,-23.090631
4.437500,-98.282158,-2.203888,28.923088,-23.157480,49.104565,-23.392740
4.443750,-102.753174,-2.202618,32.860909,-23.237320,48.922539,-23.605139
4.450000,-104.926308,-2.202389,35.879719,-23.247387,48.269840,-23.720303
4.456250,-105.039536,-2.203718,38.110516,-23.192186,47.315281,-23.736513
4.462500,-103.427505,-2.205851,39.755253,-23.081573,46.239216,-23.659657
4.468750,-100.512878,-2.208289,41.101719,-22.934338,45.263786,-23.511335
4.475000,-96.791054,-2.211543,40.632610,-22.750603,44.680737,-23.279741
4.481250,-92.796143,-2.215584,40.508320,-22.522564,43.217949,-22.948820
4.487500,-86.900993,-2.219668,40.405048,-22.281771,42.416706,-22.565001
4.493750,-81.000565,-2.223431,40.124939,-22.049799,41.971142,-22.158573
4.500000,-75.101006,-2.228065,39.600704,-21.838028,41.666370,-21.751276
4.506250,-69.204521,-2.234223,38.804905,-21.647549,41.294598,-21.358046
4.512500,-63.302887,-2.240829,37.732925,-21.466200,40.641624,-20.988420
4.518750,-57.388206,-2.246330,36.382023,-21.245478,39.466267,-20.652170
4.525000,-51.464710,-2.250847,34.763168,-21.055622,37.457047,-20.384256
4.531250,-45.541641,-2.255611,34.011505,-20.916243,34.174099,-20.175768
4.537500,-39.620487,-2.260920,33.577713,-20.783566,30.967783,-20.002138
4.543750,-33.693855,-2.266010,32.063232,-20.644306,26.338678,-19.875347
4.550000,-27.758682,-2.270100,31.199223,-20.525026,20.619640,-19.772369
4.556250,-21.817732,-2.273275,30.693586,-20.447842,14.189520,-19.747522
4.562500,-15.875329,-2.275949,30.326023,-20.431955,7.797542,-19.822826
4.568750,-9.931787,-2.278100,29.872217,-20.503073,1.404652,-19.997057
4.575000,-3.985348,-2.279460,29.105888,-20.714581,-4.812504,-20.214622
4.581250,1.964508,-2.279642,27.827005,-20.998709,-10.555630,-20.485912
4.587500,7.915035,-2.278571,24.789724,-21.364458,-15.307595,-20.824429
4.593750,13.863905,-2.276603,22.857777,-21.834558,-18.885267,-21.223152
4.600000,19.808863,-2.273835,20.162010,-22.412962,-21.246231,-21.661669
4.606250,25.749966,-2.270075,16.587769,-23.172457,-22.529148,-22.150005
4.612500,31.686411,-2.265381,13.010020,-23.965397,-23.013929,-22.680372
4.618750,37.613342,-2.260695,8.841146,-24.832571,-22.771660,-23.229429
4.625000,43.528053,-2.256813,4.401516,-25.755426,-22.080837,-23.781969
4.631250,49.436401,-2.253101,-0.022315,-26.699993,-21.268641,-24.324423
4.637500,55.343300,-2.248585,-4.168749,-27.623228,-20.695248,-24.840210
4.643750,61.245659,-2.243743,-7.789708,-28.471924,-20.724331,-25.294786
4.650000,67.134727,-2.240174,-12.577706,-29.185093,-21.710783,-25.640497
4.656250,73.009155,-2.238648,-14.664082,-29.732250,-24.027445,-25.881542
4.662500,78.877594,-2.238719,-16.088491,-30.104801,-26.243288,-26.042521
4.668750,84.744896,-2.240043,-16.729517,-30.271971,-29.745937,-26.096642
4.675000,90.611969,-2.242886,-16.603258,-30.220171,-34.290577,-26.035280
4.681250,94.584923,-2.247088,-15.836318,-29.951296,-39.669067,-25.859076
4.687500,98.289001,-2.252012,-14.628602,-29.488035,-45.656078,-25.578770
4.693750,101.190941,-2.257924,-13.222964,-28.868031,-51.985165,-25.206450
4.700000,102.794975,-2.265765,-11.910679,-28.120644,-58.314095,-24.744860
4.706250,102.676605,-2.275370,-11.173484,-27.249601,-64.271919,-24.185787
4.712500,100.506363,-2.284936,-11.271091,-26.296793,-69.429718,-23.579342
4.718750,96.050964,-2.293216,-12.529788,-25.336658,-75.186646,-22.985075
