Anritsu VNA Frequency[GHz],S21[deg],S21[dB],S11[deg],S11[dB],S22[deg],S22[dB]
1338069083.9,2012_05_26_22:51:23,+42.107,+58.438,+62.596,+58.609,+64.287,+65.580,+64.236,+64.641,63.081253,-13.004
3.006250,36.975826,-2.000675,62.136383,-26.854019,-84.975426,-28.002689
3.012500,36.975826,-2.000675,62.136383,-26.854019,-84.975426,-28.002689
3.018750,36.975826,-2.000675,62.136383,-26.854019,-84.975426,-28.002689
3.025000,36.975826,-2.000675,62.136383,-26.854019,-84.975426,-28.002689
3.031250,36.975826,-2.000675,62.136383,-26.854019,-84.975426,-28.002689
3.037500,36.975826,-2.000675,62.136383,-26.854019,-84.975426,-28.002689
3.043750,36.975826,-2.000675,62.136383,-26.854019,-84.975426,-28.002689
3.050000,36.975826,-2.000675,62.136383,-26.854019,-84.975426,-28.002689
3.056250,36.975826,-2.000675,62.136383,-26.854019,-84.975426,-28.002689
3.062500,36.975826,-2.000675,62.136383,-26.854019,-84.975426,-28.002689
3.068750,36.975826,-2.000675,62.136383,-26.854019,-84.975426,-28.002689
3.075000,36.975826,-2.000675,62.136383,-26.854019,-84.975426,-28.002689
3.081250,36.975826,-2.000675,62.136383,-26.854019,-84.975426,-28.002689
3.087500,36.975826,-2.000675,62.136383,-26.854019,-84.975426,-28.002689
3.093750,36.975826,-2.002760,62.136383,-26.655586,-84.975426,-27.696001
3.100000,42.890110,-2.005180,59.137676,-26.497635,-84.910599,-27.414455
3.106250,48.804436,-2.007690,55.276062,-26.408401,-83.964157,-27.162071
3.112500,54.718967,-2.010259,50.963287,-26.403395,-81.861198,-26.917400
3.118750,60.632969,-2.013006,44.809902,-26.448978,-78.342606,-26.535414
3.125000,66.545509,-2.015890,39.788040,-26.485533,-73.459167,-26.249733
3.131250,72.457748,-2.018875,35.271984,-26.547575,-67.454475,-25.938627
3.137500,78.369072,-2.022169,31.470835,-26.637890,-59.759068,-25.590860
3.143750,84.278694,-2.026006,28.584908,-26.749634,-50.519524,-25.214031
3.150000,90.188728,-2.030110,26.793127,-26.868683,-39.886097,-24.821800
3.156250,96.101913,-2.034026,26.209232,-26.980751,-28.021135,-24.432638
3.162500,100.122566,-2.037671,26.892736,-27.071989,-17.016460,-24.070488
3.168750,103.870369,-2.041390,28.855862,-27.132481,-5.453408,-23.777287
3.175000,106.811729,-2.045317,32.118500,-27.143398,5.962759,-23.524343
3.181250,108.456192,-2.049325,34.902027,-27.091009,17.129358,-23.289829
3.187500,108.377968,-2.053173,38.730755,-26.989414,26.882376,-23.109001
3.193750,106.236603,-2.056789,42.875740,-26.849720,34.861881,-22.999245
3.200000,101.793968,-2.060125,46.738945,-26.679445,40.836987,-22.964739
3.206250,94.928795,-2.063067,49.833920,-26.488613,44.639935,-23.005877
3.212500,85.639374,-2.065835,51.740761,-26.290674,46.192879,-23.129358
3.218750,74.045868,-2.068761,52.141201,-26.097101,45.536732,-23.332844
3.225000,60.386322,-2.071591,53.029171,-25.905331,42.512955,-23.541433
3.231250,45.003891,-2.073924,52.952915,-25.714836,37.457600,-23.769976
3.237500,28.324028,-2.075951,50.439598,-25.526987,32.629047,-24.013449
3.243750,10.835135,-2.078162,47.594391,-25.323021,26.587275,-24.251051
3.250000,-6.930868,-2.080971,44.316273,-25.131693,20.034143,-24.462740
3.256250,-24.423626,-2.083926,40.253548,-24.976606,13.584570,-24.642908
3.262500,-41.108025,-2.086518,35.614693,-24.841105,7.850496,-24.781851
3.268750,-56.493225,-2.088747,30.373684,-24.720911,3.450191,-24.868889
3.275000,-70.154999,-2.091005,24.422848,-24.614670,0.858746,-24.901932
3.281250,-81.754257,-2.093648,17.659760,-24.514118,0.424662,-24.885029
3.287500,-91.051971,-2.096635,9.996530,-24.407505,2.333928,-24.828667
3.293750,-97.924019,-2.099706,1.393079,-24.263054,6.611759,-24.733948
3.300000,-102.369873,-2.102623,-6.007911,-24.096138,13.165080,-24.601460
3.306250,-104.510750,-2.105298,-14.477344,-23.969172,21.745722,-24.454227
3.312500,-104.584480,-2.107698,-22.943800,-23.855137,31.934877,-24.321173
3.318750,-102.932846,-2.110011,-31.078339,-23.758574,43.240147,-24.223833
3.325000,-99.982712,-2.112117,-38.620831,-23.694338,55.121883,-24.175180
3.331250,-96.225586,-2.113915,-45.322071,-23.684315,66.999641,-24.180283
3.337500,-92.194572,-2.115314,-50.989716,-23.776543,78.262344,-24.239838
3.343750,-86.268509,-2.116349,-55.500904,-23.930136,90.493370,-24.343765
3.350000,-80.342796,-2.117076,-59.627953,-24.123972,99.937027,-24.448471
3.356250,-74.417610,-2.117447,-62.677402,-24.407673,108.231087,-24.581512
3.362500,-68.494499,-2.117695,-62.968658,-24.808971,114.215889,-24.775463
3.368750,-62.573112,-2.117673,-62.215595,-25.315777,117.984718,-25.013798
3.375000,-56.652393,-2.117131,-60.307175,-25.904518,119.174324,-25.320490
3.381250,-50.733208,-2.116181,-57.268673,-26.544189,117.624634,-25.634686
3.387500,-44.819866,-2.115508,-53.208431,-27.198793,113.896271,-25.933973
3.393750,-38.912891,-2.115599,-48.299023,-27.826801,107.538902,-26.220413
3.400000,-33.008453,-2.116065,-42.763786,-28.386379,99.048729,-26.471863
3.406250,-27.102871,-2.116360,-36.926998,-28.854525,89.434204,-26.739950
3.412500,-21.197853,-2.116770,-31.125021,-29.208155,79.414581,-26.987185
3.418750,-15.297093,-2.117955,-25.319622,-29.425308,67.566650,-27.189968
3.425000,-9.399554,-2.120133,-19.521061,-29.498896,56.176929,-27.340969
3.431250,-3.499489,-2.122493,-14.017186,-29.439077,45.677597,-27.443619
3.437500,2.404835,-2.124705,-9.019679,-29.239134,36.515747,-27.504969
3.443750,8.308876,-2.127512,-4.511997,-28.886864,29.324587,-27.472839
3.450000,14.211524,-2.131271,-0.825071,-28.423735,22.462753,-27.371536
3.456250,20.117540,-2.135369,1.952035,-27.886415,17.670982,-27.214119
3.462500,26.031874,-2.138877,3.934103,-27.315613,14.641671,-27.003695
3.468750,31.951536,-2.141759,5.334849,-26.753731,13.056477,-26.737959
3.475000,37.871876,-2.144423,6.398044,-26.254841,12.567975,-26.428988
3.481250,43.791164,-2.147010,7.468935,-25.807835,12.789243,-26.092184
3.487500,49.709854,-2.149695,7.402519,-25.410320,13.335979,-25.722029
3.493750,55.627121,-2.152783,7.740387,-25.104013,13.796312,-25.323521
3.500000,61.543777,-2.156220,8.333846,-24.898958,13.736893,-24.908007
3.506250,67.462746,-2.159494,9.115961,-24.784973,12.824790,-24.485167
3.512500,73.385544,-2.162009,10.008205,-24.734505,10.792259,-24.063797
3.518750,79.308800,-2.164239,10.947448,-24.679468,7.442896,-23.649012
3.525000,85.226433,-2.167245,11.887146,-24.637621,2.631045,-23.246689
3.531250,91.139229,-2.171247,13.720504,-24.616596,-1.604901,-22.870356
3.537500,95.159248,-2.175621,15.745969,-24.570276,-6.711845,-22.538004
3.543750,98.911568,-2.179650,18.144445,-24.485403,-12.242807,-22.253044
3.550000,101.861275,-2.183752,21.115990,-24.342678,-17.930761,-21.976051
3.556250,103.512047,-2.188494,23.004341,-24.134027,-23.339033,-21.681086
3.562500,103.440285,-2.193557,25.429129,-23.886066,-28.128809,-21.435774
3.568750,101.311188,-2.197931,27.908415,-23.625687,-32.890789,-21.272934
3.575000,96.888992,-2.201001,30.051575,-23.378792,-37.113029,-21.186691
3.581250,90.046608,-2.203000,31.483984,-23.178890,-39.129742,-21.197319
3.587500,80.778954,-2.204591,31.871271,-23.062059,-41.042374,-21.258001
3.593750,69.207260,-2.205779,31.040052,-23.026455,-42.751507,-21.385790
3.600000,55.572735,-2.206038,31.107861,-23.074303,-43.879112,-21.597736
3.606250,40.216190,-2.204965,30.415684,-23.223244,-44.405087,-21.888788
3.612500,23.560631,-2.203010,29.379650,-23.464981,-44.409546,-22.234221
3.618750,6.094216,-2.200671,28.415106,-23.805582,-44.070488,-22.603355
3.625000,-11.649170,-2.197741,27.688356,-24.263159,-43.895390,-23.035664
3.631250,-29.121862,-2.193997,27.721571,-24.801931,-41.950802,-23.496983
3.637500,-45.793442,-2.189839,28.856756,-25.386421,-39.728848,-23.957773
3.643750,-61.176346,-2.186028,31.242786,-25.979317,-37.070053,-24.396833
3.650000,-74.842628,-2.182854,33.021912,-26.537169,-33.908588,-24.796154
3.656250,-86.448914,-2.180246,35.757759,-26.996317,-30.231903,-25.138720
3.662500,-95.756569,-2.178357,38.675884,-27.361069,-26.078053,-25.416391
3.668750,-102.643867,-2.177332,42.698387,-27.637232,-21.573477,-25.634871
3.675000,-107.108894,-2.176945,46.082756,-27.790510,-16.865301,-25.794378
3.681250,-109.270515,-2.176824,48.595894,-27.813498,-12.103300,-25.893635
3.687500,-109.367416,-2.177159,49.993641,-27.715919,-7.498793,-25.935030
3.693750,-107.742531,-2.178689,50.111832,-27.522648,-3.279161,-25.927500
3.700000,-104.822128,-2.181397,48.914131,-27.249966,0.348646,-25.883579
3.706250,-101.092247,-2.184371,46.581211,-26.902819,3.271577,-25.802141
3.712500,-97.083046,-2.187202,43.114239,-26.523142,5.480269,-25.677107
3.718750,-91.177887,-2.190236,36.752411,-26.144035,6.936383,-25.509029
3.725000,-85.274017,-2.193923,29.408838,-25.785921,7.677066,-25.309795
3.731250,-79.368240,-2.197753,20.843706,-25.485477,8.143990,-25.126469
3.737500,-73.456932,-2.201111,12.983800,-25.275482,8.650267,-24.971928
3.743750,-67.542938,-2.204166,4.536173,-25.148821,9.465372,-24.867153
3.750000,-61.629360,-2.207206,-3.918569,-25.092875,11.196045,-24.749489
3.756250,-55.717201,-2.210157,-11.949792,-25.103069,12.638126,-24.619761
3.762500,-49.804295,-2.212847,-19.136356,-25.160898,13.419924,-24.473448
3.768750,-43.891476,-2.215490,-25.032005,-25.231165,15.111959,-24.365492
3.775000,-37.980202,-2.218336,-29.366068,-25.315269,17.393373,-24.290735
3.781250,-32.069603,-2.221221,-32.047497,-25.409204,19.600840,-24.231506
3.787500,-26.157907,-2.223790,-32.726421,-25.489172,21.378317,-24.179312
3.793750,-20.246861,-2.226359,-31.284670,-25.560541,22.434460,-24.135504
3.800000,-14.338027,-2.229309,-29.617943,-25.594786,22.579958,-24.095148
3.806250,-8.430325,-2.232551,-25.488432,-25.533039,21.819683,-24.023146
3.812500,-2.521604,-2.235983,-20.254429,-25.421951,20.078032,-23.921719
3.818750,3.386955,-2.239711,-14.523737,-25.278893,17.238323,-23.799568
3.825000,9.295594,-2.243815,-8.845527,-25.117319,13.426609,-23.662561
3.831250,15.207687,-2.247740,-1.579600,-24.950766,8.902727,-23.519423
3.837500,21.123381,-2.251163,5.441257,-24.792433,3.997602,-23.396473
3.843750,27.039141,-2.254640,12.346869,-24.642467,-0.925513,-23.285925
3.850000,32.952461,-2.258584,17.437990,-24.492847,-6.748583,-23.131023
3.856250,38.866497,-2.262455,22.411324,-24.351646,-12.046988,-22.980387
3.862500,44.784348,-2.265630,26.819130,-24.219784,-16.907005,-22.845861
3.868750,50.702621,-2.268672,30.321768,-24.086567,-21.333426,-22.727093
3.875000,56.614777,-2.272655,32.606022,-23.931072,-25.367579,-22.615465
3.881250,62.523102,-2.277841,33.356365,-23.746613,-29.085941,-22.495716
3.887500,68.434715,-2.283261,32.147377,-23.547935,-32.657276,-22.367249
3.893750,74.353271,-2.288140,28.878412,-23.317036,-36.349003,-22.237701
3.900000,80.273842,-2.293188,25.668932,-23.042105,-40.325134,-22.101074
3.906250,86.192131,-2.299240,21.085032,-22.721804,-44.769108,-21.954956
3.912500,92.109940,-2.306315,15.604691,-22.358019,-48.024544,-21.795383
3.918750,96.138847,-2.313819,9.705814,-21.957277,-51.951050,-21.612135
3.925000,99.903107,-2.321175,3.777921,-21.543388,-56.256641,-21.379910
3.931250,102.869431,-2.328181,-1.835189,-21.142223,-60.818863,-21.164368
3.937500,104.544411,-2.334769,-6.729539,-20.775114,-63.511364,-20.980301
3.943750,104.500664,-2.340808,-10.572119,-20.464577,-65.249306,-20.833124
3.950000,102.397919,-2.345762,-13.138642,-20.231958,-65.428734,-20.734997
3.956250,97.999496,-2.349220,-14.310855,-20.095736,-63.573215,-20.700159
3.962500,91.181038,-2.350945,-14.045721,-20.066610,-59.317196,-20.741053
3.968750,81.939217,-2.351273,-12.356251,-20.143484,-52.413754,-20.865906
3.975000,70.392365,-2.350305,-11.209937,-20.300386,-42.774761,-21.085022
3.981250,56.776901,-2.348085,-6.954035,-20.553001,-30.468473,-21.434748
3.987500,41.431873,-2.344726,-2.416796,-20.928497,-17.238934,-21.818935
3.993750,24.782448,-2.340501,2.923002,-21.367905,-2.094139,-22.301867
4.000000,7.320327,-2.335668,8.524202,-21.865128,13.991691,-22.889898
4.006250,-10.421883,-2.330162,13.993182,-22.406368,30.136068,-23.600082
4.012500,-27.899958,-2.324383,19.055990,-22.966572,45.367031,-24.352663
4.018750,-44.583431,-2.319145,23.467659,-23.515093,58.103157,-25.080137
4.025000,-59.979614,-2.314739,26.964291,-24.033308,69.963448,-25.789497
4.031250,-73.657288,-2.310833,29.533752,-24.513359,79.829613,-26.524458
4.037500,-85.273445,-2.307433,31.308456,-24.936686,86.526718,-27.226233
4.043750,-94.593704,-2.305185,32.201862,-25.289541,90.368568,-27.864180
4.050000,-101.495071,-2.304231,32.129723,-25.570248,91.734001,-28.419847
4.056250,-105.972305,-2.303690,31.092764,-25.772701,91.143913,-28.883049
4.062500,-108.143845,-2.302968,29.263746,-25.875908,87.393768,-29.227997
4.068750,-108.252274,-2.302825,26.735144,-25.893017,82.924767,-29.435360
4.075000,-106.643723,-2.304539,23.634575,-25.840843,77.885101,-29.510593
4.081250,-103.739166,-2.307614,20.263960,-25.732016,72.554230,-29.458254
4.087500,-100.021751,-2.310611,17.001896,-25.574646,67.334251,-29.279522
4.093750,-96.022316,-2.312947,14.269326,-25.376089,60.512558,-28.979010
4.100000,-90.128181,-2.315467,10.587809,-25.148399,53.897369,-28.574146
4.106250,-84.238274,-2.318848,8.023469,-24.898205,47.421986,-28.100182
4.112500,-78.349098,-2.322856,6.515677,-24.620119,41.122692,-27.534262
4.118750,-72.456635,-2.327239,5.888631,-24.323553,35.243610,-26.890856
4.125000,-66.562714,-2.332204,5.855852,-24.023756,29.464407,-26.212622
4.131250,-60.667118,-2.337838,6.207086,-23.731033,23.843029,-25.530487
4.137500,-54.767220,-2.343647,6.770759,-23.449972,18.493336,-24.868414
4.143750,-48.861042,-2.349279,7.387854,-23.180874,13.533625,-24.243841
4.150000,-42.951595,-2.354932,7.879980,-22.923578,9.051780,-23.670254
4.156250,-37.041107,-2.361000,10.234134,-22.675407,5.115964,-23.148605
4.162500,-31.129604,-2.367450,12.918790,-22.429529,1.753152,-22.666842
4.168750,-25.214314,-2.374130,14.374978,-22.177444,0.682308,-22.279919
4.175000,-19.294983,-2.380974,16.414557,-21.930817,-0.896271,-21.951399
4.181250,-13.372016,-2.387786,18.685190,-21.697569,-1.263934,-21.682585
4.187500,-7.444151,-2.394298,20.884777,-21.483822,-0.623771,-21.435171
4.193750,-1.511669,-2.400428,22.703449,-21.296062,0.864383,-21.256508
4.200000,4.424739,-2.406012,23.851307,-21.141996,3.739757,-21.172592
4.206250,10.364363,-2.410644,24.075102,-21.028908,5.043562,-21.164852
4.212500,16.306810,-2.414239,25.359129,-20.956726,7.700829,-21.179464
4.218750,22.248638,-2.417038,26.250116,-20.914932,9.377810,-21.218786
4.225000,28.186972,-2.419483,25.256477,-20.897875,10.146447,-21.287868
4.231250,34.121017,-2.421716,24.360266,-20.894505,9.863257,-21.376698
4.237500,40.052910,-2.423708,23.364183,-20.899862,8.354069,-21.464804
4.243750,45.982265,-2.425322,21.942863,-20.931511,7.551761,-21.553555
4.250000,51.910465,-2.426585,19.908144,-20.977247,5.825364,-21.645618
4.256250,57.836658,-2.427374,17.130484,-21.018885,3.649746,-21.725212
4.262500,63.758465,-2.428159,13.385088,-21.041412,1.438335,-21.779375
4.268750,69.673477,-2.429584,8.473536,-21.034147,-0.462558,-21.795734
4.275000,75.581558,-2.432108,2.218694,-20.990057,-1.754752,-21.765652
4.281250,81.488403,-2.435255,-3.374277,-20.898497,-2.180892,-21.676626
4.287500,87.396797,-2.438815,-9.824372,-20.753063,-1.551014,-21.501451
4.293750,93.304733,-2.443436,-16.841396,-20.571232,0.105190,-21.286385
4.300000,97.316589,-2.449391,-24.096083,-20.359112,2.419422,-21.050026
4.306250,101.060944,-2.455722,-31.156401,-20.118740,5.586127,-20.785429
4.312500,104.010452,-2.461293,-37.698460,-19.859217,9.418377,-20.499498
4.318750,105.669357,-2.466341,-43.458717,-19.593374,13.650447,-20.204145
4.325000,105.602684,-2.471860,-48.241295,-19.340353,17.979654,-19.916113
4.331250,103.470879,-2.477819,-51.911594,-19.121567,22.092550,-19.650227
4.337500,99.043655,-2.483253,-54.384056,-18.969183,25.714039,-19.413715
4.343750,92.201332,-2.487583,-55.652603,-18.859554,28.609678,-19.173939
4.350000,82.940094,-2.490957,-54.783573,-18.783285,30.465818,-19.005320
4.356250,71.378639,-2.493378,-52.603600,-18.805544,32.803478,-18.920616
4.362500,57.754860,-2.494237,-48.980099,-18.930330,34.434959,-18.929527
4.368750,42.407181,-2.493866,-43.989319,-19.152111,35.739483,-19.057581
4.375000,25.756798,-2.492957,-37.838013,-19.460058,37.041061,-19.274612
4.381250,8.295473,-2.491551,-30.802320,-19.835758,38.243950,-19.533236
4.387500,-9.440059,-2.489109,-23.203876,-20.255083,40.207417,-19.839430
4.393750,-26.904308,-2.485636,-15.444336,-20.699726,41.255360,-20.232824
4.400000,-43.571774,-2.482328,-7.969840,-21.157051,43.057335,-20.693699
4.406250,-58.950230,-2.479449,-0.886969,-21.610172,45.125320,-21.193293
4.412500,-72.607315,-2.476250,5.742131,-22.044565,47.157185,-21.710461
4.418750,-84.201180,-2.472662,11.617265,-22.452000,48.929058,-22.229332
4.425000,-93.499550,-2.469603,16.562544,-22.784918,50.324753,-22.711178
4.431250,-100.382767,-2.467526,20.538906,-23.026794,51.363194,-23.118168
4.437500,-104.845398,-2.465935,23.256414,-23.188246,51.843807,-23.444246
4.443750,-107.006310,-2.464495,24.746908,-23.276747,51.727684,-23.681698
4.450000,-107.106102,-2.464068,25.190062,-23.293653,51.127674,-23.821896
4.456250,-105.487221,-2.465205,24.842205,-23.242378,50.209621,-23.861412
4.462500,-102.570961,-2.467306,24.029896,-23.131027,49.152470,-23.803282
4.468750,-98.844193,-2.469699,23.159872,-22.975075,48.174240,-23.663216
4.475000,-94.842422,-2.472776,20.802393,-22.785868,47.545254,-23.449249
4.481250,-88.945961,-2.476755,19.173365,-22.550362,45.933884,-23.127068
4.487500,-83.045197,-2.480934,18.110689,-22.295700,45.026733,-22.743042
4.493750,-77.139175,-2.484904,17.415106,-22.045956,44.440975,-22.329906
4.500000,-71.232903,-2.489654,17.019157,-21.815321,43.954750,-21.911612
4.506250,-65.329445,-2.495902,16.879513,-21.608027,43.366798,-21.505207
4.512500,-59.421467,-2.502739,16.949930,-21.416187,42.475056,-21.122978
4.518750,-53.501064,-2.508635,17.168528,-21.206476,41.058399,-20.775249
4.525000,-47.570629,-2.513490,17.444288,-20.996006,38.847954,-20.491783
4.531250,-41.640198,-2.518448,18.897812,-20.848972,35.468517,-20.287020
4.537500,-35.711891,-2.523918,20.752642,-20.725016,32.194969,-20.113972
4.543750,-29.779049,-2.529285,21.516003,-20.596729,27.535572,-19.994473
4.550000,-23.838074,-2.533701,22.874319,-20.487141,21.878719,-19.910603
4.556250,-17.891226,-2.537191,24.379932,-20.419069,15.549406,-19.892895
4.562500,-11.942609,-2.540140,25.698404,-20.411993,9.401172,-19.986067
4.568750,-5.993090,-2.542568,26.516502,-20.490679,3.356024,-20.186960
4.575000,-0.041073,-2.544235,26.546196,-20.700710,-2.383937,-20.440760
4.581250,5.914463,-2.544729,25.554792,-20.999798,-7.683184,-20.744322
4.587500,11.870816,-2.543962,24.431175,-21.373901,-11.948197,-21.114971
4.593750,17.825710,-2.542213,22.549114,-21.852751,-15.013444,-21.548090
4.600000,23.776964,-2.539708,19.940931,-22.438433,-16.855234,-22.025066
4.606250,29.724056,-2.536252,16.562485,-23.201162,-17.611816,-22.546688
4.612500,35.666519,-2.531902,12.763941,-24.002447,-17.588432,-23.109396
4.618750,41.600239,-2.527488,8.697291,-24.875925,-16.906855,-23.689266
4.625000,47.522526,-2.523795,4.309615,-25.804644,-15.849869,-24.270273
4.631250,53.438164,-2.520312,-0.143393,-26.756241,-14.750997,-24.839281
4.637500,59.352367,-2.516103,-4.407437,-27.688755,-13.978010,-25.381311
4.643750,65.262146,-2.511442,-8.235373,-28.551197,-13.903536,-25.863361
4.650000,71.159233,-2.507887,-13.309283,-29.286362,-14.891288,-26.241823
4.656250,77.041634,-2.506410,-15.722112,-29.851093,-17.280708,-26.499159
4.662500,82.917168,-2.506552,-17.449221,-30.240101,-19.548203,-26.676079
4.668750,88.791740,-2.507900,-18.439873,-30.425463,-23.211508,-26.745817
4.675000,94.666077,-2.510683,-18.654554,-30.392097,-27.947905,-26.697996
4.681250,98.645874,-2.514833,-18.187336,-30.139645,-33.531441,-26.531384
4.687500,102.356171,-2.519808,-17.212673,-29.688822,-39.726326,-26.255699
4.693750,105.264397,-2.525680,-15.952467,-29.076551,-46.261497,-25.883106
4.700000,106.875420,-2.533370,-14.669934,-28.341797,-52.796871,-25.418848
4.706250,106.763817,-2.542816,-13.837138,-27.480700,-58.966629,-24.856804
4.712500,104.599121,-2.552438,-13.768436,-26.537670,-64.372307,-24.222275
4.718750,100.148720,-2.560885,-14.702973,-25.575005,-70.360558,-23.599550
