Anritsu VNA Frequency[GHz],S21[deg],S21[dB],S11[deg],S11[dB],S22[deg],S22[dB]
1338088045.31,2012_05_27_04:07:25,+40.616,+10.242,+55.038,+10.260,+13.913,+13.723,+14.019,+13.770,10.368290,-16.561
3.006250,33.444675,-1.745919,58.721920,-26.676056,-80.912949,-27.436327
3.012500,33.444675,-1.745919,58.721920,-26.676056,-80.912949,-27.436327
3.018750,33.444675,-1.745919,58.721920,-26.676056,-80.912949,-27.436327
3.025000,33.444675,-1.745919,58.721920,-26.676056,-80.912949,-27.436327
3.031250,33.444675,-1.745919,58.721920,-26.676056,-80.912949,-27.436327
3.037500,33.444675,-1.745919,58.721920,-26.676056,-80.912949,-27.436327
3.043750,33.444675,-1.745919,58.721920,-26.676056,-80.912949,-27.436327
3.050000,33.444675,-1.745919,58.721920,-26.676056,-80.912949,-27.436327
3.056250,33.444675,-1.745919,58.721920,-26.676056,-80.912949,-27.436327
3.062500,33.444675,-1.745919,58.721920,-26.676056,-80.912949,-27.436327
3.068750,33.444675,-1.745919,58.721920,-26.676056,-80.912949,-27.436327
3.075000,33.444675,-1.745919,58.721920,-26.676056,-80.912949,-27.436327
3.081250,33.444675,-1.745919,58.721920,-26.676056,-80.912949,-27.436327
3.087500,33.444675,-1.745919,58.721920,-26.676056,-80.912949,-27.436327
3.093750,33.444675,-1.747807,58.721920,-26.476940,-80.912949,-27.185265
3.100000,39.349693,-1.749983,56.049904,-26.329683,-82.892410,-26.952278
3.106250,45.254707,-1.752223,52.502148,-26.254448,-83.259880,-26.738369
3.112500,51.160091,-1.754516,48.432621,-26.271618,-81.661400,-26.516455
3.118750,57.064854,-1.757010,42.444855,-26.319094,-79.939674,-26.215683
3.125000,62.968655,-1.759636,37.658150,-26.368008,-75.860481,-25.954357
3.131250,68.872063,-1.762356,33.283661,-26.443346,-69.688400,-25.666115
3.137500,74.774574,-1.765402,29.585289,-26.546148,-61.797131,-25.341576
3.143750,80.675598,-1.768955,26.765158,-26.667324,-52.370995,-24.989067
3.150000,86.577377,-1.772768,25.003365,-26.792440,-41.563229,-24.620871
3.156250,92.482765,-1.776327,24.418762,-26.906887,-29.547384,-24.255470
3.162500,96.495720,-1.779577,25.075560,-26.997490,-16.522493,-23.916338
3.168750,100.235672,-1.782950,26.994040,-27.057188,-2.701128,-23.652679
3.175000,103.169235,-1.786539,30.221611,-27.064005,9.863203,-23.407324
3.181250,104.805786,-1.790195,32.999226,-27.005819,23.202717,-23.185341
3.187500,104.719940,-1.793646,36.787251,-26.899981,35.988152,-23.018143
3.193750,102.570847,-1.796832,40.882965,-26.758608,47.734665,-22.920809
3.200000,98.120743,-1.799688,44.717552,-26.590010,58.028065,-22.896965
3.206250,91.247795,-1.802197,47.810329,-26.405088,66.476013,-22.946699
3.212500,81.950157,-1.804522,49.743134,-26.217764,72.768051,-23.078033
3.218750,70.348274,-1.807043,50.203487,-26.038710,76.680725,-23.273624
3.225000,56.680347,-1.809440,51.192070,-25.861975,77.840042,-23.478239
3.231250,41.289322,-1.811359,51.245090,-25.687996,76.415573,-23.700994
3.237500,24.600800,-1.812976,48.871887,-25.516209,74.413986,-23.932951
3.243750,7.102450,-1.814915,46.185135,-25.322765,70.249649,-24.151955
3.250000,-10.672933,-1.817420,43.048012,-25.149836,64.526329,-24.338575
3.256250,-28.174879,-1.820086,39.108788,-25.009075,57.799183,-24.491793
3.262500,-44.868286,-1.822406,34.605003,-24.883419,50.694515,-24.600540
3.268750,-60.262589,-1.824423,29.482107,-24.769535,43.913277,-24.656260
3.275000,-73.934143,-1.826535,23.614885,-24.665949,38.039692,-24.658484
3.281250,-85.542839,-1.829056,16.895561,-24.563829,33.575558,-24.615208
3.287500,-94.849701,-1.831906,9.229685,-24.450081,30.906771,-24.539948
3.293750,-101.730583,-1.834840,0.583652,-24.285618,30.293640,-24.433615
3.300000,-106.185768,-1.837638,-6.868110,-24.118372,31.893509,-24.296303
3.306250,-108.335762,-1.840171,-15.543452,-23.983467,35.686440,-24.155479
3.312500,-108.418289,-1.842453,-24.217356,-23.862143,41.492584,-24.043015
3.318750,-106.775307,-1.844585,-32.603733,-23.762438,49.048172,-23.979336
3.325000,-103.834068,-1.846500,-40.438713,-23.702213,58.012310,-23.974825
3.331250,-100.085823,-1.848063,-47.461067,-23.704903,67.952827,-24.032497
3.337500,-96.063751,-1.849222,-53.493172,-23.833546,78.353844,-24.150583
3.343750,-90.146881,-1.850066,-58.510906,-23.993954,88.677582,-24.314503
3.350000,-84.230324,-1.850515,-62.949326,-24.214245,96.525131,-24.468090
3.356250,-78.314766,-1.850656,-66.381203,-24.536827,105.126686,-24.666103
3.362500,-72.401062,-1.850636,-67.094254,-24.983393,111.382004,-24.914724
3.368750,-66.489311,-1.850373,-66.728104,-25.535332,115.421928,-25.203709
3.375000,-60.577801,-1.849562,-65.163155,-26.165855,116.845451,-25.578379
3.381250,-54.668568,-1.848381,-62.417088,-26.841354,115.498650,-25.911716
3.387500,-48.765831,-1.847563,-58.585602,-27.523849,111.983864,-26.232418
3.393750,-42.869297,-1.847572,-53.828148,-28.168673,105.758286,-26.532917
3.400000,-36.974987,-1.847927,-48.367313,-28.733637,97.386673,-26.805641
3.406250,-31.079586,-1.848083,-42.540668,-29.198053,87.872574,-27.082369
3.412500,-25.184387,-1.848389,-36.674652,-29.536848,77.878387,-27.328215
3.418750,-19.294052,-1.849594,-28.834187,-29.728710,66.043030,-27.522657
3.425000,-13.406829,-1.851721,-22.562370,-29.769814,54.654686,-27.659477
3.431250,-7.516581,-1.854023,-16.006718,-29.675159,44.144062,-27.744749
3.437500,-1.621919,-1.856204,-9.421441,-29.428879,34.963688,-27.782377
3.443750,4.272366,-1.859019,-2.830101,-29.029682,27.795033,-27.720264
3.450000,10.165001,-1.862776,3.246840,-28.522528,20.913776,-27.587843
3.456250,16.062111,-1.866728,8.649509,-27.945990,16.098677,-27.398890
3.462500,21.967779,-1.870038,13.374034,-27.343006,13.058992,-27.154892
3.468750,27.878670,-1.872724,17.506990,-26.760038,11.477536,-26.853106
3.475000,33.789692,-1.875185,21.158409,-26.261421,11.002066,-26.509022
3.481250,39.700569,-1.877549,24.583353,-25.800539,11.238516,-26.138710
3.487500,45.610741,-1.879938,26.519430,-25.406401,11.823321,-25.735388
3.493750,51.519176,-1.882724,28.355133,-25.114811,12.323713,-25.306492
3.500000,57.426792,-1.885984,29.916647,-24.930363,12.304486,-24.864069
3.506250,63.337555,-1.888970,31.102160,-24.837975,11.435076,-24.418272
3.512500,69.252480,-1.891155,31.815331,-24.805864,9.445033,-23.979750
3.518750,75.167374,-1.893174,32.035839,-24.745777,8.213974,-23.550104
3.525000,81.076180,-1.896130,31.891840,-24.729313,3.175795,-23.137468
3.531250,86.980583,-1.900139,32.008556,-24.715378,-2.924578,-22.756685
3.537500,92.887352,-1.904418,32.003834,-24.669388,-8.035895,-22.424484
3.543750,96.905052,-1.908429,32.130066,-24.581223,-13.623594,-22.136675
3.550000,100.652756,-1.912610,32.725479,-24.423569,-19.406574,-21.855461
3.556250,103.593300,-1.917540,32.227650,-24.198202,-24.904682,-21.528366
3.562500,105.238937,-1.922762,32.349270,-23.934778,-29.845356,-21.287365
3.568750,105.168983,-1.927184,32.748928,-23.659716,-32.993103,-21.117563
3.575000,103.042686,-1.930192,33.148842,-23.399536,-35.363079,-21.019346
3.581250,98.617104,-1.932147,33.263485,-23.188915,-36.687057,-21.006832
3.587500,91.766220,-1.933746,32.840038,-23.063810,-36.986557,-21.039816
3.593750,82.489647,-1.934870,31.767166,-23.014103,-36.130676,-21.141113
3.600000,70.913467,-1.934927,29.982090,-23.050501,-33.964363,-21.325056
3.606250,57.274578,-1.933573,29.332293,-23.187700,-30.645239,-21.585815
3.612500,41.909046,-1.931370,28.367413,-23.411417,-26.452095,-21.897264
3.618750,25.239956,-1.928765,27.482460,-23.738565,-21.776567,-22.233807
3.625000,7.761637,-1.925475,26.792477,-24.179323,-17.404518,-22.638779
3.631250,-9.992060,-1.921313,26.905500,-24.696278,-11.526582,-23.073589
3.637500,-27.477957,-1.916816,28.127512,-25.254616,-5.869479,-23.509975
3.643750,-44.167820,-1.912683,30.597841,-25.817713,-0.456014,-23.927942
3.650000,-59.568291,-1.909217,32.451931,-26.340111,4.618450,-24.311317
3.656250,-73.248901,-1.906337,35.248077,-26.747984,9.274717,-24.642628
3.662500,-84.868027,-1.904179,38.167442,-27.085211,13.416838,-24.916771
3.668750,-94.188751,-1.902951,42.130413,-27.330933,16.902054,-25.139982
3.675000,-101.086655,-1.902351,45.456947,-27.457144,19.644768,-25.311457
3.681250,-105.559380,-1.901828,47.881660,-27.461050,21.585201,-25.429342
3.687500,-107.730728,-1.901854,49.164066,-27.355537,22.649029,-25.496721
3.693750,-107.840729,-1.903153,49.156952,-27.167038,22.781895,-25.522404
3.700000,-106.228127,-1.905568,47.863106,-26.900988,21.990162,-25.517328
3.706250,-103.313400,-1.908160,45.444778,-26.575037,20.402205,-25.474260
3.712500,-99.587440,-1.910520,41.881535,-26.228384,18.238144,-25.386759
3.718750,-95.587463,-1.913208,35.467636,-25.887720,15.644333,-25.259865
3.725000,-89.694412,-1.916560,28.127632,-25.569038,12.952010,-25.109205
3.731250,-83.799461,-1.919953,19.585632,-25.317062,10.771548,-24.974428
3.737500,-77.899376,-1.922879,11.784377,-25.154665,9.511646,-24.866690
3.743750,-71.996864,-1.925561,3.469285,-25.067310,9.584465,-24.808607
3.750000,-66.095757,-1.928304,-4.807768,-25.042868,9.593615,-24.715057
3.756250,-60.195362,-1.931049,-12.651882,-25.077038,9.510477,-24.606874
3.762500,-54.293873,-1.933586,-19.641369,-25.148737,10.666215,-24.484482
3.768750,-48.392422,-1.936091,-25.341139,-25.221912,12.804399,-24.396709
3.775000,-42.492363,-1.938898,-29.518808,-25.307472,15.466276,-24.332394
3.781250,-36.592575,-1.941759,-32.067772,-25.393692,18.051025,-24.276199
3.787500,-30.690933,-1.944362,-32.634663,-25.459251,20.195946,-24.221001
3.793750,-24.789461,-1.947017,-31.138416,-25.517941,21.595402,-24.170586
3.800000,-18.889832,-1.950053,-27.600317,-25.517155,22.053663,-24.116911
3.806250,-12.990751,-1.953431,-23.186832,-25.428621,21.586718,-24.023932
3.812500,-7.090119,-1.956953,-17.254885,-25.293625,20.049528,-23.900366
3.818750,-1.189073,-1.960801,-10.392499,-25.129019,17.334106,-23.756786
3.825000,4.712707,-1.964999,-3.203903,-24.948835,13.570825,-23.600084
3.831250,10.618786,-1.968855,5.879335,-24.767902,9.033213,-23.440468
3.837500,16.528406,-1.972141,14.939707,-24.600166,4.037149,-23.315557
3.843750,22.437294,-1.975521,24.017731,-24.441496,-1.077299,-23.178267
3.850000,28.343447,-1.979398,31.308548,-24.285765,-7.000024,-23.012682
3.856250,34.250706,-1.983083,38.371525,-24.142653,-12.536771,-22.857485
3.862500,40.161995,-1.986050,44.668247,-24.010492,-17.665827,-22.721231
3.868750,46.072811,-1.988869,49.764740,-23.876408,-22.367788,-22.600616
3.875000,51.976593,-1.992758,53.256443,-23.718105,-26.666702,-22.484905
3.881250,57.876347,-1.997856,54.726727,-23.540798,-30.634897,-22.358284
3.887500,63.779903,-2.003024,53.732014,-23.346861,-34.454014,-22.225292
3.893750,69.690117,-2.007746,50.190945,-23.117910,-38.381870,-22.091002
3.900000,75.601570,-2.012747,46.194725,-22.843761,-42.546970,-21.947832
3.906250,81.510170,-2.018790,40.330677,-22.524403,-45.253567,-21.793964
3.912500,87.418800,-2.025854,33.138187,-22.161322,-48.370010,-21.624603
3.918750,93.334030,-2.033294,25.166067,-21.762060,-51.605228,-21.426807
3.925000,97.363335,-2.040523,16.880846,-21.353270,-54.721252,-21.174118
3.931250,101.127892,-2.047384,8.738311,-20.959936,-57.782822,-20.955549
3.937500,104.093140,-2.053821,1.289626,-20.602594,-58.580612,-20.767181
3.943750,105.766823,-2.059607,-5.014510,-20.304466,-58.200150,-20.617411
3.950000,105.722832,-2.064260,-9.839968,-20.087198,-56.172184,-20.520136
3.956250,103.620445,-2.067247,-12.958226,-19.969219,-52.144928,-20.490759
3.962500,99.219322,-2.068514,-14.227467,-19.960369,-45.866642,-20.541269
3.968750,92.394127,-2.068377,-13.578954,-20.057735,-37.196774,-20.679924
3.975000,83.142487,-2.066920,-12.921836,-20.229736,-26.140017,-20.917747
3.981250,71.585007,-2.064169,-10.720852,-20.523235,-12.863060,-21.279333
3.987500,57.957069,-2.060299,-6.369257,-20.924450,1.044543,-21.684902
3.993750,42.597095,-2.055626,-1.079953,-21.389378,16.208416,-22.192560
4.000000,25.931747,-2.050303,4.495265,-21.913658,31.842918,-22.809362
4.006250,8.453231,-2.044338,10.009245,-22.481226,47.083485,-23.567196
4.012500,-9.308084,-2.038211,15.191956,-23.064178,60.852638,-24.321159
4.018750,-26.808243,-2.032804,19.793982,-23.630030,73.841484,-25.049152
4.025000,-43.513363,-2.028270,23.530153,-24.162872,84.090263,-25.788420
4.031250,-58.926449,-2.024220,28.263021,-24.652819,92.506157,-26.541529
4.037500,-72.618683,-2.020717,30.623045,-25.078634,98.212639,-27.255123
4.043750,-84.252571,-2.018512,32.653728,-25.427660,101.493385,-27.899794
4.050000,-93.589508,-2.017646,34.209667,-25.699266,102.744705,-28.458765
4.056250,-100.501282,-2.017148,35.225109,-25.884041,102.491211,-28.922668
4.062500,-104.985229,-2.016407,35.777046,-25.963945,99.537590,-29.258183
4.068750,-107.169754,-2.016423,35.810970,-25.955908,96.278969,-29.452023
4.075000,-107.296463,-2.018449,35.349697,-25.877270,92.775192,-29.511663
4.081250,-105.699402,-2.021697,34.571434,-25.741737,89.253906,-29.441343
4.087500,-102.795471,-2.024763,33.733574,-25.557753,83.878159,-29.241995
4.093750,-99.077385,-2.027195,33.137203,-25.334538,78.376053,-28.919830
4.100000,-95.086563,-2.029877,31.200340,-25.085972,72.604904,-28.495571
4.106250,-89.204727,-2.033479,29.920845,-24.818081,66.472771,-28.008200
4.112500,-83.322937,-2.037596,29.202585,-24.522926,60.061432,-27.415068
4.118750,-77.437759,-2.042040,28.785625,-24.216877,53.535671,-26.752150
4.125000,-71.550735,-2.047082,28.376837,-23.915190,46.638634,-26.060089
4.131250,-65.662254,-2.052768,27.804138,-23.627354,39.520538,-25.368773
4.137500,-59.769154,-2.058543,26.949940,-23.356802,32.381371,-24.701136
4.143750,-53.869438,-2.064041,25.729664,-23.102840,25.433966,-24.074696
4.150000,-47.966721,-2.069556,24.056480,-22.864624,18.868061,-23.502457
4.156250,-42.064232,-2.075472,24.026590,-22.637886,12.856798,-22.984501
4.162500,-36.160389,-2.081730,24.230885,-22.412025,7.545531,-22.537970
4.168750,-30.253067,-2.088109,23.256838,-22.175920,4.624758,-22.158478
4.175000,-24.341820,-2.094620,22.956392,-21.948494,1.551435,-21.848009
4.181250,-18.426929,-2.101086,23.143848,-21.734612,0.028884,-21.599476
4.187500,-12.507687,-2.107180,23.619146,-21.538971,-0.060923,-21.351938
4.193750,-6.584249,-2.112883,24.160343,-21.367540,1.342150,-21.216768
4.200000,-0.656990,-2.117965,24.537886,-21.227507,2.313386,-21.164869
4.206250,5.273513,-2.122147,24.535509,-21.126270,3.534948,-21.174763
4.212500,11.206517,-2.125231,23.989822,-21.060694,6.037702,-21.202806
4.218750,17.138208,-2.127549,24.965458,-21.019852,7.589731,-21.254217
4.225000,23.066029,-2.129549,24.051378,-20.999207,8.185156,-21.328806
4.231250,28.989870,-2.131438,23.229683,-20.987574,7.676187,-21.412817
4.237500,34.911522,-2.133024,22.288973,-20.984241,5.895264,-21.483292
4.243750,40.830860,-2.134341,20.896751,-21.005877,4.754978,-21.550272
4.250000,46.748730,-2.135336,18.893259,-21.037584,2.641462,-21.612431
4.256250,52.664558,-2.135831,16.131310,-21.061832,0.076508,-21.653643
4.262500,58.576111,-2.136415,12.379677,-21.063787,-2.525866,-21.662725
4.268750,64.480186,-2.137775,7.437628,-21.033127,-4.809602,-21.629284
4.275000,70.377975,-2.140276,1.125352,-20.962385,-6.461578,-21.546692
4.281250,76.275337,-2.143386,-4.550994,-20.839865,-7.210353,-21.402525
4.287500,82.174599,-2.146919,-11.121240,-20.662294,-6.856422,-21.167603
4.293750,88.072983,-2.151573,-18.328726,-20.453087,-5.498266,-20.913101
4.300000,93.970924,-2.157606,-25.801962,-20.214098,-3.403295,-20.641027
4.306250,97.980850,-2.163838,-33.099670,-19.948446,-0.378064,-20.348637
4.312500,101.729683,-2.169164,-39.903862,-19.667192,3.369318,-20.045666
4.318750,104.679352,-2.174051,-45.942734,-19.384935,7.576234,-19.745630
4.325000,106.330017,-2.179445,-51.014252,-19.122944,11.939286,-19.466316
4.331250,106.256859,-2.185181,-54.972420,-18.904673,16.148132,-19.222330
4.337500,104.126518,-2.190242,-57.718491,-18.779728,19.930882,-19.016077
4.343750,99.702652,-2.194159,-59.272743,-18.652052,23.069618,-18.790726
4.350000,92.859009,-2.197186,-58.633320,-18.597986,25.077850,-18.669935
4.356250,83.593628,-2.199105,-56.692253,-18.651741,27.636044,-18.634304
4.362500,72.028313,-2.199436,-53.251526,-18.812658,29.497122,-18.694809
4.368750,58.397903,-2.198596,-48.397366,-19.072329,31.015625,-18.877569
4.375000,43.036839,-2.197392,-42.333961,-19.417233,32.431183,-19.121487
4.381250,26.372044,-2.195680,-35.334648,-19.825897,33.804558,-19.410078
4.387500,8.900799,-2.192845,-27.722406,-20.271742,35.935978,-19.750244
4.393750,-8.846531,-2.189154,-19.913212,-20.738398,37.145298,-20.170256
4.400000,-26.330441,-2.185786,-12.366078,-21.212774,38.991386,-20.645174
4.406250,-43.017612,-2.182875,-3.282609,-21.677151,41.056889,-21.149174
4.412500,-58.410004,-2.179542,3.751782,-22.117727,43.049061,-21.663494
4.418750,-72.079758,-2.175953,10.580394,-22.528561,44.754642,-22.174231
4.425000,-83.691803,-2.173011,17.032801,-22.848391,46.091003,-22.633394
4.431250,-93.009590,-2.171067,22.933588,-23.076101,47.064625,-23.013691
4.437500,-99.905785,-2.169498,27.894279,-23.223921,47.447853,-23.311523
4.443750,-104.378052,-2.168091,31.869043,-23.299343,47.239830,-23.519796
4.450000,-106.552620,-2.167743,34.924438,-23.304379,46.569851,-23.631351
4.456250,-106.666733,-2.168879,37.189548,-23.243830,45.606785,-23.644665
4.462500,-105.055573,-2.170782,38.864922,-23.127993,44.533867,-23.565960
4.468750,-102.141747,-2.172919,40.238983,-22.976788,43.572002,-23.417452
4.475000,-98.420692,-2.175911,39.797466,-22.788549,43.019958,-23.184074
4.481250,-94.426338,-2.179719,39.705753,-22.556932,41.599785,-22.853424
4.487500,-88.531998,-2.183527,39.624672,-22.314411,40.844547,-22.471670
4.493750,-82.632690,-2.187096,39.363537,-22.082634,40.454533,-22.068459
4.500000,-76.734428,-2.191559,38.855209,-21.872646,40.211235,-21.665241
4.506250,-70.839317,-2.197628,38.074688,-21.685015,39.904400,-21.276600
4.512500,-64.939079,-2.204188,37.015209,-21.506708,39.315643,-20.911991
4.518750,-59.026005,-2.209676,35.675079,-21.280277,38.197296,-20.581070
4.525000,-53.104294,-2.214271,34.083637,-21.097944,36.228512,-20.320362
4.531250,-47.183701,-2.219145,33.326180,-20.963150,32.961258,-20.116144
4.537500,-41.265285,-2.224650,32.896927,-20.832031,29.759914,-19.947294
4.543750,-35.341103,-2.229939,31.388758,-20.694525,25.121981,-19.824194
4.550000,-29.408394,-2.234245,30.520592,-20.577188,19.373083,-19.723063
4.556250,-23.470251,-2.237604,30.004128,-20.502668,12.923050,-19.705006
4.562500,-17.530548,-2.240527,29.624744,-20.489882,6.473049,-19.785086
4.568750,-11.589917,-2.242908,29.158102,-20.564533,0.000382,-19.961584
4.575000,-5.646277,-2.244435,28.376112,-20.785904,-6.313147,-20.180105
4.581250,0.300839,-2.244771,27.094421,-21.069862,-12.138818,-20.453455
4.587500,6.248722,-2.243814,24.039280,-21.438988,-16.977753,-20.793726
4.593750,12.194746,-2.241899,22.093023,-21.912708,-20.645351,-21.193096
4.600000,18.137033,-2.239182,19.379190,-22.493870,-23.093201,-21.631840
4.606250,24.075474,-2.235377,15.773274,-23.244104,-24.465960,-22.121222
4.612500,30.009344,-2.230651,12.189021,-24.033375,-25.027765,-22.651285
4.618750,35.933525,-2.225904,8.002033,-24.893185,-24.852627,-23.199869
4.625000,41.845501,-2.221944,3.546172,-25.803314,-24.217237,-23.751650
4.631250,47.751499,-2.218134,-0.888403,-26.730276,-23.444324,-24.292803
4.637500,53.655937,-2.213456,-5.039432,-27.631546,-22.896591,-24.806719
4.643750,59.555744,-2.208488,-8.656952,-28.454460,-22.937372,-25.257736
4.650000,65.441597,-2.204786,-13.434690,-29.138412,-23.917257,-25.598310
4.656250,71.313309,-2.203153,-15.508539,-29.656231,-26.217896,-25.836588
4.662500,77.179108,-2.203115,-16.925167,-30.000126,-28.409163,-25.993584
4.668750,83.044022,-2.204304,-17.551754,-30.140247,-31.875114,-26.042788
4.675000,88.908340,-2.207013,-17.411919,-30.064383,-36.379642,-25.976276
4.681250,94.773529,-2.211103,-16.636158,-29.775614,-41.716244,-25.794912
4.687500,98.748276,-2.215911,-15.426918,-29.298069,-47.662910,-25.509951
4.693750,102.453415,-2.221678,-14.027706,-28.670074,-53.952110,-25.132931
4.700000,105.352730,-2.229429,-12.731559,-27.920218,-60.238384,-24.666349
4.706250,106.956985,-2.238873,-12.035625,-27.051004,-66.156380,-24.102060
4.712500,106.850449,-2.248236,-12.178033,-26.105083,-71.264359,-23.494925
4.718750,104.695908,-2.256316,-13.505188,-25.158821,-76.975624,-22.900169
