Anritsu VNA Frequency[GHz],S21[deg],S21[dB],S11[deg],S11[dB],S22[deg],S22[dB]
1338122037.39,2012_05_27_13:33:57,+40.669,+10.286,+55.339,+10.302,+13.918,+13.729,+14.024,+13.775,10.396252,-15.838
3.006250,34.381054,-1.758082,59.549503,-26.650782,-79.748863,-27.444252
3.012500,34.381054,-1.758082,59.549503,-26.650782,-79.748863,-27.444252
3.018750,34.381054,-1.758082,59.549503,-26.650782,-79.748863,-27.444252
3.025000,34.381054,-1.758082,59.549503,-26.650782,-79.748863,-27.444252
3.031250,34.381054,-1.758082,59.549503,-26.650782,-79.748863,-27.444252
3.037500,34.381054,-1.758082,59.549503,-26.650782,-79.748863,-27.444252
3.043750,34.381054,-1.758082,59.549503,-26.650782,-79.748863,-27.444252
3.050000,34.381054,-1.758082,59.549503,-26.650782,-79.748863,-27.444252
3.056250,34.381054,-1.758082,59.549503,-26.650782,-79.748863,-27.444252
3.062500,34.381054,-1.758082,59.549503,-26.650782,-79.748863,-27.444252
3.068750,34.381054,-1.758082,59.549503,-26.650782,-79.748863,-27.444252
3.075000,34.381054,-1.758082,59.549503,-26.650782,-79.748863,-27.444252
3.081250,34.381054,-1.758082,59.549503,-26.650782,-79.748863,-27.444252
3.087500,34.381054,-1.758082,59.549503,-26.650782,-79.748863,-27.444252
3.093750,34.381054,-1.759805,59.549503,-26.447533,-79.748863,-27.191669
3.100000,40.288128,-1.761822,56.862659,-26.292795,-81.764709,-26.957733
3.106250,46.195213,-1.763801,53.291206,-26.209663,-82.165077,-26.743231
3.112500,52.102997,-1.765807,49.204231,-26.218393,-80.592834,-26.522318
3.118750,58.010067,-1.767929,43.205017,-26.261253,-78.888344,-26.219389
3.125000,63.916222,-1.770194,38.408260,-26.304180,-74.842026,-25.958101
3.131250,69.821800,-1.772539,34.019890,-26.374760,-68.685394,-25.670389
3.137500,75.726395,-1.775234,30.303493,-26.473963,-60.808071,-25.346462
3.143750,81.629425,-1.778485,27.464474,-26.593584,-51.391586,-24.994221
3.150000,87.533318,-1.782023,25.685989,-26.719393,-40.593266,-24.626011
3.156250,93.440361,-1.785385,25.086786,-26.837027,-28.585083,-24.259935
3.162500,97.454903,-1.788517,25.732206,-26.932522,-15.567931,-23.920446
3.168750,101.196083,-1.791745,27.640028,-26.998768,-3.647430,-23.655489
3.175000,104.130615,-1.795286,30.853033,-27.013119,8.635080,-23.411259
3.181250,105.768143,-1.798930,33.615067,-26.962816,21.157816,-23.189402
3.187500,105.683220,-1.802429,37.392075,-26.865170,32.643688,-23.021322
3.193750,103.534760,-1.805698,41.484756,-26.732225,42.660912,-22.923615
3.200000,99.085251,-1.808652,45.315929,-26.572060,50.880020,-22.899826
3.206250,92.213020,-1.811225,48.406029,-26.394709,57.015720,-22.950254
3.212500,82.915939,-1.813642,50.337418,-26.213806,60.875538,-23.082312
3.218750,71.314857,-1.816227,50.797932,-26.039629,62.352509,-23.278347
3.225000,57.647724,-1.818671,51.788303,-25.866245,61.197891,-23.483660
3.231250,42.257881,-1.820587,51.842888,-25.694073,57.696865,-23.707275
3.237500,25.570721,-1.822200,49.477329,-25.523432,53.958557,-23.940285
3.243750,8.073887,-1.824075,46.800140,-25.331375,48.489292,-24.159966
3.250000,-9.699681,-1.826527,43.674019,-25.158279,41.953327,-24.347019
3.256250,-27.199724,-1.829086,39.757263,-25.017200,34.949154,-24.500694
3.262500,-43.891422,-1.831307,35.273933,-24.891750,28.120472,-24.609671
3.268750,-59.283760,-1.833236,30.168318,-24.777689,22.150969,-24.665113
3.275000,-72.952820,-1.835281,24.319273,-24.673819,17.583027,-24.667048
3.281250,-84.559357,-1.837735,17.616686,-24.571342,14.858589,-24.622511
3.287500,-93.864037,-1.840543,9.970812,-24.457638,14.275680,-24.545971
3.293750,-100.742989,-1.843444,1.346756,-24.294413,15.985576,-24.438158
3.300000,-105.195663,-1.846275,-6.083262,-24.125692,20.028854,-24.300051
3.306250,-107.343727,-1.848846,-14.741348,-23.990452,26.271622,-24.158119
3.312500,-107.424385,-1.851181,-23.400154,-23.868610,34.405769,-24.044022
3.318750,-105.779663,-1.853427,-31.774374,-23.767778,44.051670,-23.978525
3.325000,-102.836418,-1.855454,-39.597950,-23.705412,54.761318,-23.972744
3.331250,-99.086700,-1.857135,-46.611874,-23.707224,66.016052,-24.029844
3.337500,-95.062874,-1.858421,-52.633789,-23.847101,77.238503,-24.148241
3.343750,-89.144157,-1.859372,-57.720669,-24.004984,87.847580,-24.312449
3.350000,-83.226082,-1.859950,-62.167171,-24.227083,97.600449,-24.468275
3.356250,-77.308632,-1.860200,-65.619621,-24.555820,106.206810,-24.667122
3.362500,-71.392929,-1.860321,-66.374481,-25.010977,112.469414,-24.918644
3.368750,-65.479027,-1.860155,-66.065186,-25.574358,116.509628,-25.210304
3.375000,-59.565685,-1.859457,-64.570808,-26.218279,117.933105,-25.587925
3.381250,-53.654091,-1.858373,-61.898960,-26.908138,116.572052,-25.925900
3.387500,-47.748581,-1.857638,-58.143311,-27.605062,113.052689,-26.250704
3.393750,-41.849064,-1.857720,-53.461330,-28.264187,106.818047,-26.555788
3.400000,-35.951817,-1.858176,-48.070934,-28.842510,98.433327,-26.833824
3.406250,-30.052906,-1.858487,-42.303806,-29.318396,88.899765,-27.115316
3.412500,-24.154335,-1.858910,-36.483177,-29.666494,78.881577,-27.366068
3.418750,-18.260530,-1.860196,-28.675138,-29.864723,67.020103,-27.564899
3.425000,-12.369623,-1.862473,-22.421175,-29.908684,55.603786,-27.705509
3.431250,-6.475795,-1.864826,-15.868422,-29.813751,45.063679,-27.794065
3.437500,-0.577719,-1.867123,-9.270988,-29.564095,35.853878,-27.833988
3.443750,5.320130,-1.870018,-2.654144,-29.157106,28.654449,-27.773613
3.450000,11.216341,-1.873877,3.465330,-28.639498,21.748945,-27.641993
3.456250,17.116381,-1.877912,8.921887,-28.050741,16.915527,-27.452486
3.462500,23.024881,-1.881317,13.710048,-27.434628,13.859303,-27.208101
3.468750,28.938345,-1.884067,17.907566,-26.837584,12.263275,-26.905083
3.475000,34.852219,-1.886591,21.620745,-26.326357,11.781674,-26.558924
3.481250,40.764881,-1.888989,25.110741,-25.851273,12.021319,-26.185230
3.487500,46.676838,-1.891459,27.105556,-25.445230,12.610383,-25.778357
3.493750,52.587078,-1.894333,28.991041,-25.144558,13.121210,-25.345749
3.500000,58.496235,-1.897621,30.596378,-24.954630,13.115851,-24.899645
3.506250,64.407928,-1.900724,31.815191,-24.861002,12.266528,-24.450029
3.512500,70.324287,-1.903025,32.549759,-24.829292,10.302133,-24.006172
3.518750,76.240517,-1.905143,32.774723,-24.758684,7.019084,-23.573103
3.525000,82.150314,-1.908121,32.709076,-24.747225,2.266199,-23.157915
3.531250,88.055649,-1.912203,32.836052,-24.737675,-1.933483,-22.774591
3.537500,93.963333,-1.916553,32.840393,-24.694447,-7.032855,-22.439438
3.543750,97.981941,-1.920594,32.979454,-24.608843,-12.609932,-22.148256
3.550000,101.730103,-1.924852,33.585453,-24.453320,-18.379086,-21.865236
3.556250,104.672043,-1.929805,33.101242,-24.229408,-23.866812,-21.536863
3.562500,106.318817,-1.935038,33.233429,-23.966516,-28.787134,-21.293325
3.568750,106.249756,-1.939461,33.639259,-23.691441,-31.922520,-21.121519
3.575000,104.124214,-1.942531,34.040268,-23.430861,-34.274414,-21.021507
3.581250,99.699989,-1.944515,34.154152,-23.219482,-35.576286,-21.007660
3.587500,92.850189,-1.946060,33.721203,-23.094570,-35.847237,-21.039673
3.593750,83.575035,-1.947195,32.638721,-23.044224,-34.968254,-21.139568
3.600000,72.000069,-1.947276,30.841202,-23.080030,-32.777626,-21.322266
3.606250,58.362877,-1.945945,30.173174,-23.216763,-29.435293,-21.581959
3.612500,42.998573,-1.943763,29.188265,-23.439869,-25.215908,-21.891792
3.618750,26.331091,-1.941126,28.293499,-23.766937,-20.515331,-22.227009
3.625000,8.854219,-1.937842,27.606314,-24.210234,-16.118946,-22.629593
3.631250,-8.898029,-1.933672,27.727707,-24.731581,-10.225801,-23.062372
3.637500,-26.382244,-1.929113,28.961849,-25.294836,-4.559844,-23.497129
3.643750,-43.070202,-1.924864,31.443949,-25.862690,0.855641,-23.913496
3.650000,-58.468727,-1.921284,33.314297,-26.390165,5.935494,-24.294554
3.656250,-72.147690,-1.918271,36.135788,-26.800755,10.591422,-24.623915
3.662500,-83.764999,-1.915989,39.078648,-27.142502,14.722704,-24.896053
3.668750,-93.083511,-1.914590,43.067055,-27.391893,18.192123,-25.117996
3.675000,-99.979309,-1.913805,46.421776,-27.520546,20.915106,-25.288568
3.681250,-104.450043,-1.913178,48.871395,-27.525711,22.837831,-25.405842
3.687500,-106.618599,-1.912996,50.172718,-27.420422,23.881754,-25.473032
3.693750,-106.725899,-1.914077,50.178566,-27.230076,23.995192,-25.499311
3.700000,-105.110741,-1.916330,48.891010,-26.961060,23.183695,-25.495676
3.706250,-102.193085,-1.918782,46.465912,-26.631012,21.576893,-25.454491
3.712500,-98.463943,-1.920998,42.888092,-26.278519,19.398180,-25.369265
3.718750,-94.460838,-1.923564,36.453537,-25.931673,16.793612,-25.245598
3.725000,-88.564270,-1.926804,29.085180,-25.606230,14.095311,-25.098824
3.731250,-82.666023,-1.930123,20.513420,-25.347092,11.907020,-24.967329
3.737500,-76.762741,-1.932987,12.679694,-25.177908,10.643518,-24.863270
3.743750,-70.857086,-1.935583,4.330623,-25.084400,10.716329,-24.810736
3.750000,-64.952705,-1.938316,-3.979609,-25.055107,10.722594,-24.721992
3.756250,-59.049198,-1.940997,-11.853997,-25.085663,10.642138,-24.619186
3.762500,-53.145008,-1.943509,-18.870626,-25.155090,11.798582,-24.502062
3.768750,-47.240936,-1.946038,-24.589220,-25.225836,13.932620,-24.419428
3.775000,-41.338634,-1.948868,-28.783501,-25.310474,16.595242,-24.360626
3.781250,-35.437088,-1.951739,-31.342173,-25.396730,19.179449,-24.309624
3.787500,-29.534203,-1.954389,-31.903561,-25.464273,21.323252,-24.259119
3.793750,-23.631138,-1.957085,-30.388714,-25.528227,22.719419,-24.212854
3.800000,-17.730406,-1.960194,-28.727747,-25.529800,23.168404,-24.163092
3.806250,-11.830347,-1.963603,-24.552118,-25.445396,22.690807,-24.073580
3.812500,-5.928964,-1.967148,-19.395676,-25.314106,21.147778,-23.952423
3.818750,-0.027400,-1.971044,-13.796620,-25.153259,18.428659,-23.809843
3.825000,5.874919,-1.975230,-8.287132,-24.977200,14.663713,-23.652721
3.831250,11.781224,-1.979113,-1.217034,-24.800194,10.117512,-23.492092
3.837500,17.691734,-1.982408,5.594862,-24.636053,5.112017,-23.363729
3.843750,23.601805,-1.985770,12.303499,-24.480402,-0.009020,-23.225094
3.850000,29.509089,-1.989586,17.221237,-24.326691,-5.936034,-23.055939
3.856250,35.417702,-1.993246,22.026041,-24.184505,-11.474778,-22.896318
3.862500,41.330715,-1.996112,26.294426,-24.052015,-16.608498,-22.755331
3.868750,47.243130,-1.998876,29.696503,-23.915829,-21.315577,-22.630117
3.875000,53.149120,-2.002694,31.912437,-23.754787,-25.619827,-22.509813
3.881250,59.051163,-2.007678,32.589211,-23.573444,-29.591730,-22.378695
3.887500,64.956726,-2.012834,31.329546,-23.374495,-33.411591,-22.241585
3.893750,70.869202,-2.017533,28.064499,-23.140797,-37.340492,-22.103920
3.900000,76.783035,-2.022469,24.868317,-22.861471,-41.505844,-21.957817
3.906250,82.693794,-2.028470,20.292227,-22.536606,-44.211029,-21.801411
3.912500,88.604858,-2.035462,14.805432,-22.167660,-47.323540,-21.630266
3.918750,94.522171,-2.042896,8.873011,-21.761557,-50.554100,-21.431568
3.925000,98.553238,-2.050126,2.862330,-21.346521,-53.660847,-21.176683
3.931250,102.319267,-2.056991,-2.878917,-20.948648,-56.705639,-20.957624
3.937500,105.286140,-2.063417,-7.924139,-20.587332,-57.494663,-20.768791
3.943750,106.961166,-2.069207,-11.946349,-20.285795,-57.099010,-20.618742
3.950000,106.918251,-2.073876,-14.726922,-20.066069,-55.058296,-20.521187
3.956250,104.816551,-2.076866,-16.141220,-19.946396,-51.015205,-20.491657
3.962500,100.416756,-2.078197,-16.128214,-19.936401,-44.720486,-20.542391
3.968750,93.592567,-2.078075,-14.685516,-20.033319,-36.037186,-20.681606
3.975000,84.341583,-2.076660,-13.761148,-20.202477,-24.973236,-20.919977
3.981250,72.784515,-2.073962,-9.657839,-20.495920,-11.688571,-21.286015
3.987500,59.157063,-2.070147,-5.308966,-20.895649,2.199899,-21.693995
3.993750,43.797646,-2.065531,-0.023527,-21.358372,17.357187,-22.204597
4.000000,27.132767,-2.060296,5.561749,-21.879684,32.978855,-22.825382
4.006250,9.654909,-2.054433,11.090293,-22.443106,48.194710,-23.586641
4.012500,-8.105625,-2.048388,16.292645,-23.020821,61.952858,-24.346539
4.018750,-25.605135,-2.043046,20.917244,-23.580315,74.901337,-25.082062
4.025000,-42.309395,-2.038603,24.678923,-24.106043,85.116943,-25.826479
4.031250,-57.721214,-2.034680,29.441105,-24.588722,93.503784,-26.585720
4.037500,-71.412323,-2.031312,31.835077,-25.007607,99.185814,-27.305315
4.043750,-83.044754,-2.029192,33.902481,-25.350609,102.450394,-27.955654
4.050000,-92.379784,-2.028457,35.498199,-25.617331,103.695068,-28.519318
4.056250,-99.289742,-2.028072,36.550831,-25.798746,103.445595,-28.986712
4.062500,-103.771782,-2.027468,37.138477,-25.877199,100.503288,-29.325418
4.068750,-105.954002,-2.027610,37.203506,-25.869656,97.266167,-29.520990
4.075000,-106.078262,-2.029712,36.763977,-25.793016,93.791405,-29.581322
4.081250,-104.478859,-2.033154,36.001114,-25.660791,90.306511,-29.510641
4.087500,-101.572823,-2.036393,35.169273,-25.481710,84.969856,-29.310202
4.093750,-97.852516,-2.039013,34.574242,-25.264774,79.510124,-28.986168
4.100000,-93.859436,-2.041844,32.634563,-25.024796,73.779999,-28.559130
4.106250,-87.975510,-2.045595,31.347740,-24.765928,67.680733,-28.068720
4.112500,-82.091843,-2.049886,30.610676,-24.479197,61.295902,-27.471895
4.118750,-76.205063,-2.054487,30.167656,-24.181290,54.797832,-26.804996
4.125000,-70.316589,-2.059646,29.727072,-23.886980,47.916351,-26.108654
4.131250,-64.426842,-2.065409,29.121738,-23.605318,40.808987,-25.413313
4.137500,-58.532421,-2.071250,28.239258,-23.339474,33.670181,-24.741966
4.143750,-52.631912,-2.076732,26.992739,-23.088799,26.714085,-24.112141
4.150000,-46.728401,-2.082144,25.296730,-22.851927,20.133223,-23.537037
4.156250,-40.825104,-2.087903,25.247444,-22.625298,14.103129,-23.017290
4.162500,-34.920174,-2.093937,25.435163,-22.398703,8.767741,-22.565502
4.168750,-29.012001,-2.100029,24.445105,-22.161108,5.839164,-22.183941
4.175000,-23.099953,-2.106162,24.139977,-21.931099,2.749156,-21.870975
4.181250,-17.184364,-2.112183,24.320295,-21.713743,1.212065,-21.619368
4.187500,-11.264191,-2.117859,24.791046,-21.513969,1.114474,-21.369820
4.193750,-5.339383,-2.123116,25.329203,-21.338009,2.488752,-21.230778
4.200000,0.589138,-2.127760,25.704435,-21.193474,3.456122,-21.175383
4.206250,6.521101,-2.131510,25.700983,-21.087950,4.673786,-21.182295
4.212500,12.455569,-2.134136,25.155315,-21.018732,7.174499,-21.207470
4.218750,18.388985,-2.136066,26.128876,-20.974880,8.721027,-21.255795
4.225000,24.319019,-2.137830,25.212955,-20.951855,9.315254,-21.327518
4.231250,30.244881,-2.139392,24.384958,-20.938692,8.808319,-21.409184
4.237500,36.168488,-2.140810,23.437902,-20.934980,7.031653,-21.478226
4.243750,42.090038,-2.142026,22.033472,-20.956896,5.902647,-21.543320
4.250000,48.010269,-2.142915,20.014959,-20.989481,3.802617,-21.604275
4.256250,53.928486,-2.143436,17.236845,-21.015112,1.255895,-21.644585
4.262500,59.842484,-2.144020,13.467764,-21.019346,-1.324515,-21.653337
4.268750,65.749130,-2.145429,8.509175,-20.991501,-3.582611,-21.620155
4.275000,71.649284,-2.147995,2.183169,-20.924292,-5.209504,-21.538124
4.281250,77.548767,-2.151222,-3.506652,-20.805197,-5.930115,-21.394859
4.287500,83.450226,-2.154844,-10.090491,-20.631641,-5.546988,-21.160746
4.293750,89.351204,-2.159578,-17.309095,-20.426008,-4.158606,-20.906900
4.300000,95.251289,-2.165675,-24.789270,-20.190268,-2.039015,-20.635670
4.306250,99.263359,-2.172009,-32.089184,-19.927616,1.009885,-20.344172
4.312500,103.013954,-2.177458,-38.890884,-19.649000,4.778605,-20.042137
4.318750,105.965843,-2.182394,-44.924641,-19.368795,9.002087,-19.743031
4.325000,107.618637,-2.187830,-49.988556,-19.108183,13.375497,-19.464401
4.331250,107.547653,-2.193664,-53.937382,-18.889854,17.587645,-19.221216
4.337500,105.419250,-2.198773,-56.673183,-18.759775,21.367239,-19.015619
4.343750,100.997238,-2.202725,-58.216927,-18.635195,24.492470,-18.791866
4.350000,94.155495,-2.205772,-57.574532,-18.579746,26.492010,-18.671795
4.356250,84.891693,-2.207760,-55.633301,-18.630642,29.031876,-18.636885
4.362500,73.328697,-2.208152,-52.195801,-18.787487,30.871969,-18.697227
4.368750,59.700218,-2.207341,-47.351387,-19.042589,32.364738,-18.879684
4.375000,44.341022,-2.206127,-41.303894,-19.382532,33.756004,-19.124983
4.381250,27.678316,-2.204509,-34.324802,-19.786705,35.104095,-19.414530
4.387500,10.208758,-2.201739,-26.738668,-20.228495,37.204266,-19.755028
4.393750,-7.536570,-2.198177,-18.957096,-20.691168,38.385078,-20.175339
4.400000,-25.018219,-2.194862,-11.437715,-21.162209,40.212601,-20.650820
4.406250,-41.703674,-2.192010,-2.382173,-21.623695,42.262592,-21.155239
4.412500,-57.094311,-2.188900,4.626219,-22.062246,44.246208,-21.669796
4.418750,-70.762260,-2.185488,11.431416,-22.472031,45.948303,-22.181324
4.425000,-82.372314,-2.182762,17.864668,-22.791859,47.284348,-22.641956
4.431250,-91.688347,-2.181099,23.753742,-23.020952,48.267387,-23.023888
4.437500,-98.583069,-2.179827,28.708279,-23.171236,48.665524,-23.323484
4.443750,-103.053963,-2.178702,32.679932,-23.249994,48.473564,-23.533649
4.450000,-105.226807,-2.178626,35.735367,-23.258980,47.820026,-23.647005
4.456250,-105.339584,-2.180073,38.001595,-23.202724,46.875397,-23.661955
4.462500,-103.727058,-2.182230,39.680347,-23.091307,45.817749,-23.584486
4.468750,-100.811852,-2.184683,41.060673,-22.944189,44.870285,-23.436695
4.475000,-97.089294,-2.187902,40.625278,-22.759876,44.323223,-23.205044
4.481250,-93.093567,-2.191937,40.537018,-22.531910,42.906944,-22.874838
4.487500,-87.198067,-2.195933,40.460163,-22.291914,42.150719,-22.492609
4.493750,-81.296646,-2.199626,40.202179,-22.061142,41.752052,-22.088144
4.500000,-75.396523,-2.204191,39.696491,-21.850927,41.492271,-21.682896
4.506250,-69.499252,-2.210281,38.917503,-21.661860,41.163311,-21.291807
4.512500,-63.597153,-2.216780,37.858620,-21.481892,40.548355,-20.924107
4.518750,-57.682499,-2.222217,36.519299,-21.258400,39.401821,-20.589922
4.525000,-51.758995,-2.226708,34.924389,-21.069799,37.410435,-20.323792
4.531250,-45.836430,-2.231441,34.168106,-20.930105,34.132710,-20.117054
4.537500,-39.915943,-2.236773,33.739628,-20.795540,30.921041,-19.944311
4.543750,-33.990505,-2.241902,32.229866,-20.654169,26.273727,-19.817581
4.550000,-28.056580,-2.246012,31.366016,-20.532320,20.525608,-19.713394
4.556250,-22.117500,-2.249255,30.855194,-20.453056,14.082643,-19.691261
4.562500,-16.177027,-2.251969,30.478258,-20.435299,7.649511,-19.768156
4.568750,-10.235660,-2.254188,30.012556,-20.505213,1.206160,-19.941380
4.575000,-4.291893,-2.255593,29.226250,-20.717375,-5.072398,-20.158133
4.581250,1.654978,-2.255866,27.925606,-20.998970,-10.859681,-20.429758
4.587500,7.602826,-2.254888,24.874306,-21.364637,-15.659695,-20.768293
4.593750,13.549076,-2.252992,22.920591,-21.834917,-19.289061,-21.166491
4.600000,19.491592,-2.250364,20.195549,-22.412750,-21.698160,-21.603775
4.606250,25.430628,-2.246674,16.575035,-23.170031,-23.032713,-22.091908
4.612500,31.364937,-2.242048,13.001714,-23.962601,-23.565477,-22.620962
4.618750,37.289848,-2.237442,8.805684,-24.828802,-23.364027,-23.168983
4.625000,43.203022,-2.233621,4.345736,-25.749170,-22.712446,-23.720474
4.631250,49.110249,-2.229997,-0.088327,-26.689943,-21.933653,-24.261591
4.637500,55.016258,-2.225533,-4.230503,-27.607885,-21.392397,-24.775309
4.643750,60.917946,-2.220722,-7.832612,-28.449879,-21.449553,-25.226879
4.650000,66.806206,-2.217167,-12.589033,-29.154472,-22.453171,-25.568953
4.656250,72.679985,-2.215625,-14.635461,-29.693436,-24.780975,-25.807829
4.662500,78.548103,-2.215676,-16.017279,-30.057644,-27.008551,-25.966452
4.668750,84.415352,-2.216982,-16.606749,-30.216446,-30.514132,-26.017723
4.675000,90.281952,-2.219748,-16.427031,-30.157043,-35.057175,-25.953568
4.681250,94.254524,-2.223809,-15.610408,-29.881691,-40.428421,-25.774603
4.687500,97.958023,-2.228577,-14.361470,-29.413677,-46.401920,-25.492260
4.693750,100.859337,-2.234284,-12.929181,-28.790607,-52.710983,-25.118551
4.700000,102.462952,-2.241963,-11.609743,-28.040186,-59.008602,-24.655659
4.706250,102.344017,-2.251306,-10.883349,-27.168646,-64.929718,-24.096601
4.712500,100.173485,-2.260589,-10.999355,-26.217398,-70.042114,-23.491251
4.718750,95.717789,-2.268562,-12.306379,-25.261261,-75.750076,-22.899067
