Anritsu VNA Frequency[GHz],S21[deg],S21[dB],S11[deg],S11[dB],S22[deg],S22[dB]
1338038382.75,2012_05_26_14:19:42,+298.24,+298.27,+297.94,+298.13,+297.58,+298.62,+298.12,+298.64,243.683868,-5.838
3.006250,-12.550563,-3.313213,-9.424597,-28.691927,-19.952864,-29.801275
3.012500,-12.550563,-3.313213,-9.424597,-28.691927,-19.952864,-29.801275
3.018750,-12.550563,-3.313213,-9.424597,-28.691927,-19.952864,-29.801275
3.025000,-12.550563,-3.313213,-9.424597,-28.691927,-19.952864,-29.801275
3.031250,-12.550563,-3.313213,-9.424597,-28.691927,-19.952864,-29.801275
3.037500,-12.550563,-3.313213,-9.424597,-28.691927,-19.952864,-29.801275
3.043750,-12.550563,-3.313213,-9.424597,-28.691927,-19.952864,-29.801275
3.050000,-12.550563,-3.313213,-9.424597,-28.691927,-19.952864,-29.801275
3.056250,-12.550563,-3.313213,-9.424597,-28.691927,-19.952864,-29.801275
3.062500,-12.550563,-3.313213,-9.424597,-28.691927,-19.952864,-29.801275
3.068750,-12.550563,-3.313213,-9.424597,-28.691927,-19.952864,-29.801275
3.075000,-12.550563,-3.313213,-9.424597,-28.691927,-19.952864,-29.801275
3.081250,-12.550563,-3.313213,-9.424597,-28.691927,-19.952864,-29.801275
3.087500,-12.550563,-3.313213,-9.424597,-28.691927,-19.952864,-29.801275
3.093750,-12.550563,-3.315886,-9.424597,-28.609102,-19.952864,-29.980221
3.100000,-12.562794,-3.318976,-18.030100,-28.494541,-21.636225,-30.075544
3.106250,-12.577188,-3.322654,-27.054321,-28.363253,-24.731092,-30.086557
3.112500,-12.591340,-3.326596,-34.336170,-28.230049,-29.399111,-30.013170
3.118750,-12.603020,-3.330458,-39.902710,-28.110500,-35.651760,-29.851513
3.125000,-12.613717,-3.334349,-43.839336,-28.021122,-43.385212,-29.598057
3.131250,-12.625037,-3.338310,-46.243324,-27.953863,-50.528172,-29.255600
3.137500,-12.637425,-3.342500,-47.034721,-27.881327,-58.449917,-28.836054
3.143750,-12.650476,-3.347005,-46.547325,-27.825666,-66.260490,-28.348192
3.150000,-12.664207,-3.351894,-45.033878,-27.798550,-74.915398,-27.803885
3.156250,-12.676919,-3.356988,-42.654053,-27.799599,-80.042458,-27.224005
3.162500,-12.687772,-3.361938,-39.582096,-27.822950,-83.023163,-26.634912
3.168750,-12.696608,-3.366711,-36.003967,-27.857864,-83.137810,-26.062862
3.175000,-12.705043,-3.371555,-31.852400,-27.890184,-81.946045,-25.534565
3.181250,-12.714949,-3.376677,-27.079147,-27.899652,-77.639626,-25.078016
3.187500,-12.723917,-3.381822,-21.863678,-27.856445,-70.413689,-24.715210
3.193750,-12.731093,-3.386951,-16.155117,-27.785002,-60.418446,-24.393534
3.200000,-12.736672,-3.392043,-12.130397,-27.677080,-49.907490,-24.105337
3.206250,-12.741666,-3.397096,-8.796537,-27.528049,-35.891289,-23.906162
3.212500,-12.744866,-3.401850,-4.538896,-27.341839,-20.854820,-23.801212
3.218750,-12.746956,-3.406508,-1.106069,-27.127892,-5.489722,-23.784594
3.225000,-12.749356,-3.411158,1.727587,-26.898544,9.751510,-23.859581
3.231250,-12.751546,-3.415841,4.266638,-26.663734,24.473930,-24.106810
3.237500,-12.752368,-3.420160,6.861002,-26.427992,37.586166,-24.297573
3.243750,-12.751672,-3.424051,7.964830,-26.195890,49.112225,-24.540373
3.250000,-12.752861,-3.427990,9.503420,-25.971024,58.692150,-24.835197
3.256250,-12.757406,-3.432383,11.212595,-25.751984,67.703972,-25.164843
3.262500,-12.761833,-3.436980,12.804269,-25.537031,74.091515,-25.505270
3.268750,-12.764212,-3.441200,13.879408,-25.348732,78.058510,-25.831627
3.275000,-12.765125,-3.444897,14.119845,-25.188854,79.851845,-26.130617
3.281250,-12.767683,-3.448704,13.323941,-25.048229,79.821686,-26.386038
3.287500,-12.774347,-3.453044,13.391660,-24.917048,78.437782,-26.579189
3.293750,-12.782769,-3.457956,12.686386,-24.785833,76.164261,-26.698605
3.300000,-12.789757,-3.463068,11.474991,-24.641344,73.449463,-26.733843
3.306250,-12.794151,-3.468102,10.018900,-24.463593,70.734924,-26.677778
3.312500,-12.796292,-3.473061,8.475687,-24.258501,66.267586,-26.531910
3.318750,-12.797529,-3.478140,6.738332,-24.058025,61.770618,-26.306423
3.325000,-12.798463,-3.483431,5.041497,-23.853283,57.003429,-26.023790
3.331250,-12.797445,-3.488853,3.508257,-23.643862,53.874668,-25.704891
3.337500,-12.792475,-3.493935,2.145832,-23.436523,48.659393,-25.365705
3.343750,-12.783520,-3.498450,0.918682,-23.245277,43.016621,-25.023142
3.350000,-12.772287,-3.502507,-0.223411,-23.086309,36.701382,-24.693018
3.356250,-12.760220,-3.506182,0.835144,-22.981703,31.396576,-24.387575
3.362500,-12.747284,-3.509442,2.656756,-22.978281,25.299835,-24.113371
3.368750,-12.734102,-3.512252,3.813793,-23.017920,18.804161,-23.865253
3.375000,-12.720166,-3.514472,6.838472,-23.127075,12.141214,-23.701052
3.381250,-12.706018,-3.515927,10.816145,-23.344025,7.759387,-23.631319
3.387500,-12.692752,-3.516649,15.648160,-23.669800,2.668234,-23.662937
3.393750,-12.683206,-3.517128,21.178591,-24.091681,-0.922745,-23.803013
3.400000,-12.678357,-3.517648,27.182932,-24.586823,-4.577208,-24.028685
3.406250,-12.677373,-3.518150,33.403481,-25.125248,-6.410890,-24.308922
3.412500,-12.678406,-3.518394,37.641327,-25.677683,-6.906952,-24.530252
3.418750,-12.681634,-3.518596,41.197693,-26.217886,-5.677154,-24.898357
3.425000,-12.690000,-3.519206,45.411770,-26.721863,-3.358706,-25.296165
3.431250,-12.702645,-3.520495,48.188236,-27.165445,-0.282038,-25.694439
3.437500,-12.716021,-3.522002,49.417408,-27.527895,3.150127,-26.073360
3.443750,-12.728479,-3.523367,49.057285,-27.798111,6.548169,-26.420736
3.450000,-12.742705,-3.525102,47.168400,-27.966604,9.821671,-26.728704
3.456250,-12.760521,-3.527814,43.991356,-28.011993,13.004329,-26.965353
3.462500,-12.778617,-3.531060,39.769176,-27.941669,14.242139,-27.118227
3.468750,-12.792366,-3.534102,34.774395,-27.775322,15.062978,-27.190130
3.475000,-12.802505,-3.536729,29.457150,-27.534588,15.012875,-27.179300
3.481250,-12.813725,-3.539480,22.450338,-27.244480,15.669131,-27.088047
3.487500,-12.827863,-3.542833,15.910564,-26.937494,15.188886,-26.923307
3.493750,-12.843601,-3.546785,9.872766,-26.648184,13.983549,-26.691055
3.500000,-12.857897,-3.551002,4.610658,-26.336382,12.516714,-26.395245
3.506250,-12.870270,-3.555382,0.159526,-26.043137,11.313909,-26.038324
3.512500,-12.880668,-3.559570,-3.617445,-25.796474,10.890643,-25.631077
3.518750,-12.889608,-3.563493,-6.613469,-25.608923,11.714907,-25.190847
3.525000,-12.899383,-3.567488,-8.711132,-25.477707,14.244864,-24.732061
3.531250,-12.913235,-3.572201,-9.834615,-25.390921,18.878677,-24.268726
3.537500,-12.930532,-3.577893,-9.974817,-25.322521,23.730286,-23.813522
3.543750,-12.946431,-3.583893,-9.167385,-25.208750,30.320522,-23.374821
3.550000,-12.957032,-3.589660,-5.433844,-25.100632,38.144516,-22.969578
3.556250,-12.964355,-3.595194,-2.955125,-24.996370,46.548424,-22.629673
3.562500,-12.971902,-3.600994,0.695432,-24.865950,54.765591,-22.334663
3.568750,-12.979342,-3.607175,5.080005,-24.695099,61.777599,-22.061855
3.575000,-12.982101,-3.613202,9.661634,-24.486664,68.939590,-21.834887
3.581250,-12.977963,-3.618390,13.831854,-24.260073,75.911392,-21.686586
3.587500,-12.968384,-3.622601,17.032545,-24.042551,80.945992,-21.643011
3.593750,-12.956717,-3.626276,20.978439,-23.861122,84.378593,-21.731789
3.600000,-12.944737,-3.629595,23.951208,-23.744547,86.467567,-21.914181
3.606250,-12.929816,-3.632209,26.193781,-23.715076,86.840973,-22.160698
3.612500,-12.910072,-3.633601,28.051702,-23.773626,86.359612,-22.499666
3.618750,-12.888352,-3.633843,27.948563,-23.927156,83.008179,-22.926390
3.625000,-12.868252,-3.633424,27.675159,-24.182644,80.146111,-23.419785
3.631250,-12.850580,-3.632436,26.929779,-24.539394,75.744850,-23.950962
3.637500,-12.834826,-3.630700,25.340023,-25.005394,69.897552,-24.514717
3.643750,-12.822201,-3.628381,22.644857,-25.562145,64.917221,-25.090712
3.650000,-12.815613,-3.626091,18.670710,-26.178658,59.794781,-25.647551
3.656250,-12.816392,-3.624255,13.202802,-26.819979,55.290775,-26.158958
3.662500,-12.822746,-3.622891,8.200027,-27.444036,49.889179,-26.603395
3.668750,-12.833069,-3.621857,2.141272,-27.998724,45.497387,-26.959801
3.675000,-12.847703,-3.621411,-4.605880,-28.426071,42.054688,-27.212004
3.681250,-12.867582,-3.621875,-11.937532,-28.756519,39.418270,-27.356091
3.687500,-12.890901,-3.623163,-19.547441,-28.952423,37.333775,-27.398455
3.693750,-12.916360,-3.625305,-26.927301,-28.990551,35.501972,-27.344303
3.700000,-12.944620,-3.628647,-33.810307,-28.866871,33.610165,-27.199709
3.706250,-12.974506,-3.633301,-39.993103,-28.595257,31.298620,-26.975998
3.712500,-13.001647,-3.638605,-45.311520,-28.204435,30.104599,-26.688580
3.718750,-13.023143,-3.643914,-49.640366,-27.746344,28.098820,-26.355392
3.725000,-13.040764,-3.649448,-52.899994,-27.272945,25.574427,-25.991734
3.731250,-13.057855,-3.655582,-56.053925,-26.726614,22.896969,-25.600353
3.737500,-13.073117,-3.662186,-56.114269,-26.200205,20.464577,-25.174494
3.743750,-13.082187,-3.668520,-54.856892,-25.739210,18.738789,-24.759697
3.750000,-13.083942,-3.674214,-52.283092,-25.381514,18.501085,-24.407227
3.756250,-13.082227,-3.679279,-48.443298,-25.149019,17.854824,-24.122709
3.762500,-13.079031,-3.683816,-43.390697,-25.043306,18.643522,-23.914263
3.768750,-13.074402,-3.687853,-37.248829,-25.051958,20.994566,-23.743654
3.775000,-13.069193,-3.691376,-30.230963,-25.154390,23.000923,-23.581835
3.781250,-13.064792,-3.694694,-22.621136,-25.323400,26.163336,-23.472448
3.787500,-13.061503,-3.697734,-16.640299,-25.528585,30.660791,-23.449173
3.793750,-13.058243,-3.700235,-11.050085,-25.755219,37.412697,-23.477442
3.800000,-13.054660,-3.702267,-4.573514,-25.980650,44.439064,-23.542332
3.806250,-13.054581,-3.704323,0.767365,-26.176720,49.823288,-23.632536
3.812500,-13.058742,-3.706687,4.839565,-26.332678,55.185505,-23.739759
3.818750,-13.065289,-3.709281,7.632738,-26.421488,60.297466,-23.846725
3.825000,-13.073182,-3.712079,9.402075,-26.408728,65.019501,-23.927311
3.831250,-13.082490,-3.715277,10.081701,-26.316574,69.126183,-23.978123
3.837500,-13.092907,-3.718842,9.849995,-26.160805,72.455330,-23.998091
3.843750,-13.102808,-3.722425,9.077399,-25.957409,75.012604,-23.986429
3.850000,-13.111728,-3.726083,8.210907,-25.723310,76.914169,-23.948284
3.856250,-13.121573,-3.730086,5.848583,-25.474560,78.342453,-23.894735
3.862500,-13.132296,-3.734322,4.124559,-25.220741,79.567284,-23.816696
3.868750,-13.141730,-3.738480,2.999738,-24.969477,81.006325,-23.698307
3.875000,-13.150908,-3.742591,2.364018,-24.734840,82.863411,-23.557966
3.881250,-13.162524,-3.747341,2.093245,-24.528551,85.420616,-23.408878
3.887500,-13.177408,-3.753032,2.115349,-24.351418,89.054527,-23.256367
3.893750,-13.190681,-3.759005,2.371454,-24.192654,91.943642,-23.101000
3.900000,-13.198213,-3.764534,2.805042,-24.016743,95.710838,-22.939220
3.906250,-13.203563,-3.769896,3.350619,-23.786800,100.016678,-22.768744
3.912500,-13.212634,-3.776095,5.051692,-23.591866,104.428200,-22.596985
3.918750,-13.225252,-3.783533,7.095482,-23.375599,108.500031,-22.426680
3.925000,-13.235952,-3.791789,9.644972,-23.123770,111.825035,-22.254263
3.931250,-13.239696,-3.800121,12.778044,-22.836222,113.969383,-22.073704
3.937500,-13.236156,-3.808274,16.492062,-22.516268,114.499077,-21.873135
3.943750,-13.227594,-3.816457,20.724722,-22.174040,112.989601,-21.646851
3.950000,-13.215933,-3.824826,25.357311,-21.827614,108.913010,-21.436157
3.956250,-13.198868,-3.833059,30.251516,-21.496067,104.117722,-21.248005
3.962500,-13.173425,-3.840360,35.222771,-21.197441,97.166183,-21.085958
3.968750,-13.139439,-3.846367,40.312103,-20.948328,90.361458,-20.957943
3.975000,-13.099800,-3.851071,45.534706,-20.760317,80.360947,-20.873495
3.981250,-13.059060,-3.854748,50.616840,-20.641516,69.557449,-20.842037
3.987500,-13.018520,-3.857498,55.293919,-20.591854,58.475521,-20.872862
3.993750,-12.977724,-3.859146,59.313332,-20.600832,47.646458,-20.982496
4.000000,-12.936689,-3.859604,62.394215,-20.679213,37.592949,-21.159782
4.006250,-12.897145,-3.859033,64.116562,-20.847269,29.038235,-21.389116
4.012500,-12.861354,-3.857451,64.539314,-21.079870,22.082613,-21.698559
4.018750,-12.829862,-3.854892,63.591072,-21.368994,17.078100,-22.092083
4.025000,-12.804367,-3.851734,61.214905,-21.706810,14.328551,-22.568068
4.031250,-12.787512,-3.848518,55.576527,-22.078213,13.971715,-23.132669
4.037500,-12.779324,-3.845505,50.593147,-22.464499,15.920865,-23.720621
4.043750,-12.778602,-3.842751,44.523903,-22.854050,19.439133,-24.301729
4.050000,-12.783791,-3.840434,37.552177,-23.239574,24.418530,-24.910158
4.056250,-12.794689,-3.838671,29.967445,-23.608931,30.368221,-25.526625
4.062500,-12.809905,-3.837381,22.108639,-23.952349,36.608826,-26.128483
4.068750,-12.827907,-3.836210,14.316229,-24.270090,44.234261,-26.694250
4.075000,-12.850377,-3.835592,6.955843,-24.564028,50.841949,-27.205252
4.081250,-12.879690,-3.836246,0.535076,-24.801031,56.268940,-27.640976
4.087500,-12.914103,-3.838417,-6.461059,-24.988400,60.446728,-27.979631
4.093750,-12.946179,-3.840954,-12.226066,-25.140867,63.367691,-28.206671
4.100000,-12.972688,-3.843118,-16.960880,-25.263134,65.095161,-28.314695
4.106250,-12.998114,-3.845253,-20.850876,-25.355133,65.804489,-28.301281
4.112500,-13.028794,-3.848431,-24.073801,-25.413376,65.786636,-28.169550
4.118750,-13.063565,-3.852858,-26.787924,-25.437777,65.410988,-27.933020
4.125000,-13.096619,-3.857861,-29.140375,-25.429060,65.086121,-27.619402
4.131250,-13.124203,-3.862922,-31.251810,-25.380737,65.338539,-27.215099
4.137500,-13.148048,-3.868106,-33.269653,-25.289291,66.848030,-26.725094
4.143750,-13.170543,-3.873642,-35.350098,-25.157087,69.773560,-26.192463
4.150000,-13.191220,-3.879383,-35.427288,-24.986452,72.338722,-25.647667
4.156250,-13.210163,-3.885441,-34.919796,-24.780888,76.299858,-25.113775
4.162500,-13.227645,-3.891868,-35.259686,-24.542501,81.461502,-24.607481
4.168750,-13.242776,-3.898633,-34.402893,-24.273256,87.577820,-24.137007
4.175000,-13.254871,-3.905672,-32.535919,-23.975752,94.341530,-23.696770
4.181250,-13.264091,-3.912941,-29.904644,-23.657164,101.355026,-23.323517
4.187500,-13.270016,-3.920284,-26.792328,-23.320250,107.931602,-23.022537
4.193750,-13.271764,-3.927617,-23.494335,-22.972103,114.122284,-22.774446
4.200000,-13.268790,-3.934675,-20.402826,-22.631248,119.364006,-22.588631
4.206250,-13.262556,-3.941452,-17.856478,-22.313429,123.329140,-22.458393
4.212500,-13.253592,-3.947824,-13.975356,-22.033609,125.837379,-22.352921
4.218750,-13.241556,-3.953510,-10.366354,-21.806129,126.876663,-22.311096
4.225000,-13.226670,-3.958438,-6.719212,-21.642269,127.038498,-22.425667
4.231250,-13.212154,-3.962772,-4.605266,-21.543812,126.174911,-22.515079
4.237500,-13.199627,-3.966924,-2.087272,-21.504154,125.276695,-22.634905
4.243750,-13.188836,-3.970675,0.545718,-21.515642,124.059174,-22.795746
4.250000,-13.177529,-3.973809,2.966791,-21.562986,120.990608,-22.991970
4.256250,-13.166380,-3.976221,4.850791,-21.626076,118.036133,-23.209270
4.262500,-13.157905,-3.978235,5.731060,-21.725130,115.228615,-23.434330
4.268750,-13.154250,-3.979993,7.406706,-21.846430,112.530167,-23.659687
4.275000,-13.155994,-3.981965,8.381311,-21.965183,109.905083,-23.871887
4.281250,-13.163231,-3.984497,8.905490,-22.066004,107.316353,-24.055674
4.287500,-13.174381,-3.987612,9.182757,-22.138287,104.684616,-24.196556
4.293750,-13.186679,-3.990967,9.396828,-22.171986,101.903427,-24.279428
4.300000,-13.200425,-3.994868,9.683856,-22.159641,98.836342,-24.288219
4.306250,-13.217680,-3.999937,10.128757,-22.096561,95.313812,-24.196032
4.312500,-13.236082,-4.006119,10.745057,-21.986732,91.060677,-24.026482
4.318750,-13.249658,-4.012489,11.504231,-21.836948,85.581291,-23.803780
4.325000,-13.256648,-4.018563,12.381961,-21.650194,78.913467,-23.518618
4.331250,-13.262169,-4.025071,13.321609,-21.432306,72.810410,-23.176222
4.337500,-13.269437,-4.032681,14.217397,-21.191725,65.481941,-22.789154
4.343750,-13.273981,-4.041076,17.124044,-20.938389,57.360615,-22.371880
4.350000,-13.269445,-4.049146,18.659422,-20.685658,48.902912,-21.941828
4.356250,-13.254890,-4.056528,20.817463,-20.447964,40.579262,-21.511753
4.362500,-13.234855,-4.063485,23.383860,-20.261433,32.854717,-21.085266
4.368750,-13.211188,-4.070126,26.112030,-20.094181,26.059559,-20.711781
4.375000,-13.182094,-4.075973,29.166580,-19.969046,20.420124,-20.408443
4.381250,-13.148200,-4.080897,31.831877,-19.921104,16.352612,-20.196621
4.387500,-13.111812,-4.085109,34.034210,-19.962397,14.018764,-20.111437
4.393750,-13.072385,-4.088307,35.714741,-20.092794,13.543350,-20.214615
4.400000,-13.030187,-4.090050,34.922482,-20.305214,13.862724,-20.345060
4.406250,-12.987516,-4.090680,33.230740,-20.586473,15.984853,-20.500195
4.412500,-12.949256,-4.090728,32.232601,-20.925278,19.276293,-20.836706
4.418750,-12.914865,-4.090054,30.035053,-21.312981,24.302401,-21.291168
4.425000,-12.881725,-4.088161,26.741362,-21.732920,29.489008,-21.826740
4.431250,-12.851830,-4.085205,22.538759,-22.166624,34.644157,-22.416426
4.437500,-12.830097,-4.081933,17.662289,-22.595335,39.585434,-23.034842
4.443750,-12.818417,-4.078658,12.441345,-22.987659,44.198380,-23.645847
4.450000,-12.813901,-4.075246,7.270505,-23.317627,48.455231,-24.206593
4.456250,-12.817358,-4.072163,2.466170,-23.577002,52.272652,-24.692236
4.462500,-12.831624,-4.070300,-3.492726,-23.759205,55.608196,-25.083235
4.468750,-12.854924,-4.069923,-8.559166,-23.858093,58.532375,-25.362144
4.475000,-12.880206,-4.070247,-12.836718,-23.868956,61.190647,-25.513464
4.481250,-12.903717,-4.070698,-16.428488,-23.793118,63.766609,-25.529707
4.487500,-12.929125,-4.071978,-19.450891,-23.640270,66.473602,-25.415443
4.493750,-12.960339,-4.074646,-22.003788,-23.424007,69.557938,-25.185471
4.500000,-12.994265,-4.078646,-24.142952,-23.150709,73.343857,-24.834986
4.506250,-13.026891,-4.083834,-25.911966,-22.831635,78.183403,-24.377594
4.512500,-13.056804,-4.090284,-27.449305,-22.491894,81.991470,-23.853359
4.518750,-13.081852,-4.097798,-28.857006,-22.155087,86.302963,-23.298639
4.525000,-13.097402,-4.105294,-30.176306,-21.838438,90.814362,-22.745621
4.531250,-13.101444,-4.111969,-29.255255,-21.550413,95.231270,-22.221451
4.537500,-13.099090,-4.118122,-29.360264,-21.287580,99.265228,-21.748274
4.543750,-13.096397,-4.124661,-28.402803,-21.016100,102.603119,-21.350332
4.550000,-13.092730,-4.131595,-26.600641,-20.796598,104.845848,-21.064823
4.556250,-13.082863,-4.138113,-24.777105,-20.648102,105.310837,-20.859531
4.562500,-13.064945,-4.143798,-22.685606,-20.547516,105.693825,-20.754770
4.568750,-13.041465,-4.148674,-20.631622,-20.486618,104.309807,-20.741508
4.575000,-13.016259,-4.152988,-19.077106,-20.485023,101.392761,-20.756865
4.581250,-12.988589,-4.156713,-16.253733,-20.566837,98.460960,-20.962856
4.587500,-12.958492,-4.159459,-13.776507,-20.755192,94.937935,-21.289454
4.593750,-12.925724,-4.161009,-11.270919,-21.046919,91.782097,-21.669779
4.600000,-12.892226,-4.161304,-10.125472,-21.424183,87.415657,-22.109905
4.606250,-12.861494,-4.160640,-8.509931,-21.899349,83.676407,-22.607897
4.612500,-12.835833,-4.159333,-6.702843,-22.475281,80.684990,-23.150038
4.618750,-12.815804,-4.157531,-4.839836,-23.130634,78.556503,-23.713730
4.625000,-12.802032,-4.155449,-3.203956,-23.864626,77.328041,-24.284271
4.631250,-12.794836,-4.153477,-1.941701,-24.650606,76.932426,-24.853542
4.637500,-12.793667,-4.151527,-1.068784,-25.449152,77.368027,-25.398531
4.643750,-12.795418,-4.149068,-0.485707,-26.237492,78.575859,-25.903530
4.650000,-12.799852,-4.145732,-0.039387,-26.988403,80.395195,-26.360828
4.656250,-12.812460,-4.142471,0.228739,-27.670582,82.633194,-26.767601
4.662500,-12.840111,-4.140786,0.298040,-28.251514,85.009293,-27.103695
4.668750,-12.880578,-4.141039,0.172315,-28.695019,87.136986,-27.332556
4.675000,-12.925264,-4.142642,-0.152834,-28.969616,88.821472,-27.446924
4.681250,-12.968884,-4.145169,-0.747893,-29.065403,89.703003,-27.469467
4.687500,-13.012469,-4.148735,-1.702051,-28.981762,89.252869,-27.413393
4.693750,-13.057412,-4.153677,-2.994411,-28.717730,89.091431,-27.272058
4.700000,-13.102416,-4.159822,-4.617188,-28.283686,87.270142,-27.045599
4.706250,-13.145570,-4.167304,-6.584114,-27.701097,84.031181,-26.738647
