Anritsu VNA Frequency[GHz],S21[deg],S21[dB],S11[deg],S11[dB],S22[deg],S22[dB]
1337702750.13,2012_05_22_17:05:50,+288.00,+128.70,+296.77,+296.07,+297.68,+296.71,+296.43,+296.54,242.116852,-29.218
3.001581,-126.642632,0.561547,-177.090073,-20.337196,117.610504,-18.918894
3.006586,-119.373871,0.363092,-176.766144,-17.809855,124.511093,-18.134609
3.011592,-116.362122,0.379790,-162.465546,-16.641413,131.428207,-17.843637
3.016597,-109.745827,0.353990,-143.676880,-16.422472,138.233673,-17.994135
3.021603,-107.315346,0.539681,-124.038979,-18.823307,143.799271,-18.844055
3.026609,-99.526031,0.283344,-109.866394,-20.390112,150.337204,-20.389856
3.031614,-94.723030,0.337327,-106.965034,-22.066402,156.015396,-22.744684
3.036620,-92.353981,0.415118,-69.175804,-27.732153,161.940399,-26.039427
3.041625,-85.102211,0.491807,-65.457741,-26.867380,169.188065,-29.858810
3.046631,-82.404686,0.433020,-14.543052,-30.010809,179.096329,-34.209354
3.051637,-76.918648,0.451815,17.937443,-33.716339,-160.175186,-36.610924
3.056642,-73.657471,0.370088,3.970819,-28.211826,-125.916168,-36.049717
3.061648,-68.831390,0.585341,114.990120,-27.296566,-84.398865,-33.577049
3.066653,-63.519798,0.378336,-159.859497,-33.026512,-65.502777,-32.247955
3.071659,-59.294628,0.408379,92.189629,-34.731476,-47.916553,-31.415861
3.076664,-55.486088,0.438254,114.284241,-29.977093,-33.195518,-30.788656
3.081670,-50.374214,0.316739,-160.217331,-31.723639,-18.814051,-31.965149
3.086676,-46.416924,0.444005,-133.818481,-25.735523,-7.350001,-33.844742
3.091681,-43.222885,0.170399,-117.977829,-21.019182,-18.890587,-32.730923
3.096687,-37.179947,0.557373,-139.803879,-20.128515,-33.234756,-29.613298
3.101692,-31.472845,0.391863,-134.842209,-20.465046,-52.496380,-26.080595
3.106698,-27.393139,0.304703,-117.598915,-19.586321,-57.424538,-23.772087
3.111704,-23.169552,0.270922,-74.510948,-20.621277,-55.754051,-22.779173
3.116709,-17.108086,0.155589,-81.876610,-18.974768,-52.962418,-22.594252
3.121715,-12.211658,0.313712,-41.484295,-20.815874,-52.034622,-23.138186
3.126720,-7.958517,0.538014,-29.978912,-17.858917,-52.668724,-24.049347
3.131726,-3.934649,0.593524,2.569461,-20.870447,-53.607201,-25.950199
3.136732,-0.453054,0.390272,13.355395,-21.686701,-58.256931,-28.331612
3.141737,4.671124,0.548827,33.395287,-25.052490,-60.517357,-31.629147
3.146743,10.649551,0.290770,49.052578,-33.358479,-61.824196,-38.863789
3.151748,14.631218,0.375796,114.387733,-33.881874,-67.853790,-46.418148
3.156754,17.299795,0.426275,113.472687,-27.063204,-171.222595,-35.206745
3.161760,23.335131,0.511169,150.815750,-29.087620,171.658951,-30.182636
3.166765,28.289808,0.323189,75.897781,-24.523500,178.336502,-27.220505
3.171771,31.093817,0.324474,123.667717,-23.699459,-166.154617,-24.996908
3.176776,37.140255,0.237669,122.888763,-23.138866,-152.195938,-23.022705
3.181782,40.388500,0.483501,140.587540,-22.418217,-138.258240,-22.060799
3.186788,45.333244,0.303156,171.581284,-23.537357,-127.278725,-21.419506
3.191793,49.459896,0.390034,175.559372,-22.508047,-116.454399,-21.233921
3.196799,55.303303,0.351411,-164.759979,-23.353130,-106.899811,-21.303953
3.201804,60.488083,0.465171,-147.463867,-29.108892,-95.317421,-21.712662
3.206810,65.208824,0.323529,-169.120193,-29.892212,-81.507736,-21.848013
3.211815,68.957649,0.466197,130.702042,-27.285364,-62.831581,-21.646858
3.216821,73.911110,0.566564,101.486115,-26.002735,-43.800262,-20.938208
3.221827,78.400345,0.319417,114.858627,-22.859642,-24.116869,-20.070381
3.226832,84.106689,0.306218,129.564468,-19.242582,-9.151978,-19.276958
3.231838,87.674774,0.229495,143.161514,-19.692066,3.386322,-19.024923
3.236843,91.900673,0.565886,168.692230,-19.406664,13.918173,-19.056978
3.241849,97.441025,0.375228,176.822495,-18.981909,23.860224,-19.871443
3.246855,102.043671,0.227997,-160.663437,-21.205669,32.204147,-21.118534
3.251860,105.283073,0.344575,-166.446762,-20.496193,40.019093,-22.560755
3.256866,111.217270,0.323208,-151.202164,-23.678089,50.037479,-23.705391
3.261871,115.811508,0.470725,-162.314896,-28.183565,62.129692,-24.703327
3.266877,120.140244,0.458939,-165.783127,-25.577641,75.251251,-25.981684
3.271883,122.802605,0.381719,-163.452789,-26.949551,86.761269,-26.083662
3.276888,128.977493,0.307222,-171.249771,-25.767162,96.415024,-26.662529
3.281894,134.035461,0.583584,-155.651733,-25.868320,100.298164,-28.541159
3.286899,138.122742,0.075008,-151.128952,-22.840960,110.897942,-28.408098
3.291905,145.088959,0.532271,-135.862900,-23.805708,95.482460,-29.286533
3.296911,146.786652,0.429407,-108.782127,-21.136011,93.925598,-28.502565
3.301916,151.620758,0.372727,-104.021507,-26.662912,83.836784,-26.814991
3.306922,156.077881,0.302583,-65.875259,-25.456753,85.965256,-25.076744
3.311927,161.426483,0.307940,-85.676834,-20.635958,96.055458,-24.053221
3.316933,166.116684,0.438634,-119.490982,-21.777018,109.018539,-21.876839
3.321939,169.239105,0.598227,-115.249390,-18.284513,130.102371,-21.439249
3.326944,174.615570,0.195998,-98.532318,-19.310408,136.051224,-20.092186
3.331950,-179.699051,0.447639,-101.974579,-17.472029,143.294495,-19.484970
3.336955,-175.885849,0.431652,-82.800827,-16.350901,150.748917,-19.607853
3.341961,-171.550812,0.239300,-62.824898,-16.446938,153.763977,-19.979694
3.346967,-167.503525,0.331631,-50.245934,-16.033154,158.187897,-20.846540
3.351972,-162.980530,0.498108,-37.879585,-20.074306,164.842133,-22.230867
3.356978,-157.324432,0.377983,-18.125551,-26.873384,174.616180,-23.605446
3.361983,-152.988800,0.261807,-5.031030,-29.012537,-167.760468,-26.233391
3.366989,-147.205200,0.475947,-0.678713,-28.342510,-147.057312,-27.176815
3.371994,-143.954712,0.330488,-10.366488,-30.228472,-115.445763,-26.651850
3.377000,-139.003281,0.292562,54.944138,-34.329983,-77.797455,-25.475994
3.382006,-134.197464,0.493637,-35.019485,-28.718985,-50.076958,-24.395021
3.387011,-130.574234,0.245079,-179.554108,-27.139000,-30.870737,-23.882322
3.392017,-125.271774,0.307821,-124.063087,-25.583509,-15.258987,-23.551781
3.397022,-120.683998,0.610674,-177.410324,-25.957989,1.103284,-23.360056
3.402028,-116.201859,0.356158,171.494293,-27.384409,8.869582,-22.743092
3.407034,-110.259705,0.252970,-164.547668,-19.882374,16.160852,-22.721870
3.412039,-107.632156,0.549524,-143.355591,-22.518955,22.685162,-22.741976
3.417045,-101.692245,0.066336,-120.940605,-20.123108,24.817730,-22.934374
3.422050,-97.839600,0.688347,-117.508926,-21.642702,25.557800,-24.120838
3.427056,-92.821671,0.337270,-96.275719,-19.232737,23.861191,-25.255501
3.432062,-88.516518,0.355994,-53.219669,-19.159433,8.912144,-26.344763
3.437067,-83.211655,0.448856,-20.127926,-20.535126,-13.917406,-24.633160
3.442073,-79.289940,0.347053,-22.987310,-22.603910,-33.605904,-23.334599
3.447078,-74.541771,0.520723,17.601286,-20.717972,-40.184345,-22.496193
3.452084,-71.064240,0.425379,41.654148,-22.890650,-42.338718,-22.410549
3.457090,-66.174988,0.424065,61.997803,-23.920092,-35.572670,-22.959085
3.462095,-61.594284,0.418719,73.851730,-26.138704,-29.360758,-23.850506
3.467101,-56.810535,0.359749,80.267891,-24.834690,-20.150021,-24.584990
3.472106,-51.289490,0.361039,81.213753,-30.978977,-7.828569,-25.255484
3.477112,-47.242214,0.575790,54.883717,-34.258064,4.506261,-25.728437
3.482118,-42.522171,0.498150,86.194839,-21.008991,14.999125,-26.398190
3.487123,-38.209980,0.480102,74.349670,-31.538422,26.281698,-27.628292
3.492129,-31.724379,0.623240,69.487457,-25.196939,37.514912,-29.635111
3.497134,-28.414186,0.565152,103.568329,-28.575150,57.749619,-32.444248
3.502140,-25.669222,0.447756,133.756882,-31.058718,86.551987,-33.221855
3.507145,-20.269466,0.509920,-146.576019,-31.838211,140.496460,-30.108185
3.512151,-15.476969,0.242181,-115.974625,-27.305269,-177.440063,-27.859554
3.517157,-10.700892,0.298206,-77.747894,-29.741026,-154.592621,-27.130848
3.522162,-7.089169,0.511023,-11.681508,-27.313250,-136.960709,-27.925234
3.527168,-1.226785,0.498544,15.383675,-23.714598,-122.286293,-29.060163
3.532173,3.477691,0.694213,23.236298,-35.783279,-96.065933,-31.495098
3.537179,8.736700,0.392578,45.827358,-24.595404,-68.743706,-29.291725
3.542185,10.890472,0.404911,140.216415,-24.059883,-25.175804,-27.117243
3.547190,16.620943,0.210424,155.539780,-22.569094,-0.673566,-25.162933
3.552196,21.708807,0.398073,-177.208328,-20.445087,5.764485,-23.085871
3.557201,26.038525,0.330075,-162.990234,-21.808432,16.787279,-22.504408
3.562207,31.467926,0.589773,-128.604523,-26.111444,22.917751,-21.974400
3.567213,35.800350,0.581376,-164.901245,-24.280729,33.240921,-21.958536
3.572218,38.647579,0.369002,-137.917160,-24.292727,45.781975,-22.260290
3.577224,44.395432,0.345349,-125.684944,-23.547350,59.486015,-22.726364
3.582229,49.064919,0.518670,-155.315628,-23.040667,75.416817,-22.821760
3.587235,53.505245,0.270038,-174.002014,-24.239454,89.367790,-23.816895
3.592241,59.246315,0.442771,-119.512482,-22.449629,104.087837,-25.169655
3.597246,61.483833,0.387542,-147.017014,-25.524954,110.178665,-25.841206
3.602252,67.383812,0.360297,-140.455460,-27.871626,105.851280,-26.455462
3.607257,71.901764,0.449986,-101.885704,-25.070938,105.735229,-26.256866
3.612263,76.739830,0.758978,-107.974495,-28.809849,99.087830,-26.145573
3.617269,82.124092,0.555718,-78.836601,-31.637438,95.173767,-25.523947
3.622274,85.976669,0.522781,-94.284843,-28.050068,96.419174,-24.928640
3.627280,89.700935,0.344420,-104.402824,-27.103559,101.023064,-24.061220
3.632285,94.626709,0.307488,-126.744843,-23.789701,106.418259,-22.076721
3.637291,99.096497,0.277650,-99.497231,-22.041296,113.420288,-20.009716
3.642296,103.402069,0.566412,-100.379730,-16.380821,119.897232,-17.677908
3.647302,107.890106,0.255019,-70.541710,-16.732897,127.113876,-15.443121
3.652308,112.730431,0.348366,-49.167625,-14.178728,135.977234,-14.358813
3.657313,119.136131,0.395670,-45.626919,-14.627340,143.035080,-13.411659
3.662319,123.731422,0.574676,-17.990850,-14.081014,149.278305,-12.969191
3.667324,127.522163,0.400944,-12.679141,-14.233786,157.720200,-13.095893
3.672330,131.793716,0.229213,-0.413402,-15.226728,163.530197,-13.438144
3.677336,137.527573,0.545272,-0.546826,-16.636404,171.213058,-13.899916
3.682341,143.229050,0.592012,16.646265,-16.631504,179.784088,-14.444503
3.687347,146.371277,0.717205,19.393415,-17.932566,-169.868698,-14.549598
3.692352,150.841309,0.349680,12.783744,-18.253588,-157.961044,-14.980274
3.697358,156.124786,0.425535,13.735558,-18.945562,-148.035843,-15.450963
3.702364,158.796921,0.500479,23.628220,-18.068390,-136.607346,-16.164539
3.707369,164.179916,0.398078,9.566475,-20.865967,-122.799141,-17.259605
3.712375,168.478653,0.593844,50.428917,-24.381294,-109.305878,-18.578226
3.717380,174.395187,0.288739,25.455162,-29.005371,-93.431404,-20.074715
3.722386,177.415741,0.406374,1.018765,-28.736101,-75.937393,-21.649416
3.727392,-176.888855,0.493185,8.732405,-20.951330,-56.277168,-22.469194
3.732397,-173.061905,0.394998,-61.439228,-20.285179,-41.278168,-22.374208
3.737403,-167.048462,0.293508,-36.626396,-19.722580,-26.819895,-22.027615
3.742408,-163.624512,0.253227,-46.366676,-19.208305,-16.279539,-21.254690
3.747414,-158.717422,0.512975,-21.253622,-18.295464,-12.581424,-20.483450
3.752420,-152.918365,0.165441,-9.555434,-19.228544,-9.895950,-20.302412
3.757425,-149.643921,0.406963,4.230431,-16.115225,-8.808165,-20.239300
3.762431,-145.379456,0.413273,25.683399,-19.968304,-8.499975,-20.361185
3.767436,-139.387238,0.180933,34.983059,-16.560484,-7.459738,-20.778595
3.772442,-136.770615,0.478060,45.459740,-18.750473,-14.099065,-20.300850
3.777448,-130.481995,0.526947,65.973701,-19.794588,-15.777718,-20.178978
3.782453,-126.232353,0.198829,80.910049,-18.764774,-12.710786,-19.796186
3.787459,-120.512062,0.353177,78.918732,-20.244476,-6.266119,-19.311430
3.792464,-119.273621,0.282055,98.166679,-21.074507,1.939075,-19.039724
3.797470,-111.960526,0.477939,103.732422,-19.400089,10.225081,-19.164923
3.802475,-109.572723,0.506232,115.715698,-19.600933,19.435406,-19.439268
3.807481,-103.264664,0.441373,119.958900,-19.025887,27.867804,-20.444412
3.812487,-97.988792,0.427125,149.666656,-19.660393,33.083614,-22.019264
3.817492,-93.707886,0.447356,156.169937,-20.758465,38.851116,-24.390194
3.822498,-88.420105,0.275529,179.301453,-21.267460,44.552746,-27.773603
3.827503,-86.683792,0.585506,-164.986099,-26.037807,55.308235,-32.371494
3.832509,-81.503532,0.219402,-143.884460,-30.785244,79.812263,-38.290485
3.837515,-76.829109,0.625411,-137.793762,-32.940884,137.175125,-33.632126
3.842520,-70.730247,0.482080,-173.491714,-33.899624,-170.297287,-30.840763
3.847526,-67.065620,0.381319,11.941018,-30.109041,-135.314987,-29.612625
3.852531,-61.655453,0.308578,-131.341644,-32.331333,-104.013596,-28.567982
3.857537,-58.394920,0.352309,-166.389740,-25.598938,-68.283134,-25.705023
3.862543,-53.786564,0.452429,-138.741196,-25.560492,-39.248356,-22.896593
3.867548,-50.368423,0.408725,-99.601997,-19.409338,-17.069525,-20.950165
3.872554,-42.985123,0.504598,-81.772873,-22.005037,-4.519926,-20.353664
3.877559,-38.320835,0.313452,-59.898682,-19.814379,6.200922,-19.803724
3.882565,-36.464863,0.343257,-97.817375,-19.216259,14.966924,-19.885929
3.887571,-29.569155,0.545908,-54.548843,-18.955236,22.902311,-20.158777
3.892576,-27.507843,0.448153,-54.251865,-20.569183,31.882170,-20.400839
3.897582,-20.305439,0.470672,-70.669991,-23.414064,44.824780,-20.726175
3.902587,-14.931823,0.346831,-73.290558,-20.037371,59.071007,-20.472713
3.907593,-12.718979,0.497582,-44.873554,-22.080154,74.673233,-20.573631
3.912599,-8.521403,0.364082,-44.857517,-20.005043,93.687782,-21.112860
3.917604,-2.829695,0.512878,-49.253620,-21.422731,111.179718,-22.311043
3.922610,1.084196,0.527257,-32.601994,-20.969540,126.967209,-24.574091
3.927615,8.437501,0.572860,-17.101751,-24.181263,143.018936,-27.296299
3.932621,11.109112,0.434298,-21.494652,-29.034073,169.272171,-30.281284
3.937626,15.301461,0.567683,-13.396709,-34.495399,-154.251205,-30.938637
3.942632,19.286230,0.776779,176.775513,-30.048370,-110.191368,-29.461668
3.947638,24.469244,0.301372,-11.386738,-30.173822,-84.449509,-30.435818
3.952643,28.280720,0.298998,-157.600449,-32.282532,-68.764359,-32.209839
3.957649,34.304295,0.509113,-119.228722,-26.418501,-59.909103,-35.687458
3.962654,35.562424,0.236833,-79.060501,-21.930510,-54.306915,-43.844250
3.967660,42.193485,0.521468,-45.804096,-20.705143,72.767776,-32.437820
3.972666,47.663864,0.208044,-11.518377,-17.718973,103.941101,-25.088305
3.977671,50.553509,0.360625,19.531952,-16.675142,111.925323,-21.776802
3.982677,55.420612,0.322966,40.529545,-15.419151,120.682304,-19.466074
3.987682,61.663391,0.413916,48.574356,-15.634406,125.995438,-17.919920
3.992688,66.372330,0.401822,69.901512,-17.946249,135.862305,-17.115057
3.997694,71.586189,0.184136,90.978699,-15.671590,146.507187,-16.888372
4.002699,74.560432,0.565345,81.159378,-17.431646,158.307007,-17.034096
4.007705,80.615608,0.291634,104.321854,-17.018492,168.413818,-17.304951
4.012710,85.395782,0.204253,90.127419,-16.645563,-177.415543,-17.311079
4.017716,89.580498,0.099827,100.997597,-16.645159,-168.835236,-17.980381
4.022722,94.256195,0.334250,99.712372,-16.628759,-159.628693,-18.664295
4.027727,99.637093,0.494286,110.209045,-16.031105,-150.629745,-19.756159
4.032733,103.272820,0.590841,123.292847,-16.440187,-142.474976,-21.466305
4.037738,109.236107,0.599360,148.662491,-19.761486,-134.810959,-24.920677
4.042744,111.829750,0.442549,162.862228,-20.811943,-124.846664,-30.231359
4.047750,118.431786,0.457781,179.727585,-26.047714,-99.171196,-35.169060
4.052755,121.286095,0.618582,-123.279655,-29.397045,-23.626474,-29.739355
4.057761,126.838387,0.298889,-69.457756,-25.595118,35.036282,-26.436893
4.062766,132.607544,0.216884,-36.550583,-20.598316,50.000351,-25.646109
4.067772,136.227417,0.286421,-24.717609,-23.039833,61.685623,-25.915115
4.072777,141.009201,0.449978,0.181865,-26.043888,66.100716,-27.134827
4.077783,143.644806,0.353472,29.691896,-26.334494,68.306511,-29.555191
4.082789,149.623413,0.346946,48.436409,-28.888575,70.883186,-32.554459
4.087794,154.868469,0.650075,57.463161,-28.026443,70.887520,-36.220036
4.092800,157.956635,0.433658,83.228088,-32.490383,59.839443,-37.514549
4.097805,162.690811,0.717192,6.245954,-28.945078,44.624191,-35.825043
4.102811,168.946991,0.515932,89.610252,-23.308847,23.413313,-32.018826
4.107817,171.548294,0.428567,102.339722,-24.899288,8.981936,-27.340780
4.112822,177.286224,0.136685,91.877327,-23.913845,9.916388,-23.783037
4.117828,-179.365311,0.327406,114.222725,-20.696722,14.977314,-21.080208
4.122833,-174.434692,0.387433,121.840820,-19.596962,22.458735,-19.253962
4.127839,-169.005920,0.504635,144.193619,-19.388329,30.805382,-18.272169
4.132845,-164.574051,0.568426,158.925827,-20.098232,40.317940,-17.840605
4.137850,-158.972168,0.328183,167.476349,-19.189333,50.968155,-18.049416
4.142856,-155.717514,0.482930,-172.095718,-21.071007,62.322266,-18.687624
4.147861,-150.030853,0.517158,-168.738876,-26.285915,75.113274,-19.524464
4.152867,-147.124680,0.345803,159.237717,-26.439579,88.322311,-20.270700
4.157873,-142.197388,0.485373,141.061600,-22.459085,102.926079,-21.139500
4.162878,-134.767197,0.528643,168.835190,-21.256643,114.965347,-21.599295
4.167884,-131.794464,0.445296,158.489655,-20.189774,125.532837,-22.573568
4.172889,-127.518784,0.551917,178.737488,-22.159052,133.003220,-23.991802
4.177895,-121.337311,0.261551,-153.615906,-23.875740,142.212601,-27.676104
4.182901,-117.613510,0.451072,-147.970505,-26.661690,152.417282,-35.605869
4.187906,-114.154922,0.205087,-61.838818,-29.256264,178.356796,-33.640179
4.192912,-111.168732,0.404599,-74.941788,-24.100847,-40.255173,-25.816980
4.197917,-104.236107,0.296997,-30.845543,-24.279264,-16.597328,-21.949289
4.202923,-102.153473,0.276995,43.371494,-22.366680,-2.276534,-19.972916
4.207929,-96.388527,0.589224,32.331608,-20.807501,10.750676,-18.961800
4.212934,-91.897041,0.619067,56.170246,-21.692339,23.441027,-18.380665
4.217940,-87.318130,0.472716,31.174171,-22.348112,38.040440,-18.244686
4.222945,-83.253227,0.521699,38.533226,-24.288589,52.688194,-18.219231
4.227951,-76.333160,0.298225,41.965279,-22.572104,66.601212,-18.258268
4.232956,-72.716324,0.462507,17.887983,-22.848507,80.097885,-17.832546
4.237962,-68.642906,0.301340,40.465965,-23.973579,92.327484,-17.872572
4.242968,-62.993885,0.450206,34.807846,-21.755707,104.196388,-17.969238
4.247973,-59.841366,0.464990,66.383148,-30.931259,115.558998,-18.424467
4.252979,-53.511826,0.466800,27.947739,-28.482462,130.443268,-18.960022
4.257984,-50.936611,0.274559,122.033752,-34.316151,145.303513,-19.671791
4.262990,-44.282154,0.308476,-174.586517,-30.273249,164.405731,-20.057043
4.267996,-40.348469,0.165786,-36.226757,-25.499763,-174.095001,-20.465874
4.273001,-36.122005,0.334461,-122.029335,-19.048864,-157.565964,-20.738243
4.278007,-31.424704,0.308193,-41.585052,-20.871807,-146.517517,-21.129784
4.283012,-28.131397,0.446131,-49.484634,-19.742271,-139.728806,-21.417130
4.288018,-23.575169,0.346200,8.488079,-19.481440,-141.688583,-22.226042
4.293024,-18.163475,0.406768,14.981015,-22.422657,-147.960022,-22.377453
4.298029,-13.826563,0.316931,57.417759,-19.427698,-157.191711,-21.916191
4.303035,-8.739291,0.317422,58.728554,-17.530228,-167.623428,-20.825348
4.308040,-3.901068,0.488180,88.024307,-18.960873,-174.342300,-20.251757
4.313046,1.947482,0.495198,111.445412,-19.360809,179.116394,-18.641630
4.318052,5.413731,0.554452,111.336357,-17.261332,-179.485718,-17.113983
4.323057,10.131889,0.697925,124.710289,-18.071573,-173.843552,-15.692360
4.328063,15.984317,0.395960,116.166359,-17.280991,-166.302490,-14.601339
4.333068,18.595083,0.253614,130.118866,-14.816007,-159.177155,-13.813822
4.338074,23.449812,0.208133,133.965851,-14.889935,-149.137558,-13.346045
4.343080,27.490612,0.413726,149.592407,-14.362264,-139.163162,-13.255160
4.348085,32.079021,0.302809,148.331024,-14.207398,-130.376556,-13.620564
4.353091,39.202900,0.327254,159.918716,-14.770855,-121.691406,-14.024539
4.358096,40.881611,0.318680,175.897507,-15.964597,-113.124191,-14.804652
