Anritsu VNA Frequency[GHz],S21[deg],S21[dB],S11[deg],S11[dB],S22[deg],S22[dB]
1338038426.0,2012_05_26_14:20:26,+298.24,+298.27,+297.94,+298.14,+297.58,+298.62,+298.13,+298.65,243.685669,-5.827
3.006250,-12.649801,-3.308931,-9.562103,-28.681736,-20.094532,-29.780401
3.012500,-12.649801,-3.308931,-9.562103,-28.681736,-20.094532,-29.780401
3.018750,-12.649801,-3.308931,-9.562103,-28.681736,-20.094532,-29.780401
3.025000,-12.649801,-3.308931,-9.562103,-28.681736,-20.094532,-29.780401
3.031250,-12.649801,-3.308931,-9.562103,-28.681736,-20.094532,-29.780401
3.037500,-12.649801,-3.308931,-9.562103,-28.681736,-20.094532,-29.780401
3.043750,-12.649801,-3.308931,-9.562103,-28.681736,-20.094532,-29.780401
3.050000,-12.649801,-3.308931,-9.562103,-28.681736,-20.094532,-29.780401
3.056250,-12.649801,-3.308931,-9.562103,-28.681736,-20.094532,-29.780401
3.062500,-12.649801,-3.308931,-9.562103,-28.681736,-20.094532,-29.780401
3.068750,-12.649801,-3.308931,-9.562103,-28.681736,-20.094532,-29.780401
3.075000,-12.649801,-3.308931,-9.562103,-28.681736,-20.094532,-29.780401
3.081250,-12.649801,-3.308931,-9.562103,-28.681736,-20.094532,-29.780401
3.087500,-12.649801,-3.308931,-9.562103,-28.681736,-20.094532,-29.780401
3.093750,-12.649801,-3.311572,-9.562103,-28.597078,-20.094532,-29.958422
3.100000,-12.661094,-3.314636,-18.180279,-28.481077,-21.783222,-30.052958
3.106250,-12.674399,-3.318255,-27.219036,-28.348421,-24.881395,-30.063644
3.112500,-12.687363,-3.322121,-34.511585,-28.213917,-29.553558,-29.990105
3.118750,-12.698017,-3.325911,-40.089550,-28.093199,-35.810165,-29.828732
3.125000,-12.707518,-3.329708,-44.034683,-28.003056,-43.546967,-29.575539
3.131250,-12.717998,-3.333573,-46.442337,-27.934870,-50.691147,-29.234369
3.137500,-12.729600,-3.337664,-47.235996,-27.861906,-58.614845,-28.816231
3.143750,-12.742431,-3.342059,-46.749218,-27.806072,-68.318108,-28.329912
3.150000,-12.756009,-3.346854,-45.233681,-27.779200,-77.245613,-27.787277
3.156250,-12.768651,-3.351845,-42.849899,-27.780729,-83.173615,-27.209061
3.162500,-12.779436,-3.356698,-39.770870,-27.805063,-87.446503,-26.621906
3.168750,-12.788671,-3.361394,-36.186550,-27.840794,-89.279572,-26.051645
3.175000,-12.798009,-3.366181,-32.028027,-27.874235,-90.142845,-25.524782
3.181250,-12.808368,-3.371210,-27.246304,-27.884972,-88.125885,-25.070091
3.187500,-12.818563,-3.376403,-22.026758,-27.843246,-83.311630,-24.708994
3.193750,-12.826732,-3.381558,-16.302923,-27.773136,-75.725197,-24.388365
3.200000,-12.833303,-3.386665,-12.271504,-27.666901,-67.499123,-24.100536
3.206250,-12.839207,-3.391724,-8.929710,-27.518875,-55.543800,-23.903336
3.212500,-12.843404,-3.396609,-4.664661,-27.333662,-42.213497,-23.799519
3.218750,-12.846180,-3.401286,-1.225184,-27.120501,-28.130245,-23.783546
3.225000,-12.849100,-3.406055,1.617182,-26.891741,-13.680160,-23.859379
3.231250,-12.852008,-3.410858,4.164172,-26.657055,0.782842,-24.107512
3.237500,-12.853088,-3.415281,6.765135,-26.421473,14.143850,-24.299620
3.243750,-12.852615,-3.419262,7.874603,-26.188942,26.480192,-24.543375
3.250000,-12.854150,-3.423305,9.414702,-25.963661,37.349594,-24.838678
3.256250,-12.858709,-3.427834,11.125140,-25.744028,48.067345,-25.169109
3.262500,-12.863328,-3.432517,12.717729,-25.528805,56.493423,-25.510214
3.268750,-12.865778,-3.436829,13.796256,-25.340601,62.726707,-25.837215
3.275000,-12.866601,-3.440641,14.035133,-25.180647,66.901970,-26.136402
3.281250,-12.869247,-3.444546,13.234473,-25.040298,69.250053,-26.391748
3.287500,-12.876178,-3.448987,13.300233,-24.909586,70.120918,-26.584949
3.293750,-12.885032,-3.453978,12.591524,-24.778997,69.866470,-26.704210
3.300000,-12.892613,-3.459178,11.375037,-24.635311,68.830734,-26.739370
3.306250,-12.897656,-3.464323,9.913151,-24.458412,67.374374,-26.682913
3.312500,-12.900459,-3.469386,8.363281,-24.254576,63.679588,-26.536812
3.318750,-12.902345,-3.474542,6.621051,-24.055155,59.431355,-26.310921
3.325000,-12.903944,-3.479900,4.919611,-23.851130,56.542789,-26.027788
3.331250,-12.903598,-3.485353,3.379189,-23.642481,53.408936,-25.708551
3.337500,-12.899597,-3.490465,2.011499,-23.435915,48.196812,-25.369175
3.343750,-12.891669,-3.495017,0.777749,-23.244968,42.565716,-25.026617
3.350000,-12.881164,-3.499075,-0.369629,-23.085594,36.270206,-24.696365
3.356250,-12.869689,-3.502716,0.685439,-22.980795,30.990854,-24.391130
3.362500,-12.857875,-3.506009,2.501464,-22.978725,24.922085,-24.116446
3.368750,-12.845091,-3.508728,3.640018,-23.017872,18.459766,-23.866955
3.375000,-12.831535,-3.510852,6.654104,-23.126846,11.830175,-23.702667
3.381250,-12.818059,-3.512230,10.617665,-23.344170,7.478442,-23.632643
3.387500,-12.805327,-3.512860,15.430759,-23.670488,2.413988,-23.663239
3.393750,-12.795775,-3.513174,20.939842,-24.093048,-1.151335,-23.802443
3.400000,-12.791454,-3.513588,26.919933,-24.589249,-4.796374,-24.026936
3.406250,-12.790418,-3.513942,33.111187,-25.128836,-6.620296,-24.306215
3.412500,-12.791299,-3.514035,37.317963,-25.682764,-7.120432,-24.526323
3.418750,-12.794475,-3.514038,40.844471,-26.224379,-5.860068,-24.893265
3.425000,-12.802414,-3.514471,45.028965,-26.729437,-3.545515,-25.290163
3.431250,-12.814657,-3.515588,47.780167,-27.174173,-0.470297,-25.687971
3.437500,-12.827501,-3.516887,48.987099,-27.537491,2.960964,-26.066156
3.443750,-12.839485,-3.518042,48.609657,-27.808321,6.359661,-26.413176
3.450000,-12.853041,-3.519592,46.712063,-27.977032,9.637450,-26.721350
3.456250,-12.870313,-3.522080,43.531673,-28.022324,12.826225,-26.957973
3.462500,-12.887792,-3.525102,39.315666,-27.951197,14.070994,-27.110920
3.468750,-12.900946,-3.527910,34.331074,-27.783855,14.898432,-27.183111
3.475000,-12.910351,-3.530368,29.034590,-27.541784,14.857450,-27.172647
3.481250,-12.921083,-3.532944,22.054037,-27.249983,15.524809,-27.081631
3.487500,-12.935136,-3.536141,15.547155,-26.940853,15.056965,-26.917210
3.493750,-12.950676,-3.539906,9.548055,-26.649118,13.865222,-26.685007
3.500000,-12.965105,-3.543957,4.322529,-26.334885,12.411584,-26.389246
3.506250,-12.977697,-3.548231,-0.089349,-26.039173,11.220975,-26.032232
3.512500,-12.988462,-3.552373,-3.825410,-25.789993,10.808522,-25.624851
3.518750,-12.997913,-3.556230,-6.783606,-25.599731,11.642849,-25.184200
3.525000,-13.008260,-3.560205,-8.845691,-25.466251,14.181299,-24.724796
3.531250,-13.022966,-3.564962,-9.938769,-25.377802,18.822197,-24.260794
3.537500,-13.041426,-3.570709,-10.056921,-25.307873,23.678190,-23.804613
3.543750,-13.058290,-3.576784,-9.233880,-25.191196,30.272934,-23.365242
3.550000,-13.070065,-3.582666,-5.478389,-25.082129,38.098095,-22.960178
3.556250,-13.078605,-3.588355,-2.990396,-24.976780,46.500652,-22.620581
3.562500,-13.087262,-3.594327,0.667630,-24.845303,54.719135,-22.324976
3.568750,-13.095710,-3.600721,5.051101,-24.673735,61.721466,-22.052502
3.575000,-13.099420,-3.606976,9.628633,-24.465279,68.873116,-21.825508
3.581250,-13.095866,-3.612395,13.795432,-24.238626,75.843010,-21.677940
3.587500,-13.086790,-3.616838,16.989777,-24.021299,80.871780,-21.635660
3.593750,-13.075502,-3.620761,20.927950,-23.840189,84.297234,-21.725657
3.600000,-13.063591,-3.624357,23.891632,-23.723749,86.372894,-21.909159
3.606250,-13.048557,-3.627248,26.123110,-23.696272,86.744591,-22.156965
3.612500,-13.028422,-3.628879,27.968630,-23.755659,86.257652,-22.497236
3.618750,-13.005852,-3.629318,27.850889,-23.910339,82.903511,-22.925646
3.625000,-12.984836,-3.629114,27.565966,-24.167334,80.040787,-23.420259
3.631250,-12.966252,-3.628291,26.805449,-24.525827,75.639069,-23.952099
3.637500,-12.949264,-3.626713,25.201582,-24.993639,69.793427,-24.516928
3.643750,-12.935654,-3.624524,22.489845,-25.552135,64.815941,-25.093536
3.650000,-12.928164,-3.622324,18.501869,-26.170349,59.699528,-25.650839
3.656250,-12.928422,-3.620521,13.016308,-26.812969,55.201015,-26.162550
3.662500,-12.934443,-3.619128,7.997645,-27.438469,49.805996,-26.607061
3.668750,-12.944474,-3.618035,1.923133,-27.994568,45.421410,-26.963303
3.675000,-12.959515,-3.617533,-4.842860,-28.423174,41.982460,-27.215229
3.681250,-12.979841,-3.617908,-12.187531,-28.754541,39.350666,-27.358957
3.687500,-13.003933,-3.619042,-19.809391,-28.951321,37.269508,-27.400984
3.693750,-13.030270,-3.621011,-27.198666,-28.990011,35.441765,-27.346460
3.700000,-13.059684,-3.624197,-34.088058,-28.866760,33.549679,-27.201591
3.706250,-13.090858,-3.628654,-40.274769,-28.595345,31.237726,-26.977644
3.712500,-13.119342,-3.633782,-45.594196,-28.204733,30.041986,-26.690208
3.718750,-13.141575,-3.638941,-49.920010,-27.746429,28.033567,-26.357153
3.725000,-13.160297,-3.644308,-53.174965,-27.271057,25.504990,-25.993818
3.731250,-13.178262,-3.650307,-56.330822,-26.723885,22.824114,-25.602776
3.737500,-13.194001,-3.656771,-56.384605,-26.196657,20.385134,-25.176149
3.743750,-13.203265,-3.663028,-55.122913,-25.733997,18.651358,-24.761772
3.750000,-13.205117,-3.668647,-52.541885,-25.374210,18.410961,-24.409237
3.756250,-13.203132,-3.673640,-48.699959,-25.139139,17.758678,-24.124971
3.762500,-13.199614,-3.678163,-43.650352,-25.030628,18.539883,-23.916407
3.768750,-13.194896,-3.682207,-37.511581,-25.036518,20.882839,-23.745094
3.775000,-13.189461,-3.685770,-30.500742,-25.136284,22.884222,-23.582779
3.781250,-13.184850,-3.689124,-22.898199,-25.303240,26.045689,-23.473003
3.787500,-13.181354,-3.692215,-16.924620,-25.505318,30.533751,-23.449110
3.793750,-13.177904,-3.694786,-11.342489,-25.730272,37.279137,-23.476770
3.800000,-13.174611,-3.696930,-4.869509,-25.954498,44.300274,-23.540766
3.806250,-13.174560,-3.699085,0.467548,-26.149572,49.680012,-23.630310
3.812500,-13.179140,-3.701540,4.538635,-26.305340,55.038303,-23.736908
3.818750,-13.186230,-3.704218,7.334203,-26.394190,60.148041,-23.843182
3.825000,-13.194596,-3.707071,9.110404,-26.382103,64.867844,-23.923374
3.831250,-13.204531,-3.710369,9.798409,-26.291006,68.974419,-23.973623
3.837500,-13.215589,-3.713954,9.577680,-26.137108,72.303772,-23.993210
3.843750,-13.225837,-3.717588,8.819966,-25.935877,74.863472,-23.981386
3.850000,-13.235261,-3.721229,7.969794,-25.703949,76.766853,-23.943279
3.856250,-13.245420,-3.725183,5.624452,-25.457481,78.199097,-23.889975
3.862500,-13.256580,-3.729342,3.916739,-25.205912,79.429649,-23.811638
3.868750,-13.266397,-3.733386,2.807925,-24.956669,80.873116,-23.693293
3.875000,-13.275843,-3.737353,2.184732,-24.723942,82.732735,-23.552895
3.881250,-13.287698,-3.741972,1.924722,-24.519108,85.294952,-23.403950
3.887500,-13.302705,-3.747527,1.954791,-24.342833,88.931877,-23.251225
3.893750,-13.316097,-3.753317,2.215675,-24.184303,91.823921,-23.095612
3.900000,-13.324174,-3.758659,2.650566,-24.008535,95.592690,-22.933441
3.906250,-13.329714,-3.763861,3.195494,-23.779972,99.899597,-22.762402
3.912500,-13.339210,-3.769896,4.903520,-23.584873,104.310738,-22.590097
3.918750,-13.352302,-3.777210,6.947029,-23.367971,108.382973,-22.419466
3.925000,-13.363708,-3.785363,9.494408,-23.115843,111.707077,-22.246201
3.931250,-13.368063,-3.793609,12.625340,-22.827969,113.851028,-22.065207
3.937500,-13.365266,-3.801705,16.338709,-22.507746,114.379135,-21.863798
3.943750,-13.357835,-3.809845,20.569775,-22.165415,112.869423,-21.636978
3.950000,-13.346972,-3.818200,25.200804,-21.818878,108.793434,-21.425861
3.956250,-13.330772,-3.826422,30.095915,-21.487303,103.997543,-21.237341
3.962500,-13.306297,-3.833788,35.065899,-21.188730,97.046753,-21.075020
3.968750,-13.273192,-3.839852,40.153133,-20.939606,90.243118,-20.946907
3.975000,-13.234793,-3.844615,45.372616,-20.751816,80.244270,-20.862389
3.981250,-13.195084,-3.848361,50.451675,-20.633259,69.440895,-20.830925
3.987500,-13.155531,-3.851184,55.124203,-20.584204,58.360378,-20.861652
3.993750,-13.115493,-3.852918,59.138401,-20.593096,47.533825,-20.971376
4.000000,-13.075312,-3.853469,62.215721,-20.671793,37.482441,-21.148552
4.006250,-13.036572,-3.852998,63.928444,-20.840511,28.939852,-21.377516
4.012500,-13.001523,-3.851470,64.345688,-21.073566,21.987022,-21.686565
4.018750,-12.970654,-3.849019,63.391880,-21.363058,16.992319,-22.079689
4.025000,-12.945862,-3.845942,61.009937,-21.701229,14.252959,-22.555029
4.031250,-12.929765,-3.842824,55.365234,-22.073048,13.912652,-23.119139
4.037500,-12.922074,-3.839859,50.373550,-22.459816,15.877082,-23.705042
4.043750,-12.921679,-3.837205,44.297573,-22.850061,19.414106,-24.285498
4.050000,-12.927185,-3.834939,37.319744,-23.236116,24.412006,-24.892685
4.056250,-12.938454,-3.833250,29.730307,-23.605986,30.382559,-25.507858
4.062500,-12.953946,-3.831985,21.867283,-23.949823,36.639256,-26.108080
4.068750,-12.972223,-3.830832,14.072009,-24.268478,44.280331,-26.672638
4.075000,-12.994874,-3.830255,6.715765,-24.563181,50.899239,-27.182169
4.081250,-13.024084,-3.830935,0.298677,-24.800386,56.332645,-27.616901
4.087500,-13.058642,-3.833093,-6.692451,-24.988346,60.513569,-27.954813
4.093750,-13.090491,-3.835653,-12.447887,-25.141331,63.432785,-28.181047
4.100000,-13.116689,-3.837797,-17.170183,-25.263899,65.151482,-28.288664
4.106250,-13.141506,-3.839881,-21.043356,-25.355961,65.848000,-28.275272
4.112500,-13.171657,-3.842996,-24.247271,-25.414289,65.813072,-28.143490
4.118750,-13.205790,-3.847350,-26.941225,-25.438307,65.420219,-27.907427
4.125000,-13.238022,-3.852297,-29.269726,-25.428936,65.074394,-27.594564
4.131250,-13.264788,-3.857291,-31.359152,-25.379889,65.302765,-27.190916
4.137500,-13.287618,-3.862423,-33.355991,-25.287546,66.790504,-26.701777
4.143750,-13.309147,-3.867852,-35.418674,-25.154364,69.695717,-26.170246
4.150000,-13.328867,-3.873549,-35.480244,-24.982580,72.241234,-25.626558
4.156250,-13.346719,-3.879544,-34.960564,-24.775888,76.186829,-25.093864
4.162500,-13.363200,-3.885952,-35.292068,-24.536497,81.337257,-24.588736
4.168750,-13.377678,-3.892705,-34.432262,-24.266201,87.444946,-24.119427
4.175000,-13.389368,-3.899711,-32.566288,-23.968004,94.203629,-23.679853
4.181250,-13.398300,-3.906973,-29.940777,-23.648769,101.215317,-23.307205
4.187500,-13.404235,-3.914388,-26.834169,-23.311813,107.786377,-23.006887
4.193750,-13.406096,-3.921746,-23.547735,-22.963703,113.980347,-22.759733
4.200000,-13.403603,-3.928850,-20.467991,-22.623318,119.223282,-22.574322
4.206250,-13.397818,-3.935658,-17.936121,-22.306044,123.192368,-22.444263
4.212500,-13.389407,-3.942065,-14.069533,-22.027088,125.701683,-22.338516
4.218750,-13.378215,-3.947806,-10.471915,-21.801006,126.743172,-22.297607
4.225000,-13.364442,-3.952704,-6.835901,-21.638195,126.903244,-22.410589
4.231250,-13.351050,-3.957072,-4.731428,-21.541042,126.029007,-22.499825
4.237500,-13.339359,-3.961205,-2.220206,-21.502642,125.130257,-22.619286
4.243750,-13.329437,-3.964911,0.408261,-21.515491,123.907433,-22.779406
4.250000,-13.318990,-3.967990,2.828526,-21.563519,120.828568,-22.974422
4.256250,-13.308459,-3.970338,4.707714,-21.627213,117.862122,-23.190599
4.262500,-13.300859,-3.972241,5.587681,-21.727215,115.041733,-23.414263
4.268750,-13.297388,-3.973948,7.266806,-21.848602,112.329262,-23.637959
4.275000,-13.299381,-3.975846,8.244184,-21.967381,109.689438,-23.849079
4.281250,-13.306963,-3.978304,8.771673,-22.067963,107.087425,-24.031618
4.287500,-13.318493,-3.981367,9.051401,-22.139975,104.442528,-24.171251
4.293750,-13.330914,-3.984696,9.267561,-22.173109,101.652885,-24.253391
4.300000,-13.345145,-3.988560,9.558115,-22.160122,98.577347,-24.261761
4.306250,-13.362375,-3.993624,10.002994,-22.096399,95.050484,-24.169510
4.312500,-13.380906,-3.999864,10.619813,-21.985802,90.797241,-24.000467
4.318750,-13.394697,-4.006305,11.377813,-21.835201,85.318291,-23.778538
4.325000,-13.401903,-4.012471,12.253927,-21.647728,78.654442,-23.494493
4.331250,-13.407733,-4.019057,13.190578,-21.429111,72.557495,-23.153614
4.337500,-13.415315,-4.026802,14.082752,-21.187967,65.238258,-22.768209
4.343750,-13.420152,-4.035308,16.984100,-20.934177,57.127453,-22.352930
4.350000,-13.415865,-4.043519,18.513939,-20.680904,48.681580,-21.924713
4.356250,-13.401498,-4.051061,20.668381,-20.443146,40.370129,-21.496796
4.362500,-13.381751,-4.058155,23.227638,-20.257214,32.658787,-21.072939
4.368750,-13.358463,-4.064888,25.945797,-20.089682,25.871576,-20.701906
4.375000,-13.329724,-4.070840,29.001850,-19.964951,20.244564,-20.400057
4.381250,-13.295955,-4.075848,31.661816,-19.917469,16.185368,-20.190336
4.387500,-13.260300,-4.080156,33.861824,-19.959812,13.854338,-20.106901
4.393750,-13.221677,-4.083425,35.541260,-20.091255,13.379512,-20.210667
4.400000,-13.180134,-4.085231,34.748276,-20.304743,13.720638,-20.342237
4.406250,-13.138224,-4.085915,33.057796,-20.587341,15.842323,-20.499666
4.412500,-13.100630,-4.085978,32.061394,-20.927443,19.148893,-20.836763
4.418750,-13.067456,-4.085307,29.866449,-21.316402,24.179895,-21.291506
4.425000,-13.035261,-4.083416,26.576401,-21.737541,29.378231,-21.827206
4.431250,-13.006374,-4.080448,22.376392,-22.172377,34.548313,-22.416763
4.437500,-12.985900,-4.077137,17.503639,-22.601839,39.506870,-23.034721
4.443750,-12.975096,-4.073856,12.286004,-22.994568,44.139336,-23.644833
4.450000,-12.971720,-4.070385,7.116151,-23.325014,48.414913,-24.204826
4.456250,-12.976319,-4.067213,2.312014,-23.584234,52.250904,-24.688999
4.462500,-12.991586,-4.065271,-3.646555,-23.766104,55.603924,-25.078585
4.468750,-13.015729,-4.064775,-8.713299,-23.864260,58.545303,-25.356089
4.475000,-13.041568,-4.064961,-12.992299,-23.874201,61.216312,-25.505983
4.481250,-13.065726,-4.065302,-16.585806,-23.797123,63.802341,-25.520853
4.487500,-13.091692,-4.066424,-19.609316,-23.643044,66.515114,-25.405163
4.493750,-13.123367,-4.068905,-22.163296,-23.425272,69.600235,-25.173922
4.500000,-13.157708,-4.072730,-24.303488,-23.150648,73.384720,-24.822746
4.506250,-13.190513,-4.077763,-26.074100,-22.830112,78.217827,-24.364847
4.512500,-13.220422,-4.084090,-27.612322,-22.489294,82.016724,-23.840355
4.518750,-13.245391,-4.091490,-29.020790,-22.151505,86.314514,-23.285831
4.525000,-13.261010,-4.098872,-30.341070,-21.834108,90.809883,-22.733313
4.531250,-13.264618,-4.105409,-29.421053,-21.545582,95.209061,-22.210045
4.537500,-13.261968,-4.111473,-29.529102,-21.282438,99.224197,-21.737885
4.543750,-13.258849,-4.117931,-28.572155,-21.010359,102.540565,-21.340900
4.550000,-13.254602,-4.124804,-26.766161,-20.791157,104.767197,-21.056137
4.556250,-13.244160,-4.131309,-24.947731,-20.642998,105.214264,-20.852177
4.562500,-13.225755,-4.136984,-22.855495,-20.543127,105.584373,-20.747494
4.568750,-13.201426,-4.141860,-20.798103,-20.482817,104.192337,-20.734991
4.575000,-13.175190,-4.146146,-19.242237,-20.482407,101.273514,-20.751457
4.581250,-13.146850,-4.149857,-16.417366,-20.565147,98.320213,-20.957632
4.587500,-13.115918,-4.152579,-13.940145,-20.754221,94.794388,-21.285009
4.593750,-13.082302,-4.154083,-11.438713,-21.047052,91.638458,-21.665180
4.600000,-13.047918,-4.154330,-10.293807,-21.425367,87.274483,-22.105183
4.606250,-13.016421,-4.153595,-8.680582,-21.902016,83.533478,-22.603294
4.612500,-12.990087,-4.152199,-6.874381,-22.473984,80.542740,-23.145552
4.618750,-12.969556,-4.150301,-5.051702,-23.128223,78.413834,-23.709352
4.625000,-12.955300,-4.148093,-3.423991,-23.860779,77.186607,-24.280195
4.631250,-12.947743,-4.145989,-2.171143,-24.644705,76.794792,-24.849516
4.637500,-12.946259,-4.143908,-1.305480,-25.440960,77.233177,-25.394632
4.643750,-12.948032,-4.141268,-0.732849,-26.226833,78.446159,-25.899811
4.650000,-12.952368,-4.137802,-0.294897,-26.974941,80.270264,-26.357098
4.656250,-12.965199,-4.134409,-0.035959,-27.654167,82.514191,-26.763575
4.662500,-12.992891,-4.132575,0.026010,-28.232115,84.897850,-27.099285
4.668750,-13.033751,-4.132749,-0.104855,-28.672644,87.034172,-27.327747
4.675000,-13.078619,-4.134310,-0.433808,-28.944399,88.728706,-27.441442
4.681250,-13.122367,-4.136774,-1.030195,-29.037682,89.620270,-27.462952
4.687500,-13.166182,-4.140357,-1.983410,-28.952135,89.179810,-27.405630
4.693750,-13.211343,-4.145314,-3.272731,-28.686750,89.026947,-27.262905
4.700000,-13.256491,-4.151495,-4.890038,-28.251846,87.213417,-27.035038
4.706250,-13.299344,-4.159025,-6.850090,-27.669050,83.981003,-26.726425
