Anritsu VNA Frequency[GHz],S21[deg],S21[dB],S11[deg],S11[dB],S22[deg],S22[dB]
1338121056.62,2012_05_27_13:17:36,+40.703,+10.256,+55.338,+10.269,+13.903,+13.713,+14.009,+13.760,10.368722,-15.840
3.006250,34.338364,-1.758672,59.502541,-26.660286,-79.813103,-27.424637
3.012500,34.338364,-1.758672,59.502541,-26.660286,-79.813103,-27.424637
3.018750,34.338364,-1.758672,59.502541,-26.660286,-79.813103,-27.424637
3.025000,34.338364,-1.758672,59.502541,-26.660286,-79.813103,-27.424637
3.031250,34.338364,-1.758672,59.502541,-26.660286,-79.813103,-27.424637
3.037500,34.338364,-1.758672,59.502541,-26.660286,-79.813103,-27.424637
3.043750,34.338364,-1.758672,59.502541,-26.660286,-79.813103,-27.424637
3.050000,34.338364,-1.758672,59.502541,-26.660286,-79.813103,-27.424637
3.056250,34.338364,-1.758672,59.502541,-26.660286,-79.813103,-27.424637
3.062500,34.338364,-1.758672,59.502541,-26.660286,-79.813103,-27.424637
3.068750,34.338364,-1.758672,59.502541,-26.660286,-79.813103,-27.424637
3.075000,34.338364,-1.758672,59.502541,-26.660286,-79.813103,-27.424637
3.081250,34.338364,-1.758672,59.502541,-26.660286,-79.813103,-27.424637
3.087500,34.338364,-1.758672,59.502541,-26.660286,-79.813103,-27.424637
3.093750,34.338364,-1.760351,59.502541,-26.457005,-79.813103,-27.176119
3.100000,40.245934,-1.762307,56.823250,-26.301577,-81.829597,-26.944815
3.106250,46.153378,-1.764255,53.257965,-26.218061,-82.229172,-26.732094
3.112500,52.061306,-1.766184,49.175213,-26.225750,-80.650650,-26.512211
3.118750,57.968403,-1.768282,43.178108,-26.267317,-78.939140,-26.213497
3.125000,63.874241,-1.770512,38.386547,-26.309149,-74.891747,-25.952684
3.131250,69.779762,-1.772805,34.000637,-26.378031,-68.726898,-25.665575
3.137500,75.684113,-1.775434,30.285837,-26.475595,-60.839508,-25.341833
3.143750,81.586784,-1.778627,27.450811,-26.593622,-51.414894,-24.989573
3.150000,87.490410,-1.782090,25.674377,-26.717812,-40.608959,-24.621380
3.156250,93.397369,-1.785367,25.078026,-26.833282,-28.594061,-24.255663
3.162500,97.411858,-1.788356,25.726437,-26.927029,-15.571815,-23.916059
3.168750,101.153328,-1.791482,27.636528,-26.991440,-1.753808,-23.650640
3.175000,104.088112,-1.794890,30.850578,-27.004402,10.807268,-23.405758
3.181250,105.725746,-1.798412,33.611767,-26.953011,24.135227,-23.183950
3.187500,105.641113,-1.801773,37.390762,-26.854624,36.915859,-23.015644
3.193750,103.492943,-1.804910,41.480480,-26.721346,48.653172,-22.917168
3.200000,99.043861,-1.807726,45.309181,-26.561052,58.936226,-22.892181
3.206250,92.171608,-1.810173,48.395096,-26.383932,67.370895,-22.941233
3.212500,82.874527,-1.812425,50.321014,-26.203613,73.648857,-23.072014
3.218750,71.273186,-1.814913,50.773537,-26.030663,77.546387,-23.266790
3.225000,57.605671,-1.817282,51.753391,-25.858522,78.689575,-23.470892
3.231250,42.215172,-1.819134,51.799370,-25.687714,77.250107,-23.693014
3.237500,25.526947,-1.820675,49.424183,-25.518095,75.233963,-23.924578
3.243750,8.029166,-1.822533,46.734863,-25.327702,71.060646,-24.143303
3.250000,-9.745479,-1.824986,43.604694,-25.155722,65.330475,-24.329756
3.256250,-27.246765,-1.827584,39.672390,-25.015793,58.598293,-24.483032
3.262500,-43.939564,-1.829855,35.179588,-24.891186,51.496311,-24.592033
3.268750,-59.333027,-1.831848,30.066832,-24.778009,44.720547,-24.647949
3.275000,-73.003166,-1.833968,24.211248,-24.674568,38.855251,-24.650717
3.281250,-84.610504,-1.836486,17.504744,-24.572220,34.406116,-24.607622
3.287500,-93.915817,-1.839387,9.855973,-24.458132,31.755764,-24.532377
3.293750,-100.795227,-1.842428,1.230676,-24.294909,31.163208,-24.425797
3.300000,-105.248131,-1.845383,-6.196482,-24.126026,32.782917,-24.289276
3.306250,-107.396004,-1.848069,-14.854299,-23.990297,36.599285,-24.149107
3.312500,-107.476532,-1.850544,-23.508799,-23.868082,42.430813,-24.036371
3.318750,-105.831429,-1.852911,-31.873480,-23.766808,50.009819,-23.971836
3.325000,-102.887726,-1.855070,-39.689571,-23.703899,58.994202,-23.966679
3.331250,-99.137253,-1.856877,-46.694725,-23.705826,68.951370,-24.023857
3.337500,-95.113022,-1.858321,-52.698120,-23.845537,79.368866,-24.141472
3.343750,-89.193626,-1.859442,-57.769394,-24.003141,89.706711,-24.305271
3.350000,-83.274681,-1.860124,-62.194103,-24.225739,97.569450,-24.460081
3.356250,-77.356827,-1.860521,-65.623215,-24.554071,106.175690,-24.658173
3.362500,-71.440811,-1.860737,-66.352325,-25.009781,112.441711,-24.908016
3.368750,-65.526520,-1.860672,-66.014839,-25.573290,116.487808,-25.198164
3.375000,-59.612831,-1.860059,-64.486237,-26.217381,117.915520,-25.572868
3.381250,-53.701195,-1.859013,-61.779446,-26.907429,116.540306,-25.908669
3.387500,-47.795708,-1.858320,-57.989857,-27.604464,113.020302,-26.231655
3.393750,-41.896587,-1.858404,-53.273983,-28.263632,106.780357,-26.534616
3.400000,-36.000015,-1.858838,-47.850861,-28.841476,98.385040,-26.809923
3.406250,-30.101847,-1.859062,-42.054092,-29.317039,88.835312,-27.088570
3.412500,-24.204302,-1.859401,-36.210262,-29.664816,78.797119,-27.336618
3.418750,-18.311522,-1.860623,-28.386763,-29.862768,66.911926,-27.532824
3.425000,-12.421871,-1.862778,-22.122107,-29.906431,55.468475,-27.670929
3.431250,-6.529515,-1.865048,-15.566545,-29.810356,44.901222,-27.757330
3.437500,-0.632984,-1.867197,-8.976923,-29.560024,35.663666,-27.796152
3.443750,5.263327,-1.870011,-2.374259,-29.152658,28.442230,-27.734587
3.450000,11.157894,-1.873746,3.723835,-28.634586,21.515177,-27.602583
3.456250,17.056421,-1.877667,9.153740,-28.045153,16.665581,-27.413523
3.462500,22.963703,-1.881015,13.908272,-27.428391,13.597132,-27.169781
3.468750,28.876112,-1.883716,18.068846,-26.830770,11.999109,-26.868658
3.475000,34.788879,-1.886171,21.742153,-26.318932,11.519458,-26.525444
3.481250,40.701096,-1.888517,25.190968,-25.843740,11.767650,-26.154970
3.487500,46.612686,-1.890925,27.152292,-25.437645,12.372544,-25.751476
3.493750,52.522827,-1.893754,29.005463,-25.136818,12.900780,-25.322824
3.500000,58.432362,-1.897030,30.580652,-24.946856,12.919868,-24.880842
3.506250,64.344551,-1.900126,31.777882,-24.853409,12.095810,-24.435394
3.512500,70.261688,-1.902411,32.500286,-24.821352,10.158028,-23.995649
3.518750,76.178802,-1.904467,32.710896,-24.750856,6.901520,-23.566504
3.525000,82.089661,-1.907434,32.641602,-24.739901,2.173043,-23.154284
3.531250,87.995880,-1.911496,32.766788,-24.730383,-2.007047,-22.773787
3.537500,93.904640,-1.915799,32.775108,-24.687658,-7.090378,-22.440750
3.543750,97.924377,-1.919837,32.921223,-24.602352,-12.656830,-22.150618
3.550000,101.673340,-1.924049,33.539307,-24.447474,-18.424362,-21.868254
3.556250,104.615952,-1.928935,33.064701,-24.224142,-23.915817,-21.541388
3.562500,106.263115,-1.934141,33.207256,-23.961943,-28.825424,-21.298361
3.568750,106.194252,-1.938518,33.622372,-23.687458,-31.966375,-21.126163
3.575000,104.068520,-1.941557,34.032951,-23.427828,-34.327347,-21.026064
3.581250,99.644165,-1.943503,34.155178,-23.217434,-35.638832,-21.012077
3.587500,92.794006,-1.945026,33.731586,-23.093191,-35.918083,-21.043802
3.593750,83.518227,-1.946150,32.649536,-23.043392,-35.045967,-21.143463
3.600000,71.942421,-1.946249,30.858860,-23.079632,-32.862812,-21.326181
3.606250,58.304485,-1.944956,30.192806,-23.216980,-29.523497,-21.585890
3.612500,42.939564,-1.942795,29.208889,-23.441130,-25.306395,-21.895931
3.618750,26.271461,-1.940281,28.316769,-23.768812,-20.606293,-22.230976
3.625000,8.793904,-1.937099,27.630533,-24.212290,-16.212303,-22.633854
3.631250,-8.958874,-1.933071,27.752390,-24.733557,-10.319107,-23.066820
3.637500,-26.443243,-1.928704,28.985313,-25.296886,-4.652698,-23.501511
3.643750,-43.131527,-1.924637,31.469990,-25.864872,0.765413,-23.917990
3.650000,-58.530113,-1.921250,33.342052,-26.392351,5.846639,-24.298922
3.656250,-72.208961,-1.918431,36.165504,-26.803131,10.501925,-24.627892
3.662500,-83.826088,-1.916324,39.112118,-27.144876,14.632413,-24.899603
3.668750,-93.144447,-1.915096,43.100521,-27.394075,18.099981,-25.121328
3.675000,-100.039986,-1.914417,46.456345,-27.522581,20.820707,-25.291143
3.681250,-104.510384,-1.913853,48.906773,-27.527605,22.739534,-25.407648
3.687500,-106.678505,-1.913708,50.209358,-27.421883,23.779268,-25.473928
3.693750,-106.785645,-1.914785,50.212070,-27.231949,23.888247,-25.499231
3.700000,-105.169998,-1.916976,48.923615,-26.962715,23.071777,-25.494953
3.706250,-102.252304,-1.919280,46.495365,-26.632256,21.461981,-25.453018
3.712500,-98.523102,-1.921336,42.914444,-26.279659,19.279615,-25.367268
3.718750,-94.519966,-1.923715,36.475048,-25.932873,16.672674,-25.242937
3.725000,-88.623634,-1.926722,29.103537,-25.607521,13.973987,-25.095947
3.731250,-82.725227,-1.929793,20.525429,-25.348619,11.786771,-24.964386
3.737500,-76.822227,-1.932395,12.686922,-25.179491,10.525195,-24.860489
3.743750,-70.916931,-1.934759,4.331082,-25.086266,10.600660,-24.806604
3.750000,-65.013031,-1.937246,-3.982659,-25.057459,10.606326,-24.718130
3.756250,-59.109833,-1.939737,-11.861820,-25.088329,10.531948,-24.615055
3.762500,-53.206089,-1.942051,-18.882637,-25.158159,11.693051,-24.497290
3.768750,-47.302643,-1.944423,-24.607260,-25.229454,13.830066,-24.413845
3.775000,-41.400871,-1.947120,-28.800720,-25.314947,16.494810,-24.353815
3.781250,-35.499428,-1.949901,-31.364552,-25.402023,19.081158,-24.301149
3.787500,-29.596825,-1.952439,-31.929085,-25.469841,21.224306,-24.248930
3.793750,-23.694176,-1.955129,-30.418617,-25.534012,22.617725,-24.200565
3.800000,-17.793621,-1.958214,-28.758318,-25.535196,23.066854,-24.148438
3.806250,-11.893560,-1.961595,-24.587818,-25.450556,22.588100,-24.057175
3.812500,-5.992181,-1.965176,-19.435297,-25.318853,21.045076,-23.934099
3.818750,-0.090435,-1.969104,-13.840053,-25.157106,18.326740,-23.789974
3.825000,5.812202,-1.973424,-8.336306,-24.979626,14.563719,-23.631563
3.831250,11.719056,-1.977387,-1.271248,-24.800892,10.020065,-23.470276
3.837500,17.630096,-1.980794,5.535484,-24.634771,5.019659,-23.342445
3.843750,23.540569,-1.984274,12.238789,-24.476694,-0.093704,-23.204010
3.850000,29.448755,-1.988231,17.151623,-24.320749,-6.012497,-23.035551
3.856250,35.357903,-1.992047,21.952196,-24.176311,-11.539860,-22.877428
3.862500,41.271557,-1.995121,26.216211,-24.041731,-16.662529,-22.738388
3.868750,47.184578,-1.998049,29.614063,-23.904015,-21.356441,-22.615496
3.875000,53.090996,-2.002023,31.829382,-23.740993,-25.647903,-22.497808
3.881250,58.993160,-2.007174,32.504356,-23.558693,-29.606720,-22.369078
3.887500,64.898964,-2.012461,31.245424,-23.359411,-33.415863,-22.234386
3.893750,70.811516,-2.017267,27.980640,-23.125713,-37.334137,-22.098835
3.900000,76.725471,-2.022326,24.787657,-22.846878,-41.491249,-21.954483
3.906250,82.636032,-2.028416,20.214361,-22.522865,-44.190693,-21.799635
3.912500,88.546661,-2.035462,14.730597,-22.155029,-47.300186,-21.629545
3.918750,94.463539,-2.042906,8.801902,-21.750948,-50.532391,-21.431290
3.925000,98.494171,-2.050104,2.798606,-21.337955,-53.640778,-21.178183
3.931250,102.259911,-2.056954,-2.936253,-20.942074,-56.684975,-20.959251
3.937500,105.226273,-2.063323,-7.974769,-20.583078,-57.479759,-20.770504
3.943750,106.900719,-2.069074,-11.990417,-20.283743,-57.092060,-20.620565
3.950000,106.857643,-2.073690,-14.764655,-20.066166,-55.057117,-20.522999
3.956250,104.755913,-2.076652,-16.170252,-19.948351,-51.022110,-20.493689
3.962500,100.355728,-2.077879,-16.148005,-19.940084,-44.735233,-20.544275
3.968750,93.531395,-2.077733,-14.696902,-20.038437,-36.058918,-20.683477
3.975000,84.280426,-2.076234,-13.763602,-20.208467,-24.999537,-20.922283
3.981250,72.723511,-2.073533,-9.656539,-20.503307,-11.719958,-21.288614
3.987500,59.096123,-2.069719,-5.302934,-20.903776,2.150472,-21.696419
3.993750,43.737091,-2.065085,-0.009813,-21.366808,17.306723,-22.207520
4.000000,27.072414,-2.059842,5.578176,-21.888380,32.920223,-22.828501
4.006250,9.594879,-2.053921,11.106855,-22.452063,48.130695,-23.589888
4.012500,-8.165482,-2.047843,16.306540,-23.029703,61.860973,-24.350319
4.018750,-25.664602,-2.042471,20.927774,-23.588768,74.797409,-25.085649
4.025000,-42.368530,-2.037982,24.683649,-24.114204,84.992844,-25.830719
4.031250,-57.780590,-2.034006,29.437132,-24.596403,93.355736,-26.590183
4.037500,-71.471298,-2.030578,31.820648,-25.014729,99.009949,-27.309986
4.043750,-83.103607,-2.028349,33.877453,-25.356861,102.245323,-27.960154
4.050000,-92.438728,-2.027512,35.460194,-25.623055,103.458206,-28.523716
4.056250,-99.348602,-2.027019,36.500244,-25.803940,103.177795,-28.991087
4.062500,-103.830849,-2.026319,37.076611,-25.881712,100.204399,-29.329393
4.068750,-106.012894,-2.026368,37.130375,-25.873491,96.940063,-29.524876
4.075000,-106.137283,-2.028386,36.681690,-25.796509,93.442947,-29.584795
4.081250,-104.538086,-2.031707,35.911266,-25.664204,89.939331,-29.513891
4.087500,-101.632347,-2.034856,35.074497,-25.485285,84.591965,-29.313089
4.093750,-97.912292,-2.037370,34.477245,-25.268805,79.125961,-28.988329
4.100000,-93.919640,-2.040143,32.538666,-25.029230,73.399460,-28.560766
4.106250,-88.036140,-2.043870,31.252632,-24.770969,67.311028,-28.069675
4.112500,-82.153282,-2.048104,30.518476,-24.485176,60.939777,-27.472195
4.118750,-76.267105,-2.052667,30.080948,-24.188042,54.462261,-26.804777
4.125000,-70.379219,-2.057827,29.647491,-23.894726,47.606865,-26.107943
4.131250,-64.490250,-2.063583,29.050297,-23.613930,40.525848,-25.412140
4.137500,-58.596691,-2.069413,28.175535,-23.348915,33.415592,-24.740175
4.143750,-52.696907,-2.074963,26.935228,-23.098783,26.488089,-24.110233
4.150000,-46.794216,-2.080426,25.245810,-22.862282,19.933577,-23.534901
4.156250,-40.891422,-2.086311,25.201265,-22.636162,13.926268,-23.014908
4.162500,-34.987186,-2.092416,25.394901,-22.409319,8.608649,-22.562862
4.168750,-29.079412,-2.098627,24.407616,-22.171467,5.709948,-22.181393
4.175000,-23.167677,-2.104923,24.101576,-21.941000,2.629212,-21.868132
4.181250,-17.252037,-2.111099,24.283020,-21.722893,1.102568,-21.616663
4.187500,-11.332063,-2.116893,24.752407,-21.522089,1.006880,-21.367579
4.193750,-5.407175,-2.122304,25.288126,-21.344889,2.402370,-21.228741
4.200000,0.521451,-2.127091,25.659615,-21.199306,3.373860,-21.173700
4.206250,6.453595,-2.130980,25.650953,-21.092678,4.595811,-21.180971
4.212500,12.388520,-2.133758,25.099224,-21.022110,7.104155,-21.206425
4.218750,18.322176,-2.135810,26.066999,-20.976954,8.656522,-21.255058
4.225000,24.252106,-2.137644,25.144617,-20.952967,9.255989,-21.327383
4.231250,30.178352,-2.139299,24.312296,-20.938702,8.755400,-21.409544
4.237500,36.102032,-2.140785,23.361017,-20.933750,6.984229,-21.478962
4.243750,42.024117,-2.142023,21.952538,-20.954638,5.861661,-21.544653
4.250000,47.944443,-2.142975,19.931721,-20.986515,3.766546,-21.605906
4.256250,53.862762,-2.143534,17.152672,-21.011463,1.222970,-21.646620
4.262500,59.776955,-2.143929,13.384242,-21.014997,-1.354783,-21.655556
4.268750,65.680107,-2.145393,8.428606,-20.986742,-3.612826,-21.622505
4.275000,71.579773,-2.148015,2.105704,-20.919230,-5.239004,-21.540791
4.281250,77.479027,-2.151276,-3.580864,-20.799870,-5.961854,-21.397467
4.287500,83.380325,-2.154945,-10.158984,-20.626234,-5.582489,-21.163532
4.293750,89.281013,-2.159742,-17.371937,-20.420727,-4.196196,-20.909876
4.300000,95.181000,-2.165916,-24.845818,-20.185270,-2.081205,-20.638618
4.306250,99.192986,-2.172276,-32.139782,-19.923029,0.963608,-20.347242
4.312500,102.943535,-2.177741,-38.935036,-19.645002,4.727433,-20.045328
4.318750,105.895264,-2.182715,-44.963333,-19.365417,8.946183,-19.746399
4.325000,107.548050,-2.188165,-50.022873,-19.105433,13.315886,-19.468021
4.331250,107.476883,-2.193983,-53.967960,-18.888000,17.525103,-19.225109
4.337500,105.348175,-2.199104,-56.702160,-18.758278,21.302782,-19.019751
4.343750,100.925934,-2.203052,-58.245834,-18.634235,24.425814,-18.796307
4.350000,94.083900,-2.206075,-57.598392,-18.579315,26.425508,-18.676481
4.356250,84.819527,-2.208030,-55.656334,-18.630484,28.964437,-18.641760
4.362500,73.255707,-2.208390,-52.219521,-18.787458,30.805246,-18.702307
4.368750,59.626606,-2.207540,-47.375595,-19.042276,32.298393,-18.885807
4.375000,44.266781,-2.206278,-41.327560,-19.382017,33.693642,-19.130722
4.381250,27.603432,-2.204634,-34.349766,-19.785517,35.044365,-19.420485
4.387500,10.133343,-2.201833,-26.764544,-20.226456,37.147808,-19.760740
4.393750,-7.612577,-2.198187,-18.983147,-20.688274,38.329983,-20.181116
4.400000,-25.094805,-2.194823,-11.464212,-21.158270,40.159443,-20.656429
4.406250,-41.780457,-2.191966,-2.409973,-21.619003,42.212955,-21.160500
4.412500,-57.171375,-2.188768,4.596975,-22.056532,44.198757,-21.674677
4.418750,-70.839203,-2.185323,11.401182,-22.465504,45.902706,-22.185673
4.425000,-82.449051,-2.182563,17.832685,-22.784540,47.240963,-22.645721
4.431250,-91.764809,-2.180830,23.719305,-23.013174,48.225834,-23.026896
4.437500,-98.658829,-2.179481,28.671734,-23.163246,48.623325,-23.325838
4.443750,-103.128845,-2.178329,32.641186,-23.241934,48.432148,-23.535522
4.450000,-105.301041,-2.178194,35.693462,-23.250999,47.778652,-23.648403
4.456250,-105.413055,-2.179593,37.957794,-23.194914,46.834133,-23.662807
4.462500,-103.799957,-2.181710,39.635117,-23.084032,45.778236,-23.585020
4.468750,-100.884132,-2.184118,41.013878,-22.937197,44.831539,-23.436735
4.475000,-97.160805,-2.187281,40.576782,-22.753771,44.285240,-23.204813
4.481250,-93.164757,-2.191249,40.489376,-22.526566,42.871632,-22.874506
4.487500,-87.269028,-2.195219,40.412556,-22.287174,42.116627,-22.492191
4.493750,-81.367546,-2.198853,40.155701,-22.057095,41.719639,-22.087662
4.500000,-75.467407,-2.203354,39.651344,-21.847559,41.463173,-21.682457
4.506250,-69.570686,-2.209408,38.874405,-21.659054,41.136501,-21.291309
4.512500,-63.668953,-2.215905,37.817810,-21.479191,40.523861,-20.923563
4.518750,-57.754707,-2.221348,36.481846,-21.256470,39.379440,-20.589140
4.525000,-51.831783,-2.225821,34.892239,-21.068478,37.389503,-20.323236
4.531250,-45.909832,-2.230578,34.138622,-20.929146,34.110538,-20.116167
4.537500,-39.989822,-2.235900,33.712849,-20.794849,30.899200,-19.943260
4.543750,-34.064743,-2.241059,32.207085,-20.653940,26.251663,-19.816513
4.550000,-28.131128,-2.245197,31.344782,-20.532669,20.502504,-19.711264
4.556250,-22.192257,-2.248475,30.834410,-20.453739,14.054072,-19.689312
4.562500,-16.251888,-2.251223,30.458834,-20.436714,7.615292,-19.765778
4.568750,-10.310540,-2.253465,29.993940,-20.506832,1.165490,-19.937965
4.575000,-4.366736,-2.254916,29.210295,-20.722025,-5.116539,-20.153988
4.581250,1.580346,-2.255179,27.903601,-21.005564,-10.909835,-20.424887
4.587500,7.528540,-2.254216,24.852171,-21.372305,-15.714452,-20.762468
4.593750,13.475174,-2.252346,22.896421,-21.844893,-19.347313,-21.159590
4.600000,19.417908,-2.249651,20.168705,-22.425882,-21.760637,-21.595816
4.606250,25.356995,-2.245935,16.546982,-23.186779,-23.097363,-22.082745
4.612500,31.291786,-2.241279,12.966525,-23.982903,-23.629038,-22.611006
4.618750,37.216991,-2.236631,8.765892,-24.852846,-23.426823,-23.157784
4.625000,43.130253,-2.232762,4.301337,-25.776892,-22.771021,-23.708273
4.631250,49.037640,-2.229110,-0.137431,-26.721064,-21.986916,-24.248678
4.637500,54.943836,-2.224564,-4.286310,-27.642054,-21.437456,-24.761795
4.643750,60.845558,-2.219705,-7.895331,-28.486341,-21.486866,-25.213034
4.650000,66.733780,-2.216086,-12.658713,-29.192905,-22.482817,-25.555080
4.656250,72.607307,-2.214515,-14.710517,-29.732534,-24.801292,-25.794252
4.662500,78.475342,-2.214514,-16.100111,-30.096663,-27.021282,-25.953255
4.668750,84.342316,-2.215755,-16.695435,-30.254702,-30.519600,-26.005184
4.675000,90.208511,-2.218524,-16.520954,-30.193590,-35.056702,-25.941906
4.681250,94.180374,-2.222567,-15.709074,-29.915770,-40.424355,-25.763958
4.687500,97.883293,-2.227337,-14.463191,-29.444742,-46.396683,-25.482746
4.693750,100.784004,-2.233048,-13.031322,-28.818113,-52.706303,-25.110226
4.700000,102.386856,-2.240685,-11.710523,-28.063883,-59.006897,-24.648626
4.706250,102.267097,-2.250113,-10.981669,-27.188503,-64.931854,-24.090277
4.712500,100.095795,-2.259409,-11.094872,-26.233156,-70.050362,-23.486101
4.718750,95.639099,-2.267440,-12.395996,-25.273432,-75.765381,-22.894873
