Anritsu VNA Frequency[GHz],S21[deg],S21[dB],S11[deg],S11[dB],S22[deg],S22[dB]
1338128108.31,2012_05_27_15:15:08,+40.692,+10.236,+55.421,+10.251,+13.888,+13.697,+13.995,+13.745,10.350463,-15.867
3.006250,99.333252,-20.192284,49.508492,-5.631392,60.316544,-4.837387
3.012500,102.131851,-19.847216,58.988758,-5.963705,31.397444,-4.902669
3.018750,101.181564,-19.983339,68.845253,-6.165751,2.248533,-4.944159
3.025000,97.127335,-20.590761,79.213531,-6.317696,-27.008686,-4.996287
3.031250,95.113441,-21.187023,89.729515,-6.452507,-56.137417,-5.092245
3.037500,97.135429,-21.163029,100.265396,-6.592967,-84.951424,-5.218462
3.043750,100.525864,-20.686161,110.598480,-6.682818,-113.351540,-5.385322
3.050000,100.949913,-20.543495,120.523994,-6.732659,-141.156189,-5.567107
3.056250,97.453896,-20.993341,130.160156,-6.703975,-168.491486,-5.713873
3.062500,94.208496,-21.709190,139.650925,-6.620708,164.553802,-5.797884
3.068750,94.795868,-22.151525,149.288696,-6.544169,137.808456,-5.777717
3.075000,98.863602,-21.935328,159.015396,-6.497488,111.138649,-5.667671
3.081250,103.531677,-21.433945,168.739548,-6.435407,84.337639,-5.500396
3.087500,104.779404,-21.248030,178.452621,-6.333726,57.447304,-5.340767
3.093750,103.179733,-21.515203,-172.450043,-6.106840,30.165964,-5.184575
3.100000,103.128822,-21.791594,-163.863937,-5.744278,2.572413,-5.017157
3.106250,106.433990,-21.453789,-155.234726,-5.296506,-25.025902,-4.837456
3.112500,112.082329,-20.469477,-146.389664,-4.843933,-52.293949,-4.688261
3.118750,115.618118,-19.296211,-137.228485,-4.464796,-78.669006,-4.605984
3.125000,113.785599,-18.647505,-128.011169,-4.219067,-104.251076,-4.641547
3.131250,108.734627,-18.511534,-119.055443,-4.059330,-129.244507,-4.799220
3.137500,104.338440,-18.500315,-110.777733,-3.986709,-154.097198,-5.026211
3.143750,101.332382,-18.412151,-103.611229,-3.948834,-179.525711,-5.233241
3.150000,99.405670,-18.221241,-97.090576,-3.955879,154.259506,-5.362104
3.156250,96.820908,-18.146765,-91.395889,-4.005754,127.107979,-5.406152
3.162500,92.841888,-18.359499,-86.097717,-4.103292,99.144249,-5.416084
3.168750,88.657280,-18.758406,-81.285713,-4.227647,70.498192,-5.400260
3.175000,85.753700,-19.199560,-76.667831,-4.284344,40.983723,-5.351625
3.181250,83.854630,-19.708408,-72.142288,-4.238716,10.618041,-5.192157
3.187500,82.425377,-20.291323,-66.894531,-4.091734,-20.019262,-4.902684
3.193750,82.004662,-20.882713,-60.507397,-3.922918,-50.130089,-4.577429
3.200000,83.302788,-21.308456,-52.442738,-3.784034,-78.759758,-4.293134
3.206250,86.089531,-21.426361,-42.976646,-3.765636,-105.833679,-4.132792
3.212500,89.423698,-21.399044,-32.288109,-3.840458,-131.787186,-4.097969
3.218750,91.550529,-21.431990,-21.159067,-3.972690,-157.100922,-4.177741
3.225000,92.778290,-21.526806,-10.039414,-4.117759,177.684937,-4.335313
3.231250,94.733704,-21.567131,0.979732,-4.268287,152.376236,-4.554144
3.237500,97.759720,-21.270685,11.546906,-4.406933,126.748291,-4.821736
3.243750,101.072861,-20.778385,21.537605,-4.587622,100.605942,-5.133107
3.250000,102.749168,-20.303144,30.618336,-4.781142,73.650185,-5.465099
3.256250,102.666008,-20.022152,38.703548,-4.989789,45.729012,-5.746865
3.262500,101.512047,-19.820595,45.633991,-5.118590,16.692045,-5.923908
3.268750,100.939751,-19.557762,51.684509,-5.116903,-12.916186,-5.959816
3.275000,100.111038,-19.358690,57.435677,-4.999607,-42.566582,-5.878977
3.281250,98.000809,-19.404718,63.612274,-4.829916,-71.692299,-5.713826
3.287500,94.884827,-19.803341,70.644463,-4.676797,-99.895348,-5.483864
3.293750,92.986420,-20.251663,78.856239,-4.583180,-127.092262,-5.230745
3.300000,94.077568,-20.376732,87.980026,-4.551810,-153.244598,-5.000562
3.306250,96.947113,-20.055563,97.743408,-4.559858,-178.513824,-4.841693
3.312500,98.695778,-19.765221,107.684601,-4.588608,156.778824,-4.776923
3.318750,97.267105,-19.923620,117.386383,-4.580403,132.043640,-4.816602
3.325000,94.887703,-20.472204,126.556145,-4.555930,106.623764,-4.893812
3.331250,94.866615,-20.890764,135.121063,-4.515507,80.209496,-4.969932
3.337500,99.007607,-20.605532,142.950058,-4.506542,52.729889,-5.019881
3.343750,104.382889,-19.651077,150.023682,-4.516391,24.584103,-5.059854
3.350000,106.034622,-19.038183,156.350586,-4.536889,-3.880548,-5.143325
3.356250,101.622917,-19.295877,161.839798,-4.511702,-32.756260,-5.261921
3.362500,96.547081,-20.035151,166.785049,-4.402937,-62.173923,-5.363067
3.368750,95.778046,-20.504448,171.567047,-4.269937,-92.040596,-5.397891
3.375000,99.467194,-20.253412,176.603638,-4.161602,-121.844559,-5.350314
3.381250,103.612175,-19.710278,-177.642532,-4.142547,-150.846390,-5.304193
3.387500,103.368965,-19.733099,-171.493301,-4.174450,-178.851837,-5.325948
3.393750,100.303459,-20.346144,-165.269760,-4.181200,153.886444,-5.438732
3.400000,99.548889,-20.855042,-159.316467,-4.085578,126.674164,-5.600188
3.406250,103.580841,-20.772985,-153.436752,-3.911838,98.863068,-5.730990
3.412500,109.453293,-20.099051,-147.399017,-3.712671,70.499870,-5.741337
3.418750,112.336235,-19.646202,-140.756149,-3.570435,41.884121,-5.691821
3.425000,111.018951,-19.783722,-133.677811,-3.506772,13.730384,-5.628523
3.431250,109.671928,-20.100668,-126.420311,-3.500760,-13.767203,-5.595308
3.437500,112.329727,-19.935951,-118.986313,-3.511843,-40.576122,-5.585143
3.443750,117.828804,-18.986713,-111.723000,-3.519341,-66.849113,-5.564832
3.450000,121.418762,-17.982374,-104.718590,-3.563126,-92.698227,-5.536694
3.456250,119.219368,-17.732389,-97.662590,-3.652320,-117.824249,-5.499128
3.462500,113.725548,-18.216463,-91.110725,-3.828257,-142.354538,-5.528794
3.468750,111.045891,-18.717300,-85.381264,-4.032685,-166.504440,-5.638001
3.475000,113.524933,-18.578123,-81.081741,-4.163686,169.259644,-5.832207
3.481250,119.247604,-17.528442,-77.844093,-4.163470,144.351059,-6.093869
3.487500,121.907074,-16.604515,-74.663841,-4.041864,118.330978,-6.378204
3.493750,117.341293,-16.708965,-71.106682,-3.877287,90.739250,-6.658502
3.500000,110.813782,-17.548712,-66.582489,-3.710568,61.641335,-6.872582
3.506250,108.716988,-18.158489,-60.856205,-3.613221,30.891493,-6.961699
3.512500,113.096573,-17.849295,-53.867058,-3.580782,-1.184841,-6.860346
3.518750,119.523598,-16.842724,-45.825974,-3.600353,-33.423313,-6.580096
3.525000,120.385040,-16.415037,-37.238747,-3.697116,-64.781807,-6.242579
3.531250,115.942795,-16.829779,-28.628042,-3.835706,-94.386734,-5.943238
3.537500,113.235390,-17.334896,-20.624851,-4.043148,-122.027519,-5.759843
3.543750,115.221687,-17.283987,-13.886116,-4.312951,-148.198746,-5.704669
3.550000,120.972954,-16.418936,-8.745227,-4.591277,-173.551056,-5.737868
3.556250,124.590485,-15.485511,-5.396412,-4.831950,161.513611,-5.871315
3.562500,122.584068,-15.222716,-3.722341,-4.931812,136.578873,-6.100963
3.568750,118.200447,-15.488510,-2.777773,-4.851650,111.537003,-6.478004
3.575000,116.213684,-15.647111,-1.517127,-4.645682,85.850067,-7.033423
3.581250,117.910698,-15.256761,1.252278,-4.450147,58.958813,-7.708333
3.587500,120.325439,-14.568591,6.363573,-4.329730,29.921385,-8.374770
3.593750,119.065216,-14.361606,13.689816,-4.336926,-1.698059,-8.820654
3.600000,114.934654,-14.729681,22.624395,-4.384494,-35.133579,-8.956814
3.606250,112.697281,-15.039974,32.535583,-4.459442,-68.470230,-8.900578
3.612500,114.603142,-14.798717,42.928722,-4.548434,-99.760170,-8.808810
3.618750,118.083954,-14.067366,53.428200,-4.671733,-128.760712,-8.780562
3.625000,118.934883,-13.499413,63.724220,-4.882165,-155.928635,-8.769834
3.631250,115.827202,-13.458982,73.665787,-5.162294,178.334488,-8.765353
3.637500,111.928085,-13.768614,82.808853,-5.551875,153.650360,-8.839346
3.643750,110.388039,-13.924470,90.712151,-5.874940,129.817734,-8.993248
3.650000,111.904961,-13.624256,98.231087,-6.053467,106.742439,-9.314863
3.656250,114.028320,-12.991270,105.401093,-6.111792,83.636826,-9.881398
3.662500,113.523727,-12.581670,113.442200,-6.061319,59.986179,-10.590872
3.668750,110.019753,-12.612141,122.353935,-5.998235,34.967560,-11.403548
3.675000,105.854424,-12.916057,131.568817,-5.919276,7.929852,-12.138231
3.681250,103.825264,-13.130272,141.245621,-5.764731,-20.457573,-12.639952
3.687500,103.814827,-13.103783,150.638260,-5.626362,-49.689945,-12.949578
3.693750,104.313705,-12.923892,159.740936,-5.421601,-78.767380,-13.037476
3.700000,103.741165,-12.837880,168.988129,-5.247549,-107.294769,-13.037293
3.706250,102.054413,-12.917246,178.015961,-5.123516,-135.462708,-13.007343
3.712500,100.445412,-13.049838,-173.022324,-5.028323,-163.041412,-12.921082
3.718750,99.810379,-13.080323,-164.629486,-4.975069,170.301392,-12.919321
3.725000,99.578590,-13.061218,-156.865067,-4.971342,144.084290,-13.035788
3.731250,98.819794,-13.094403,-149.408890,-4.996817,118.374069,-13.278360
3.737500,97.718803,-13.194088,-141.552017,-5.015079,92.831772,-13.521978
3.743750,97.044388,-13.271464,-133.337494,-5.027686,66.449997,-13.669363
3.750000,96.769699,-13.296687,-125.239685,-5.076964,38.594582,-13.698023
3.756250,96.267624,-13.294662,-117.302177,-5.205685,9.815817,-13.550985
3.762500,95.391182,-13.369581,-109.941254,-5.436624,-18.910250,-13.269983
3.768750,94.032707,-13.580770,-102.957619,-5.728957,-46.975166,-12.839295
3.775000,92.959488,-13.838694,-96.628067,-6.023079,-74.081848,-12.363388
3.781250,92.795494,-14.055299,-91.036949,-6.224900,-100.100639,-11.935187
3.787500,93.196747,-14.163802,-85.938599,-6.296718,-124.632469,-11.636118
3.793750,93.900215,-14.236300,-81.009918,-6.266874,-147.676285,-11.540260
3.800000,94.216560,-14.305389,-75.313599,-6.195540,-169.775024,-11.705707
3.806250,94.461441,-14.453535,-68.304741,-6.171642,168.311905,-12.186786
3.812500,94.760963,-14.544174,-59.933258,-6.197273,146.013107,-13.010603
3.818750,95.371895,-14.628994,-50.319118,-6.239469,121.987968,-14.161218
3.825000,96.055099,-14.705327,-39.770020,-6.267158,95.603737,-15.623576
3.831250,96.824966,-14.749155,-28.228704,-6.295588,65.796753,-17.285137
3.837500,97.805038,-14.721999,-15.605170,-6.418912,31.196150,-18.748732
3.843750,99.004158,-14.606393,-2.296364,-6.705973,-10.072180,-19.050142
3.850000,99.734161,-14.497519,11.196548,-7.201935,-55.332420,-17.982630
3.856250,99.580887,-14.532641,24.035240,-7.886125,-96.769028,-16.463442
3.862500,99.069038,-14.661600,35.412300,-8.641089,-129.621460,-15.312022
3.868750,99.195229,-14.766875,44.926090,-9.293930,-155.596649,-14.690709
3.875000,100.427391,-14.668139,52.651527,-9.745223,-177.240936,-14.663853
3.881250,101.908813,-14.464658,59.165237,-10.028340,163.597717,-15.225622
3.887500,102.506371,-14.312759,65.824242,-10.236175,145.517426,-16.381195
3.893750,101.851151,-14.339026,73.066513,-10.298307,128.403168,-18.189285
3.900000,100.918495,-14.453875,80.950821,-10.179081,112.519623,-20.803766
3.906250,100.796349,-14.552707,89.474159,-9.851174,99.896172,-24.309053
3.912500,101.215706,-14.584002,99.709297,-9.400757,97.398621,-26.692308
3.918750,101.852249,-14.628091,111.829918,-9.045395,116.859879,-24.604029
3.925000,102.308922,-14.703158,125.513794,-8.815230,135.847260,-21.844645
3.931250,103.027870,-14.702370,140.420776,-8.799895,134.088577,-20.307039
3.937500,104.488083,-14.576112,155.696960,-9.047700,123.554443,-19.992008
3.943750,105.531349,-14.424991,170.752579,-9.481486,110.206841,-20.736368
3.950000,105.927895,-14.362322,-174.812164,-10.064486,95.678307,-22.785095
3.956250,105.903366,-14.320578,-161.202866,-10.763390,81.718834,-26.551182
3.962500,106.243156,-14.226839,-148.340439,-11.581618,70.273521,-33.764854
3.968750,106.565842,-14.123095,-136.300674,-12.473878,75.389366,-34.910114
3.975000,106.458786,-14.082047,-125.178841,-13.328091,155.056076,-27.404360
3.981250,105.992668,-14.108674,-115.703156,-14.103212,164.444763,-23.438091
3.987500,105.680138,-14.188548,-107.587540,-14.640140,153.660507,-20.962097
3.993750,105.851898,-14.202466,-100.986549,-14.953207,138.559402,-19.330442
4.000000,106.619293,-14.115417,-95.942062,-15.096780,121.770020,-18.384544
4.006250,106.918022,-14.111846,-91.010780,-14.962357,103.314674,-17.996674
4.012500,106.457336,-14.248100,-85.855339,-14.718092,83.152191,-18.115713
4.018750,106.320541,-14.439163,-79.132957,-14.505626,61.208954,-18.613436
4.025000,107.388756,-14.437381,-70.660515,-14.480655,36.892071,-19.418579
4.031250,109.562218,-14.214551,-60.471348,-14.710116,10.100999,-20.405233
4.037500,111.174202,-13.946159,-49.390129,-15.142921,-19.742193,-21.411188
4.043750,111.264603,-13.844383,-38.683510,-15.613964,-53.204319,-21.999153
4.050000,110.511345,-13.915772,-29.076303,-15.807625,-89.668304,-21.929541
4.056250,110.225327,-13.964588,-19.982141,-15.634770,-125.053680,-21.464842
4.062500,111.328156,-13.850426,-9.937435,-15.319392,-156.436432,-21.209045
4.068750,112.580856,-13.629580,2.760216,-15.124364,177.582825,-21.617180
4.075000,112.944504,-13.487300,17.860397,-15.222406,155.878372,-22.940125
4.081250,112.423630,-13.472685,33.813606,-15.583868,135.706787,-25.638664
4.087500,112.099785,-13.477822,49.475842,-16.091990,116.568810,-30.335926
4.093750,112.378166,-13.402379,64.172539,-16.510689,95.060661,-40.626186
4.100000,112.941765,-13.273359,77.908890,-16.690277,56.705502,-38.859310
4.106250,113.202492,-13.180667,91.946518,-16.740049,-90.933914,-32.071434
4.112500,113.119186,-13.138779,107.617477,-16.867472,-122.820183,-28.880770
4.118750,113.065819,-13.066441,124.606628,-17.165989,-144.291931,-26.984795
4.125000,113.316040,-12.958435,141.655167,-17.651995,-161.161926,-25.693964
4.131250,113.470291,-12.826728,156.422287,-18.025419,-172.044769,-24.611086
4.137500,113.278885,-12.723359,167.012955,-17.738466,-177.320816,-23.378504
4.143750,112.765045,-12.641585,173.245728,-16.550215,-178.190277,-22.053154
4.150000,112.281624,-12.600183,178.614395,-14.975101,-178.898087,-20.632179
4.156250,111.435265,-12.646010,-173.364410,-13.440161,179.555984,-19.208109
4.162500,110.650711,-12.748960,-162.380341,-12.209642,175.049210,-17.973602
4.168750,110.417564,-12.820887,-149.406647,-11.255228,166.454727,-17.114923
4.175000,110.946075,-12.779241,-135.979935,-10.560256,153.792755,-16.727686
4.181250,111.632523,-12.645147,-121.970154,-10.023643,138.227325,-16.806736
4.187500,111.786469,-12.588462,-107.221581,-9.605566,120.768433,-17.446308
4.193750,111.095917,-12.659972,-91.874329,-9.306267,102.388283,-18.812365
4.200000,110.526077,-12.773062,-75.666306,-9.045316,83.975029,-21.212952
4.206250,110.872894,-12.779956,-59.302280,-8.914392,65.458420,-25.404890
4.212500,111.792404,-12.655465,-43.332008,-8.889934,43.914871,-33.984787
4.218750,112.265221,-12.534672,-28.064323,-9.028037,-2.685325,-30.333775
4.225000,112.130661,-12.498229,-14.337482,-9.333335,-119.324097,-23.354645
4.231250,111.583122,-12.529720,-2.513388,-9.762746,-149.520081,-19.489010
4.237500,111.417961,-12.522469,6.684582,-10.219230,-169.174896,-17.026270
4.243750,111.867783,-12.390903,13.053341,-10.444342,172.521240,-15.419553
4.250000,112.220894,-12.233541,17.440805,-10.300274,154.683731,-14.466696
4.256250,111.679398,-12.197481,21.313330,-9.856956,136.810608,-14.125824
4.262500,110.314117,-12.293953,27.016005,-9.315523,119.390694,-14.384364
4.268750,109.296913,-12.431828,35.003109,-8.806159,102.578346,-15.248338
4.275000,108.908730,-12.520165,44.561436,-8.321336,86.984230,-16.604273
4.281250,109.160698,-12.560299,55.016998,-7.839823,72.817886,-18.362976
4.287500,109.485344,-12.603387,65.639267,-7.333620,59.738644,-20.396509
4.293750,109.551285,-12.639624,76.572273,-6.857535,47.811935,-22.754305
4.300000,109.547462,-12.700317,87.934532,-6.535961,36.870750,-25.534708
4.306250,109.762085,-12.752058,99.719688,-6.429449,28.158937,-29.372126
4.312500,110.154938,-12.783757,111.678383,-6.544270,26.470667,-34.239597
4.318750,110.819649,-12.773295,123.271660,-6.798210,48.246922,-33.205528
4.325000,111.278900,-12.749310,133.848419,-7.056829,96.314133,-29.011391
4.331250,111.622070,-12.714801,143.151230,-7.154260,110.297318,-26.805815
4.337500,111.962509,-12.658476,151.682556,-7.109005,110.736832,-26.024406
4.343750,112.187393,-12.579151,160.240433,-6.983699,109.720367,-25.810493
4.350000,112.199402,-12.548415,169.312439,-6.906540,111.323936,-25.565273
4.356250,112.021370,-12.512475,178.524826,-6.899878,111.431801,-25.134127
4.362500,111.713799,-12.516041,-172.594070,-6.924931,107.056587,-24.683943
4.368750,111.411987,-12.544728,-164.660614,-6.913896,94.655457,-24.483831
4.375000,111.038231,-12.575474,-157.609955,-6.788653,74.767792,-24.328398
4.381250,110.898598,-12.605905,-150.798981,-6.618442,49.791763,-24.362234
4.387500,110.689415,-12.646865,-143.612946,-6.439689,22.495039,-24.644787
4.393750,110.394890,-12.739493,-135.739380,-6.310698,-7.633229,-25.078457
4.400000,110.182770,-12.880606,-127.560478,-6.193448,-42.666225,-24.649359
4.406250,110.246529,-12.997012,-119.319862,-6.048040,-82.445221,-22.937338
4.412500,110.728500,-13.033853,-110.983139,-5.830535,-119.645142,-20.943853
4.418750,111.364243,-13.065861,-102.043991,-5.561455,-149.074188,-19.420469
4.425000,111.529663,-13.142810,-92.336472,-5.283580,-172.404007,-18.713295
4.431250,111.648132,-13.293217,-81.499374,-5.045833,167.509216,-18.746372
4.437500,112.159409,-13.414930,-69.955940,-4.907827,149.778610,-19.521366
4.443750,113.354172,-13.430204,-57.990074,-4.917135,133.017471,-21.101484
4.450000,114.851791,-13.349968,-45.702324,-4.993416,118.268875,-23.654665
4.456250,115.949478,-13.280245,-33.577553,-5.184520,107.470535,-27.409422
4.462500,116.713181,-13.212799,-22.149216,-5.375556,107.004654,-30.583504
4.468750,117.319641,-13.112400,-11.635955,-5.583557,133.274475,-28.379416
4.475000,117.908318,-13.014578,-2.772599,-5.752279,165.477615,-24.809910
4.481250,118.180824,-12.919819,5.194430,-5.907297,171.735947,-22.379702
4.487500,118.135651,-12.888445,12.241426,-6.056725,167.302216,-20.929258
4.493750,117.760788,-12.925337,19.973940,-6.116117,158.736526,-20.254765
4.500000,117.521919,-13.008471,28.420441,-6.066015,147.609955,-20.330540
4.506250,117.770607,-13.053581,37.030804,-5.893384,136.262726,-20.971680
4.512500,118.405571,-13.075818,46.469852,-5.585986,127.926216,-21.705172
4.518750,119.110474,-13.078811,56.890045,-5.235096,125.208153,-21.788462
4.525000,119.804832,-13.069036,68.927650,-4.915600,129.579651,-20.550678
4.531250,120.587929,-13.045130,81.978020,-4.721428,134.843399,-18.838564
4.537500,121.305748,-13.038317,95.581985,-4.723371,134.205460,-17.409966
4.543750,122.071793,-13.048616,109.647842,-4.903406,128.780807,-16.574148
4.550000,123.325821,-12.917439,122.913261,-5.253303,119.606720,-16.576889
4.556250,125.262718,-12.570779,135.162415,-5.656758,107.371979,-17.737635
4.562500,126.784737,-12.142059,146.185638,-6.098956,92.768875,-20.219210
4.568750,126.849464,-11.808096,155.874252,-6.551738,81.179985,-23.344959
4.575000,125.730324,-11.632675,164.812088,-7.087801,76.411201,-26.514601
4.581250,124.198952,-11.522243,172.371399,-7.636781,81.919502,-28.398632
4.587500,122.735291,-11.466298,178.494949,-8.027775,102.867294,-26.397961
4.593750,121.183594,-11.429067,-177.108765,-8.078428,128.215393,-22.269287
4.600000,119.464981,-11.537149,-173.549103,-7.741258,136.223007,-18.672741
4.606250,117.240196,-11.910944,-169.391785,-7.278789,131.082840,-16.181055
4.612500,115.580254,-12.377329,-163.249405,-6.874436,120.125496,-14.673643
4.618750,116.076126,-12.622761,-155.176193,-6.696517,106.424751,-14.010304
4.625000,118.738182,-12.496587,-145.795166,-6.714754,91.450470,-14.063351
4.631250,121.169075,-12.194618,-135.665024,-6.866717,75.413338,-14.698421
4.637500,121.613968,-12.084292,-125.508560,-7.137141,58.249313,-15.816758
4.643750,120.402283,-12.215302,-115.028412,-7.394128,40.129772,-17.253862
4.650000,119.694527,-12.369862,-104.362679,-7.666574,20.596035,-19.137623
4.656250,120.294937,-12.388331,-93.545059,-7.899780,-0.284914,-21.381830
4.662500,121.648941,-12.294447,-82.559204,-8.094027,-22.933424,-23.580276
4.668750,122.680992,-12.039973,-72.236061,-8.411489,-52.200886,-25.248474
4.675000,123.304565,-11.909923,-62.386227,-8.692076,-100.189240,-25.378881
4.681250,121.937843,-11.979277,-52.175224,-8.956473,-153.630402,-23.942770
4.687500,121.362671,-12.005779,-42.133610,-9.171376,168.490662,-22.684177
