Anritsu VNA Frequency[GHz],S21[deg],S21[dB],S11[deg],S11[dB],S22[deg],S22[dB]
1338128756.85,2012_05_27_15:25:56,+40.663,+10.254,+55.439,+10.264,+13.893,+13.702,+14.000,+13.750,10.362333,-15.848
3.006250,-10.197828,-14.610335,49.516346,-5.630980,107.556633,-7.667335
3.012500,-10.754189,-14.804104,59.095409,-5.962112,79.671173,-7.214918
3.018750,-10.720135,-14.801697,69.040092,-6.166179,51.372982,-6.933889
3.025000,-13.632346,-15.225174,79.414474,-6.296744,22.973146,-6.785869
3.031250,-17.680059,-15.949961,89.976707,-6.426496,-5.374581,-6.742617
3.037500,-19.336767,-16.521622,100.422081,-6.570140,-33.834568,-6.784563
3.043750,-17.539217,-16.500233,110.733162,-6.661583,-62.399017,-6.875260
3.050000,-14.983319,-16.173618,120.627151,-6.719484,-91.178055,-7.003104
3.056250,-15.667081,-16.180773,130.197128,-6.692957,-120.303497,-7.115912
3.062500,-18.778585,-16.645813,139.732986,-6.622520,-149.948486,-7.189960
3.068750,-20.510174,-17.124474,149.311203,-6.548213,179.773880,-7.176476
3.075000,-18.766829,-17.072683,159.117447,-6.478701,149.160583,-7.069760
3.081250,-14.967432,-16.440079,168.980225,-6.426060,118.575096,-6.919529
3.087500,-13.280374,-15.875801,178.615463,-6.306794,88.579178,-6.806145
3.093750,-15.879756,-15.839822,-172.238235,-6.078490,59.172512,-6.758239
3.100000,-19.338682,-16.046303,-163.693741,-5.725039,30.239311,-6.757607
3.106250,-20.375076,-16.052525,-155.096680,-5.275929,1.913895,-6.775532
3.112500,-18.790285,-15.566430,-146.266281,-4.824652,-25.551165,-6.806707
3.118750,-17.283573,-14.810042,-137.122345,-4.450724,-51.795624,-6.919367
3.125000,-18.992334,-14.295480,-127.943199,-4.211294,-76.405830,-7.145528
3.131250,-23.506119,-14.139701,-118.940643,-4.057454,-99.605438,-7.488069
3.137500,-28.472956,-14.230672,-110.595726,-3.984852,-121.790932,-7.889670
3.143750,-32.487213,-14.304306,-103.419914,-3.938504,-144.026337,-8.217827
3.150000,-35.405640,-14.351794,-96.937950,-3.929170,-167.194870,-8.382776
3.156250,-38.210052,-14.356733,-91.256691,-3.966833,167.960266,-8.359580
3.162500,-41.600048,-14.488857,-85.999168,-4.072011,141.405075,-8.190460
3.168750,-45.334602,-14.805060,-81.177818,-4.203726,113.394791,-8.007298
3.175000,-48.754345,-15.180079,-76.552345,-4.273677,84.116722,-7.818810
3.181250,-51.537922,-15.598658,-72.017143,-4.233921,53.357449,-7.556954
3.187500,-53.945885,-16.080694,-66.775734,-4.081371,21.462606,-7.126991
3.193750,-55.958210,-16.702026,-60.404045,-3.908767,-10.471842,-6.581079
3.200000,-56.795181,-17.283165,-52.319221,-3.767041,-41.173309,-6.029111
3.206250,-55.900795,-17.649656,-42.799416,-3.743720,-69.840965,-5.617133
3.212500,-53.842873,-17.780151,-32.101257,-3.818178,-96.716782,-5.381175
3.218750,-52.067970,-17.862129,-21.011787,-3.956999,-122.402290,-5.304826
3.225000,-51.188271,-18.032530,-9.848122,-4.099600,-147.566727,-5.353439
3.231250,-50.180511,-18.185429,1.088835,-4.249235,-172.562653,-5.505899
3.237500,-48.378582,-18.140440,11.662470,-4.391426,162.435089,-5.734482
3.243750,-45.658680,-17.850330,21.639997,-4.561593,137.358871,-6.060499
3.250000,-43.683208,-17.448868,30.736841,-4.778769,111.961349,-6.476545
3.256250,-43.271538,-17.140493,38.864468,-4.976063,85.940346,-6.971463
3.262500,-44.175858,-16.968437,45.807598,-5.114004,58.856995,-7.450685
3.268750,-45.147209,-16.752506,51.866531,-5.107810,30.718342,-7.852355
3.275000,-45.960632,-16.505190,57.642071,-4.985230,1.523206,-8.109916
3.281250,-47.421303,-16.363909,63.784615,-4.808042,-28.043760,-8.165327
3.287500,-50.487431,-16.516804,70.817459,-4.654014,-57.795315,-8.054379
3.293750,-53.522530,-16.891613,78.940712,-4.562767,-86.905853,-7.746271
3.300000,-55.166607,-17.243006,88.062408,-4.535941,-115.244698,-7.311198
3.306250,-54.347164,-17.208881,97.810616,-4.546806,-142.429077,-6.843638
3.312500,-53.084724,-16.937670,107.801880,-4.578433,-168.476349,-6.448487
3.318750,-53.689568,-16.919519,117.554329,-4.568665,166.183426,-6.137189
3.325000,-56.745049,-17.402527,126.749054,-4.542256,140.958633,-5.936141
3.331250,-59.548550,-18.101006,135.279663,-4.494332,115.278191,-5.758054
3.337500,-58.885899,-18.487673,143.117386,-4.485093,89.153229,-5.596013
3.343750,-54.596161,-18.146009,150.218460,-4.498037,62.785175,-5.459425
3.350000,-50.095715,-17.416059,156.562698,-4.516313,36.651306,-5.397972
3.356250,-50.378880,-17.211836,162.032623,-4.492736,10.514219,-5.465734
3.362500,-54.859055,-17.721825,166.918442,-4.387937,-15.813891,-5.633943
3.368750,-58.047615,-18.458864,171.685181,-4.244549,-42.860756,-5.834362
3.375000,-56.923908,-18.739122,176.706451,-4.146365,-70.951935,-5.983962
3.381250,-52.227318,-18.320684,-177.556244,-4.122589,-99.759117,-6.052830
3.387500,-48.529259,-17.817829,-171.353348,-4.159426,-128.743881,-6.128580
3.393750,-49.425213,-17.892895,-165.112305,-4.170299,-157.530731,-6.281769
3.400000,-51.862999,-18.388735,-159.102036,-4.075134,173.699203,-6.520837
3.406250,-51.444057,-18.607992,-153.262283,-3.899186,144.263718,-6.784648
3.412500,-47.429474,-18.186180,-147.210236,-3.683256,114.149055,-6.917019
3.418750,-43.427643,-17.537785,-140.615570,-3.543339,83.513123,-6.897325
3.425000,-43.619621,-17.376436,-133.546387,-3.484053,53.524242,-6.792611
3.431250,-46.242935,-17.692600,-126.190887,-3.486621,24.927826,-6.710871
3.437500,-46.795883,-17.955906,-118.874275,-3.501929,-2.253162,-6.675052
3.443750,-43.505470,-17.535450,-111.588486,-3.502873,-28.320770,-6.658581
3.450000,-38.761150,-16.579447,-104.588234,-3.556616,-53.651585,-6.631693
3.456250,-37.720249,-15.875970,-97.586533,-3.644323,-78.437439,-6.535592
3.462500,-41.891087,-15.975414,-90.982254,-3.815786,-102.603966,-6.463640
3.468750,-46.931232,-16.548532,-85.234627,-4.023391,-126.388237,-6.448363
3.475000,-48.394981,-16.963398,-80.885162,-4.149926,-150.074814,-6.531693
3.481250,-45.096676,-16.579247,-77.644669,-4.146132,-174.286240,-6.707121
3.487500,-40.058243,-15.561666,-74.444603,-4.022447,160.496170,-6.927401
3.493750,-39.678616,-15.014041,-70.869957,-3.854139,133.787247,-7.178557
3.500000,-45.492149,-15.447961,-66.424217,-3.693756,105.322449,-7.397856
3.506250,-50.883251,-16.317883,-60.711147,-3.595077,75.108246,-7.530647
3.512500,-50.638947,-16.660234,-53.768322,-3.569584,43.107674,-7.514551
3.518750,-45.072899,-15.996498,-45.717876,-3.593048,10.290400,-7.289670
3.525000,-40.292900,-15.101779,-37.103912,-3.683027,-22.636511,-6.928405
3.531250,-41.976585,-15.015310,-28.499191,-3.829529,-53.974735,-6.530016
3.537500,-46.595493,-15.520169,-20.457302,-4.031999,-83.196884,-6.210778
3.543750,-47.964039,-15.879992,-13.732622,-4.293172,-110.445023,-6.016891
3.550000,-44.606892,-15.536176,-8.544824,-4.572896,-136.114380,-5.939277
3.556250,-39.861584,-14.649285,-5.198653,-4.806567,-160.988525,-5.931758
3.562500,-38.899940,-14.047535,-3.511785,-4.911772,174.741287,-6.018645
3.568750,-42.413624,-14.099705,-2.599988,-4.828116,150.796249,-6.222706
3.575000,-46.078430,-14.460674,-1.396942,-4.628586,126.999496,-6.614633
3.581250,-46.491444,-14.492570,1.350320,-4.430114,102.965233,-7.257449
3.587500,-43.783741,-13.942139,6.423522,-4.320423,78.028435,-8.165632
3.593750,-41.768578,-13.322366,13.762508,-4.327916,51.152893,-9.245008
3.600000,-43.672211,-13.186537,22.780373,-4.382763,21.754116,-10.309369
3.606250,-47.094540,-13.413344,32.694950,-4.455560,-10.474033,-11.198061
3.612500,-48.304237,-13.456751,43.134037,-4.530412,-44.227737,-11.793448
3.618750,-46.714310,-13.022815,53.674286,-4.641599,-77.836868,-12.178265
3.625000,-45.078178,-12.387503,63.927841,-4.860303,-110.258217,-12.336411
3.631250,-46.579121,-12.050368,73.799919,-5.132795,-141.284073,-12.184489
3.637500,-50.579315,-12.175349,82.926247,-5.521830,-170.799622,-11.825245
3.643750,-54.028851,-12.441376,90.777374,-5.867571,161.478928,-11.392382
3.650000,-55.051388,-12.496140,98.316429,-6.049887,136.182861,-11.037691
3.656250,-54.257023,-12.197196,105.547462,-6.114578,112.405304,-10.951189
3.662500,-53.867157,-11.806750,113.507477,-6.060902,89.469254,-11.049929
3.668750,-55.760624,-11.704646,122.557404,-5.983078,66.850227,-11.327389
3.675000,-59.220055,-11.920307,131.836258,-5.901435,43.456818,-11.673340
3.681250,-62.229294,-12.231759,141.470520,-5.737886,19.720234,-11.896284
3.687500,-63.009197,-12.409674,150.912003,-5.593870,-4.156362,-12.093544
3.693750,-62.481274,-12.312919,159.882477,-5.401292,-27.767529,-12.255471
3.700000,-61.887562,-12.116839,169.086533,-5.224317,-51.271851,-12.503144
3.706250,-62.577133,-12.017696,178.085953,-5.111961,-75.451912,-12.879701
3.712500,-64.249901,-12.068987,-172.954224,-5.017824,-100.053192,-13.266996
3.718750,-65.946274,-12.148020,-164.481400,-4.969656,-125.920921,-13.721554
3.725000,-67.088264,-12.210913,-156.645493,-4.966034,-152.564819,-14.203451
3.731250,-68.131714,-12.286516,-149.088837,-4.985578,-179.329514,-14.675534
3.737500,-69.151039,-12.399309,-141.285202,-4.996950,153.655701,-15.055157
3.743750,-69.933388,-12.499990,-133.118942,-4.995371,125.359123,-15.376439
3.750000,-70.673958,-12.589575,-124.900520,-5.057040,94.806122,-15.517463
3.756250,-71.236732,-12.642668,-117.102715,-5.177214,63.021168,-15.328602
3.762500,-71.852562,-12.692009,-109.867668,-5.417581,30.986465,-14.830383
3.768750,-72.855057,-12.841028,-102.925911,-5.716484,0.227458,-14.184440
3.775000,-73.998672,-13.062123,-96.520538,-6.016927,-29.024855,-13.511246
3.781250,-74.760468,-13.305906,-90.889297,-6.221841,-56.680367,-12.887592
3.787500,-75.006844,-13.503895,-85.777946,-6.291590,-82.569008,-12.363912
3.793750,-74.748573,-13.643335,-80.827606,-6.254970,-106.901871,-12.015601
3.800000,-74.280884,-13.780581,-75.049301,-6.179793,-129.799652,-11.940549
3.806250,-73.999283,-13.941020,-68.078056,-6.146990,-151.790115,-12.204110
3.812500,-73.654510,-14.077199,-59.679138,-6.168032,-173.531631,-12.856991
3.818750,-73.055252,-14.175530,-50.163944,-6.218363,164.326935,-13.938498
3.825000,-72.198570,-14.238609,-39.632965,-6.255943,141.020599,-15.495659
3.831250,-71.267982,-14.292267,-28.145147,-6.290349,115.948288,-17.648155
3.837500,-70.362778,-14.313624,-15.552061,-6.408646,88.503746,-20.576303
3.843750,-69.377403,-14.238029,-2.271863,-6.688776,56.439789,-24.378592
3.850000,-68.457413,-14.135076,11.288057,-7.191252,12.730178,-26.095865
3.856250,-68.180275,-14.094221,24.226074,-7.867470,-53.883076,-23.040146
3.862500,-68.405922,-14.140628,35.694202,-8.619955,-108.374420,-20.119881
3.868750,-68.683434,-14.253207,45.237518,-9.279542,-139.548019,-18.437305
3.875000,-68.100983,-14.239614,52.889854,-9.724946,-161.133484,-17.687553
3.881250,-67.140312,-14.125664,59.345482,-10.006354,-178.867828,-17.731916
3.887500,-66.453300,-14.008855,65.990128,-10.204907,165.815582,-18.386242
3.893750,-66.556549,-13.998690,73.180023,-10.276697,152.361221,-19.558744
3.900000,-67.229935,-14.045905,80.973778,-10.176798,141.394943,-20.912556
3.906250,-67.607834,-14.155343,89.614639,-9.865027,135.571243,-21.622820
3.912500,-67.698936,-14.246800,99.844093,-9.414424,137.265015,-20.679903
3.918750,-67.517838,-14.393799,111.970200,-9.045423,140.213791,-18.718824
3.925000,-67.062843,-14.541162,125.779282,-8.790106,136.876785,-16.903702
3.931250,-65.880836,-14.541800,140.592468,-8.764355,126.981354,-15.659348
3.937500,-64.000572,-14.356795,155.938583,-9.002291,112.947060,-15.066613
3.943750,-62.922787,-14.158111,170.926285,-9.444062,96.673386,-15.032169
3.950000,-62.923737,-14.133598,-174.608475,-10.056508,78.616341,-15.558214
3.956250,-63.414295,-14.247842,-161.035706,-10.761479,58.873493,-16.497400
3.962500,-63.123974,-14.266097,-148.205170,-11.592948,37.652565,-17.779633
3.968750,-62.059258,-14.133635,-136.216171,-12.476565,14.665399,-19.441359
3.975000,-60.941711,-13.939751,-125.065712,-13.317348,-10.018600,-21.525593
3.981250,-60.854820,-13.866543,-115.468292,-14.097345,-37.408085,-24.039324
3.987500,-61.695259,-13.938029,-107.218315,-14.618181,-70.848740,-26.442276
3.993750,-62.107700,-14.011446,-100.620590,-14.936111,-116.947655,-26.554434
4.000000,-61.635902,-13.969429,-95.606674,-15.077182,-172.679092,-24.606916
4.006250,-60.878185,-13.897884,-91.018532,-14.951775,139.787247,-22.551006
4.012500,-60.747166,-13.918743,-85.996101,-14.696716,102.193413,-21.016542
4.018750,-60.929306,-14.044978,-79.290138,-14.491159,68.681229,-19.856405
4.025000,-60.502731,-14.070194,-70.689278,-14.463095,37.491810,-18.998575
4.031250,-58.774246,-13.862723,-60.336178,-14.725863,7.298170,-18.434288
4.037500,-57.346588,-13.563111,-49.043655,-15.161478,-21.347008,-18.073929
4.043750,-57.538784,-13.465234,-38.325569,-15.629135,-49.321911,-17.944935
4.050000,-59.009899,-13.627425,-28.685808,-15.801444,-76.788826,-17.875357
4.056250,-59.836998,-13.843972,-19.577730,-15.603352,-103.250206,-17.818871
4.062500,-58.980110,-13.849085,-9.683597,-15.285763,-128.602051,-17.845041
4.068750,-56.990257,-13.635401,2.718257,-15.100623,-151.640198,-18.179472
4.075000,-55.690464,-13.399120,17.809626,-15.203153,-172.477570,-18.993080
4.081250,-55.691902,-13.303193,33.688625,-15.592371,168.063629,-20.518675
4.087500,-56.363987,-13.320677,49.455631,-16.112686,149.469467,-22.916378
4.093750,-56.526604,-13.327993,64.199951,-16.552910,130.760696,-26.323002
4.100000,-56.053604,-13.247283,78.180702,-16.731100,110.257172,-30.916500
4.106250,-55.403008,-13.108422,92.342712,-16.698666,84.525024,-36.649635
4.112500,-55.251656,-13.027608,107.919830,-16.781796,47.773605,-41.579945
4.118750,-55.427643,-12.984234,124.700569,-17.093740,-20.329620,-38.496052
4.125000,-55.568867,-12.959642,141.654205,-17.562361,-85.211388,-34.090073
4.131250,-55.485966,-12.923923,156.519485,-18.006489,-116.185448,-31.338966
4.137500,-55.032547,-12.813296,167.275711,-17.734493,-127.546204,-28.058435
4.143750,-54.554554,-12.621160,173.428925,-16.588194,-122.333946,-23.412664
4.150000,-54.364216,-12.433212,178.746964,-15.027063,-122.793106,-19.707369
4.156250,-55.205982,-12.384250,-173.071426,-13.441226,-133.370911,-17.208324
4.162500,-56.800674,-12.523547,-162.122787,-12.183130,-146.949127,-15.518921
4.168750,-57.828320,-12.708699,-149.103455,-11.215246,-162.076752,-14.427583
4.175000,-57.485180,-12.756989,-135.630905,-10.523656,-178.528091,-13.833380
4.181250,-56.080204,-12.572577,-121.735855,-9.994587,163.560455,-13.607517
4.187500,-55.156261,-12.379307,-107.138947,-9.591422,144.866058,-13.718468
4.193750,-55.640137,-12.373250,-91.846291,-9.297037,125.719437,-14.233892
4.200000,-56.888447,-12.533342,-75.691833,-9.049225,107.174263,-15.180137
4.206250,-57.174232,-12.647338,-59.186066,-8.910602,89.601990,-16.726717
4.212500,-56.240314,-12.571288,-43.110519,-8.877719,72.283493,-19.030422
4.218750,-54.846806,-12.343074,-27.729042,-8.992060,54.892879,-22.653719
4.225000,-54.303448,-12.135516,-14.004984,-9.292325,35.276215,-29.365734
4.231250,-54.824986,-12.061526,-2.217008,-9.715611,3.297006,-33.418343
4.237500,-55.690842,-12.046114,6.918456,-10.175021,-114.209000,-24.598444
4.243750,-56.218540,-11.990875,13.216015,-10.424725,-167.172043,-20.204840
4.250000,-56.413383,-11.889853,17.444632,-10.292895,167.489731,-17.690899
4.256250,-56.993626,-11.859179,21.358427,-9.862917,145.531403,-16.264708
4.262500,-58.279522,-11.964493,27.044985,-9.309247,125.459694,-15.694393
4.268750,-59.584042,-12.142234,35.074966,-8.802973,106.087471,-15.819081
4.275000,-60.006535,-12.276834,44.798470,-8.311832,87.822472,-16.440903
4.281250,-59.779415,-12.342544,55.318924,-7.816864,70.740448,-17.377213
4.287500,-59.472469,-12.395079,65.907425,-7.304424,54.315456,-18.398335
4.293750,-59.208523,-12.461218,76.844704,-6.826419,38.409515,-19.493034
4.300000,-59.112358,-12.545129,88.101120,-6.494292,23.024874,-20.595129
4.306250,-58.733006,-12.614076,99.826279,-6.400522,8.102251,-22.058640
4.312500,-58.047062,-12.613832,111.767509,-6.525482,-5.380523,-24.168478
4.318750,-57.243130,-12.568386,123.370529,-6.796062,-17.552076,-27.337275
4.325000,-56.589188,-12.486482,134.014343,-7.064877,-26.940302,-32.017273
4.331250,-56.264729,-12.394958,143.366547,-7.160023,-31.774321,-38.059361
4.337500,-56.018005,-12.328707,151.935120,-7.102372,-30.308365,-45.296787
4.343750,-56.070156,-12.273319,160.475006,-6.956795,-36.498791,-44.987961
4.350000,-56.297005,-12.240080,169.564377,-6.861906,-106.230911,-38.014297
4.356250,-56.739117,-12.238491,178.731049,-6.853016,-135.455399,-35.672077
4.362500,-57.016022,-12.238626,-172.397446,-6.895367,-150.898621,-36.501526
4.368750,-57.396069,-12.281041,-164.494583,-6.890897,-166.057861,-45.978680
4.375000,-57.752533,-12.323574,-157.546600,-6.784213,176.523773,-39.691139
4.381250,-58.030262,-12.377449,-150.728073,-6.615096,-14.630436,-31.229452
4.387500,-58.249912,-12.451646,-143.445969,-6.438464,-35.492958,-27.279600
4.393750,-58.407627,-12.555960,-135.540985,-6.302497,-56.544388,-24.696648
4.400000,-58.559460,-12.704545,-127.312233,-6.187633,-81.575027,-22.488195
4.406250,-58.274727,-12.803751,-118.983414,-6.031996,-107.336258,-20.376369
4.412500,-57.636719,-12.821557,-110.635620,-5.812295,-132.059921,-18.549623
4.418750,-57.013622,-12.836426,-101.814430,-5.530847,-154.796494,-17.192484
4.425000,-56.927330,-12.930253,-92.092758,-5.255486,-175.252518,-16.505812
4.431250,-56.986107,-13.131509,-81.402405,-5.025890,165.008438,-16.419506
4.437500,-56.422089,-13.266090,-69.840729,-4.886230,145.859222,-16.938206
4.443750,-54.923004,-13.259544,-57.889053,-4.905949,126.072044,-18.105574
4.450000,-53.080746,-13.117955,-45.584648,-4.997973,105.486496,-19.937408
4.456250,-51.916565,-13.002851,-33.363003,-5.172241,83.859749,-22.651285
4.462500,-51.569412,-12.965376,-21.948322,-5.371436,59.639542,-26.640768
4.468750,-51.485161,-12.944865,-11.382266,-5.570673,28.482813,-30.809385
4.475000,-50.868095,-12.871553,-2.440839,-5.713844,-31.185028,-27.938654
4.481250,-49.935886,-12.714189,5.457510,-5.869908,-99.168884,-23.807272
4.487500,-49.599472,-12.582143,12.446653,-6.037404,-133.514450,-21.238659
4.493750,-50.038437,-12.596305,20.078676,-6.095062,-156.267288,-19.742056
4.500000,-50.874187,-12.750094,28.574677,-6.047301,-175.334015,-19.047571
4.506250,-51.150833,-12.864050,37.131538,-5.891270,167.666718,-18.847841
4.512500,-50.307171,-12.913008,46.547070,-5.583624,153.159943,-18.806723
4.518750,-49.206169,-12.874126,57.075085,-5.233585,141.985397,-18.593233
4.525000,-48.232296,-12.822699,68.922310,-4.900920,135.100494,-17.954796
4.531250,-47.552292,-12.792144,82.057472,-4.696688,130.928879,-16.988407
4.537500,-47.020912,-12.820439,95.889328,-4.694735,126.155632,-16.063261
4.543750,-46.374474,-12.844489,109.886917,-4.877891,119.600151,-15.321158
4.550000,-44.990910,-12.747864,123.178108,-5.227309,110.094696,-15.020619
4.556250,-42.749168,-12.375427,135.327789,-5.642513,97.125580,-15.444174
4.562500,-40.729610,-11.851401,146.297394,-6.072142,79.783173,-16.738438
4.568750,-40.719780,-11.447913,156.004990,-6.549136,61.265629,-18.483973
4.575000,-42.383820,-11.271935,164.862045,-7.097958,44.317245,-20.263994
4.581250,-44.687847,-11.300335,172.554718,-7.644628,29.092102,-22.146507
4.587500,-46.624630,-11.384874,178.813583,-8.032105,14.838804,-25.045055
4.593750,-47.772648,-11.430568,-176.690674,-8.071865,2.015968,-31.490942
4.600000,-48.389297,-11.445341,-173.204620,-7.715091,-6.764739,-37.731659
4.606250,-49.366615,-11.627867,-169.070175,-7.240668,119.947700,-25.557606
4.612500,-50.559864,-11.917092,-163.062027,-6.830532,123.341393,-21.087223
4.618750,-50.711044,-12.130204,-155.009949,-6.661963,108.255600,-18.951164
4.625000,-49.205784,-12.059388,-145.689301,-6.703286,90.601501,-18.124992
4.631250,-47.341885,-11.844798,-135.531128,-6.869516,70.622078,-18.130581
4.637500,-47.139584,-11.771729,-125.379326,-7.142592,47.938164,-18.610773
4.643750,-48.123875,-11.907744,-114.902565,-7.403758,22.482452,-19.168890
4.650000,-48.711788,-12.052551,-104.132828,-7.666279,-4.516928,-19.762510
4.656250,-47.906681,-12.020928,-93.278320,-7.884997,-32.261024,-20.354485
4.662500,-46.635777,-11.891932,-82.263863,-8.054883,-58.691299,-20.684223
4.668750,-46.027760,-11.669303,-71.960960,-8.368435,-83.439186,-20.377680
4.675000,-45.831444,-11.595399,-62.130196,-8.652824,-113.199463,-20.587379
