Anritsu VNA Frequency[GHz],S21[deg],S21[dB],S11[deg],S11[dB],S22[deg],S22[dB]
1337699179.49,2012_05_22_16:06:19,+297.14,+94.838,+296.84,+296.32,+263.89,+296.44,+296.40,+296.48,242.060196,-29.215
3.001581,145.102631,-3.701795,108.743835,-7.583168,-88.615784,-15.212703
3.006586,145.644424,-3.896497,108.975342,-7.458057,-90.100494,-14.910580
3.011592,145.568405,-4.146593,112.159286,-7.579326,-90.959541,-14.386465
3.016597,146.068100,-3.709929,113.926613,-7.404368,-92.458031,-13.655536
3.021603,145.368988,-3.881199,114.536484,-8.101601,-92.923935,-12.976580
3.026609,148.307648,-4.436091,116.588402,-7.975099,-91.492310,-12.417130
3.031614,145.262100,-4.325752,115.822800,-7.626278,-88.146370,-12.061735
3.036620,143.354202,-4.259966,119.088493,-7.479998,-83.484940,-11.938807
3.041625,145.340988,-4.225056,120.692604,-6.809000,-78.827385,-11.845647
3.046631,144.466049,-4.052144,120.825439,-6.790574,-74.121460,-11.821395
3.051637,144.765121,-4.116702,122.897858,-6.530021,-70.821129,-11.737416
3.056642,144.298401,-4.251900,128.373077,-6.730325,-68.862747,-11.520340
3.061648,142.440338,-4.266030,131.980133,-7.268752,-67.181404,-11.237820
3.066653,143.119492,-4.260691,138.244766,-7.434724,-65.350433,-11.018868
3.071659,142.122543,-4.261962,135.897095,-7.322661,-62.704288,-10.931428
3.076664,141.745865,-4.373827,136.283829,-7.942910,-59.977600,-11.004993
3.081670,141.234543,-4.421972,137.310593,-7.968375,-57.226757,-11.216304
3.086676,139.121048,-4.292737,135.242859,-7.921649,-54.599922,-11.390021
3.091681,139.737411,-4.261304,138.806854,-7.229251,-53.411541,-11.337192
3.096687,139.789612,-4.349819,142.171066,-7.244429,-52.569244,-11.102777
3.101692,138.328369,-4.273441,143.469406,-6.976209,-51.354065,-10.776388
3.106698,139.551849,-3.856914,148.582382,-7.449287,-49.459789,-10.454420
3.111704,139.153839,-4.068865,152.263977,-7.604093,-46.316723,-10.377822
3.116709,140.342361,-4.114076,150.865570,-8.539104,-42.365551,-10.500008
3.121715,138.686798,-4.093819,146.568451,-8.123380,-38.067837,-10.831212
3.126720,137.825836,-4.041152,148.368805,-7.768170,-34.627720,-11.224556
3.131726,136.870544,-3.918513,146.316544,-6.910092,-31.538019,-11.547697
3.136732,135.392456,-4.096738,150.397675,-7.419192,-29.679750,-11.731499
3.141737,137.594711,-3.894675,154.004517,-7.282264,-28.101515,-11.798469
3.146743,136.961853,-3.887017,157.862640,-7.470354,-27.254368,-11.869020
3.151748,136.530975,-3.947814,160.896973,-7.727899,-26.429184,-12.127231
3.156754,134.024948,-3.499279,163.568588,-8.379168,-25.577707,-12.606599
3.161760,135.191147,-3.368449,162.598755,-9.076805,-26.347572,-13.113667
3.166765,136.042496,-4.004089,164.064697,-9.143262,-28.223860,-13.603354
3.171771,131.306335,-3.460545,161.046814,-9.256632,-31.661407,-13.620147
3.176776,131.567978,-3.412652,157.809692,-9.563556,-35.453270,-13.375844
3.181782,131.736694,-3.484502,155.206192,-9.442350,-37.841591,-12.973194
3.186788,128.481766,-3.330085,153.057892,-9.521486,-37.554520,-12.580007
3.191793,129.842361,-3.984565,154.551407,-9.496862,-35.944912,-12.303995
3.196799,129.535858,-3.536436,161.701965,-9.786078,-32.861374,-12.250869
3.201804,128.730682,-3.378438,161.417053,-10.201762,-30.357330,-12.259187
3.206810,128.656235,-3.486904,159.346680,-9.371366,-27.373014,-12.347721
3.211815,125.645302,-3.557108,162.224854,-9.538424,-24.634014,-12.374445
3.216821,126.184471,-3.548867,159.364059,-9.256419,-21.286245,-12.453399
3.221827,127.200203,-3.712039,157.468048,-8.326918,-17.231663,-12.495752
3.226832,126.018112,-3.577868,154.448181,-8.072354,-11.737851,-12.657432
3.231838,123.989716,-3.425809,159.376343,-7.705057,-6.877440,-13.006305
3.236843,123.713928,-3.193994,160.680191,-8.786160,-2.675599,-13.532575
3.241849,126.649742,-2.796864,165.760010,-8.413571,0.148145,-14.118988
3.246855,123.423233,-3.737472,173.739258,-9.227230,0.049622,-14.656971
3.251860,122.605881,-2.974391,170.575928,-9.511619,-2.386537,-14.966433
3.256866,122.282425,-3.142476,169.665283,-10.042834,-5.405486,-15.064829
3.261871,121.362289,-3.318767,163.617462,-10.092384,-7.430483,-15.113449
3.266877,120.144073,-3.095148,159.522400,-10.300920,-8.065123,-15.013729
3.271883,117.691719,-3.201165,161.865723,-9.009574,-7.383803,-14.933088
3.276888,117.706856,-3.154631,162.225815,-9.413150,-5.678618,-14.855115
3.281894,115.097679,-3.389172,164.161514,-9.627027,-4.887289,-14.868235
3.286899,115.825371,-3.728063,171.080750,-9.000834,-4.439446,-14.297375
3.291905,116.905258,-2.831879,172.709503,-9.987493,-3.942274,-14.105669
3.296911,114.371429,-3.285469,168.198975,-10.060167,-1.239279,-13.944723
3.301916,113.915947,-2.723588,168.588226,-11.107562,2.574941,-13.933552
3.306922,111.991386,-3.244375,166.498215,-10.906066,8.180408,-14.355665
3.311927,113.760269,-2.919135,170.356674,-10.044346,14.906127,-15.055943
3.316933,112.523628,-3.375854,168.222687,-9.668754,21.478329,-15.802141
3.321939,107.973251,-2.873565,165.614883,-10.198705,27.426331,-16.797375
3.326944,107.647346,-3.164143,165.233505,-9.505790,31.484264,-18.013153
3.331950,109.640495,-3.051179,168.689255,-10.845105,31.524168,-18.907934
3.336955,106.882019,-3.244956,166.874649,-11.405063,29.188877,-20.082539
3.341961,107.955376,-3.181770,167.354813,-12.285014,25.382822,-21.433002
3.346967,102.783646,-2.889035,165.093857,-12.111506,21.277016,-22.999123
3.351972,105.471687,-3.235588,155.078094,-12.675637,16.289196,-24.251945
3.356978,103.088623,-3.402292,156.495911,-11.723589,5.361878,-24.200293
3.361983,100.940285,-3.567096,162.272629,-11.387056,-5.787660,-23.060406
3.366989,100.563400,-3.266432,163.750839,-12.353399,-17.098305,-21.056496
3.371994,98.135628,-3.280565,163.438339,-12.046853,-19.146778,-19.528521
3.377000,97.169243,-3.193436,168.175064,-14.617680,-17.306618,-18.576065
3.382006,95.928932,-3.249942,165.885193,-14.296785,-13.119630,-18.058947
3.387011,92.709259,-3.258284,171.382462,-16.130404,-9.327482,-18.026377
3.392017,92.506714,-3.420638,169.504410,-17.566547,-6.826226,-18.347710
3.397022,91.786064,-3.517454,170.976074,-17.689320,-5.361117,-18.670332
3.402028,89.168152,-3.435754,175.121643,-21.209558,-6.248219,-19.062895
3.407034,89.251099,-3.991907,159.713715,-22.586063,-5.751087,-19.593193
3.412039,86.636482,-3.736771,161.685425,-31.314522,-5.383750,-19.878048
3.417045,85.756310,-4.126729,151.664383,-31.995314,-4.559560,-20.860176
3.422050,84.779533,-3.978769,-171.727768,-34.802795,-2.763660,-22.692642
3.427056,80.169167,-4.649959,-32.756985,-19.460989,-2.803975,-25.512802
3.432062,78.382607,-5.014194,-13.334076,-17.524082,-8.358927,-29.288395
3.437067,75.294640,-4.996052,-16.598326,-14.329345,-20.973379,-34.448654
3.442073,74.697441,-5.717756,-4.820063,-12.964987,-40.251083,-48.728561
3.447078,74.045059,-6.212512,-9.730397,-12.463147,-106.461624,-33.131870
3.452084,71.035713,-6.668270,-12.694419,-10.651978,132.641373,-24.771217
3.457090,68.347481,-7.600555,-22.689106,-9.227298,122.823242,-19.845263
3.462095,71.156914,-8.914216,-27.761442,-7.218605,122.589058,-16.511709
3.467101,72.192024,-9.261199,-38.418091,-5.987703,123.235649,-14.256345
3.472106,75.930786,-10.591803,-39.611576,-5.281909,123.322807,-12.685061
3.477112,81.138458,-10.843287,-41.075676,-4.741207,123.184959,-11.574194
3.482118,84.892273,-10.778518,-43.889523,-4.625864,122.012703,-10.702341
3.487123,91.762787,-10.829694,-45.648838,-4.308614,119.970566,-10.012358
3.492129,102.103600,-9.387520,-50.863255,-4.395922,118.492493,-9.407477
3.497134,107.437286,-9.802350,-52.572975,-4.171700,117.557060,-8.992149
3.502140,109.845673,-8.504808,-55.569733,-4.453763,117.538246,-8.858244
3.507145,111.547882,-7.751192,-59.941376,-4.024612,118.174850,-8.964001
3.512151,111.208687,-7.746933,-62.481976,-3.921825,118.670982,-9.270161
3.517157,111.910820,-7.254272,-66.817902,-4.469087,118.322906,-9.638199
3.522162,110.091797,-6.401232,-66.075653,-4.029190,116.694977,-9.945708
3.527168,110.127747,-6.150090,-66.187798,-4.315887,113.821358,-9.990898
3.532173,110.320930,-5.927748,-71.732491,-5.400524,110.665245,-9.919118
3.537179,108.879204,-6.063931,-72.130974,-4.879075,108.177826,-9.789138
3.542185,107.838623,-5.381917,-75.545860,-5.395122,107.181381,-9.706876
3.547190,102.229836,-5.503124,-80.288803,-4.562282,107.118439,-9.663613
3.552196,102.400734,-5.309396,-82.794258,-4.333711,107.007233,-9.642568
3.557201,101.011017,-5.282697,-82.501320,-4.184161,106.373703,-9.511923
3.562207,100.498138,-5.057133,-81.235924,-4.146493,105.411530,-9.354926
3.567213,101.835670,-5.181196,-77.448486,-4.349325,104.821587,-9.139016
3.572218,97.334145,-4.860080,-75.693130,-4.745170,105.194023,-9.030279
3.577224,99.072762,-4.534319,-73.632256,-4.758764,106.558075,-9.091524
3.582229,96.207733,-4.826744,-75.722824,-5.150726,108.662262,-9.337430
3.587235,94.397629,-5.064809,-76.106918,-5.072440,110.795273,-9.680199
3.592241,95.982826,-4.720591,-77.840309,-4.878838,111.727737,-10.031067
3.597246,91.691444,-4.207051,-76.273239,-5.510669,111.338730,-10.207555
3.602252,92.372490,-4.460017,-77.891449,-5.116269,109.876068,-10.224245
3.607257,91.614937,-4.230985,-77.485786,-5.113852,107.884911,-10.150249
3.612263,89.779388,-4.320312,-76.163124,-4.943147,106.624489,-10.045030
3.617269,89.794579,-4.287184,-73.573639,-5.321406,105.523964,-9.981845
3.622274,90.885040,-4.146901,-66.934685,-5.922369,104.934914,-9.943359
3.627280,89.187538,-4.442881,-70.832222,-6.048121,104.831894,-9.801036
3.632285,86.430367,-4.615695,-70.643593,-5.980896,104.542282,-9.550344
3.637291,84.626587,-4.170850,-74.436287,-5.672194,104.703278,-9.045276
3.642296,81.629036,-4.546257,-77.643768,-4.819664,105.841209,-8.627827
3.647302,82.765373,-4.702772,-75.308029,-4.967809,107.689194,-8.231497
3.652308,81.914345,-4.153793,-69.465317,-4.766232,110.376633,-8.188128
3.657313,80.948662,-4.349540,-66.750557,-4.768963,114.104546,-8.342613
3.662319,78.578934,-3.818432,-63.424435,-5.518207,117.609230,-8.672464
3.667324,80.368011,-4.569147,-62.342033,-5.733446,120.590378,-9.164888
3.672330,77.960358,-4.061362,-66.032288,-5.908784,123.434570,-9.601719
3.677336,78.772018,-3.839695,-66.911415,-5.910404,125.208328,-9.941157
3.682341,75.373512,-3.908949,-68.248131,-5.592444,126.699051,-10.214846
3.687347,74.520065,-3.849673,-70.516212,-5.365392,127.762047,-10.473517
3.692352,72.623657,-4.269924,-67.354149,-5.807090,128.369507,-11.029985
3.697358,73.053101,-4.546274,-67.320511,-5.265344,127.985634,-11.689864
3.702364,72.182304,-4.523241,-60.916153,-5.161542,126.108856,-12.368277
3.707369,69.703911,-4.163645,-59.712383,-5.637609,121.230888,-12.671300
3.712375,68.642426,-4.457765,-56.346592,-5.434531,114.602158,-12.522668
3.717380,68.014130,-4.608449,-53.951633,-5.881677,107.636307,-11.935811
3.722386,67.348976,-4.186536,-53.959160,-5.628707,102.689171,-11.345520
3.727392,68.107826,-4.371067,-51.107105,-5.327722,100.598335,-10.940322
3.732397,63.953823,-4.822383,-51.714798,-4.938120,100.082176,-10.625203
3.737403,63.534908,-4.823105,-49.994331,-4.673375,99.906715,-10.484808
3.742408,64.125038,-4.892377,-45.993301,-4.870484,98.954254,-10.405011
3.747414,59.394611,-4.553862,-41.953430,-4.792340,97.275490,-10.199193
3.752420,59.237816,-5.450307,-38.229263,-4.625847,95.006439,-9.944438
3.757425,61.395657,-4.559738,-36.068867,-4.448138,93.385033,-9.754612
3.762431,57.644814,-5.004987,-33.622330,-4.663915,92.207291,-9.561408
3.767436,60.450424,-5.509418,-33.559765,-4.425678,92.200401,-9.608000
3.772442,55.704666,-5.186967,-29.839378,-4.677408,91.658508,-9.610552
3.777448,58.826233,-5.033316,-29.692657,-4.181943,90.376930,-9.558581
3.782453,55.834633,-5.484604,-27.627790,-3.787014,88.246956,-9.289116
3.787459,53.309727,-5.627209,-25.164751,-3.712531,85.685913,-8.887764
3.792464,52.423553,-5.492473,-20.688599,-3.311408,83.620575,-8.463184
3.797470,52.026226,-5.740690,-16.701025,-3.447844,82.735916,-8.185637
3.802475,51.879486,-5.532160,-12.061046,-3.689460,82.816948,-8.084341
3.807481,50.743244,-5.817783,-10.284791,-3.986916,83.500427,-8.034204
3.812487,50.111855,-5.945521,-5.974564,-3.710493,84.318649,-8.124544
3.817492,49.667122,-6.136830,-6.359294,-4.069247,84.761971,-8.203737
3.822498,50.296127,-5.777514,-6.435794,-3.761470,85.025589,-8.222830
3.827503,45.306828,-5.980596,-3.126707,-3.688984,85.024361,-8.286871
3.832509,44.491718,-6.306835,-2.225124,-3.540926,85.128410,-8.408240
3.837515,47.375751,-6.261769,1.633870,-3.754197,85.343735,-8.689941
3.842520,44.764580,-6.220798,3.481528,-3.533569,84.833946,-9.054833
3.847526,43.777336,-6.494204,4.323997,-4.224875,83.475204,-9.396028
3.852531,44.511856,-6.757899,6.914692,-4.412586,80.768913,-9.555094
3.857537,41.972198,-6.828751,4.191600,-4.374730,76.996979,-9.477000
3.862543,39.671726,-6.490707,5.098016,-4.434852,73.858315,-9.164952
3.867548,33.680859,-6.860240,4.578142,-3.890005,71.156555,-8.797384
3.872554,36.176746,-6.998393,5.888700,-3.724240,70.633057,-8.602061
3.877559,35.509941,-7.886511,4.331458,-3.256073,70.387962,-8.470115
3.882565,33.206261,-7.902507,7.530265,-3.118386,70.179787,-8.507652
3.887571,35.121933,-7.595177,8.804715,-3.008919,69.751137,-8.526582
3.892576,33.523968,-7.677123,11.319508,-2.467119,68.569107,-8.487776
3.897582,32.731583,-7.911417,12.516380,-3.184721,67.195030,-8.415275
3.902587,34.201218,-8.859597,15.580155,-2.899579,66.614693,-8.451387
3.907593,25.445343,-8.052583,18.153303,-2.601517,66.553894,-8.578388
3.912599,28.201870,-8.834317,15.092894,-2.622748,66.449615,-8.900607
3.917604,29.176783,-9.147198,19.207102,-2.530964,65.613716,-9.332496
3.922610,27.522486,-8.890168,16.595556,-2.308331,62.946117,-9.653327
3.927615,25.098810,-9.957590,21.915136,-2.181888,58.170101,-9.676506
3.932621,23.712553,-10.031201,24.082121,-2.492316,51.960445,-9.366311
3.937626,22.980656,-10.301136,24.218395,-2.573677,46.120556,-8.842305
3.942632,24.384468,-10.124669,28.007248,-2.092118,42.099606,-8.352725
3.947638,25.821348,-11.488503,29.161900,-2.514691,40.173710,-7.969079
3.952643,24.942793,-11.653704,31.161102,-2.636934,39.160942,-7.760672
3.957649,25.450066,-11.724034,27.981272,-2.240000,38.523952,-7.592498
3.962654,21.828384,-12.603697,30.318361,-2.092928,37.842262,-7.412763
3.967660,27.314720,-12.248488,28.850122,-1.680127,37.304939,-7.210857
3.972666,24.802307,-13.627030,30.524611,-2.012162,37.072399,-7.056544
3.977671,23.614761,-13.029882,31.501104,-1.708418,37.557064,-7.029476
3.982677,23.702225,-14.239347,35.079082,-1.671997,38.729080,-7.221354
3.987682,32.916599,-15.420414,37.605488,-1.870393,39.678566,-7.595129
3.992688,24.073116,-16.113995,40.955212,-2.183388,39.791882,-8.107053
3.997694,32.115818,-15.220207,39.441216,-1.898303,38.280884,-8.592961
4.002699,30.742537,-17.209133,38.094765,-2.211024,34.854446,-8.904431
4.007705,28.579994,-16.375628,38.133427,-1.943064,29.984289,-8.935090
4.012710,28.532276,-17.430517,38.328918,-1.979762,24.586855,-8.851400
4.017716,37.302246,-18.078281,39.511105,-1.612486,19.940275,-8.635716
4.022722,44.237267,-18.425379,39.351814,-1.310682,15.597318,-8.422433
4.027727,51.764904,-19.396662,41.291489,-1.673728,11.811172,-8.193601
4.032733,64.793747,-18.395840,43.022106,-1.673708,8.208394,-7.812370
4.037738,70.571442,-16.265245,43.657944,-1.854126,5.206709,-7.376463
4.042744,65.361557,-17.828756,45.481567,-2.186171,3.134420,-6.953454
4.047750,66.275208,-17.601418,44.041451,-1.846924,2.425612,-6.614944
4.052755,78.555130,-17.417492,44.080822,-1.638014,2.908960,-6.448276
4.057761,72.064507,-17.183632,42.514744,-1.723580,3.680035,-6.426875
4.062766,80.889236,-16.904400,44.612057,-1.705021,4.426086,-6.489495
4.067772,89.333824,-15.997095,45.666824,-1.700000,4.742763,-6.519625
4.072777,83.266899,-16.157421,47.950565,-1.878874,4.184430,-6.482012
4.077783,87.321220,-14.341170,51.425488,-1.789923,3.534523,-6.395171
4.082789,86.838333,-14.157181,50.953094,-2.355523,3.199208,-6.257279
4.087794,89.950912,-13.538692,52.756046,-2.282152,3.340262,-6.199580
4.092800,88.655342,-13.733698,51.844337,-2.216133,4.056698,-6.202200
4.097805,95.516380,-13.529055,51.154774,-1.958236,4.889871,-6.270466
4.102811,96.727562,-13.789967,54.285023,-2.054262,5.704315,-6.327074
4.107817,95.293274,-12.974885,52.476257,-1.714295,5.987395,-6.326991
4.112822,93.172165,-12.746376,52.541176,-1.407029,6.184337,-6.227505
4.117828,98.248489,-12.618193,55.946957,-1.696195,6.945962,-6.209263
4.122833,98.629089,-12.297180,63.065136,-1.718547,8.536404,-6.231700
4.127839,98.722748,-11.529355,65.032188,-2.017790,11.017583,-6.430211
4.132845,99.990234,-10.773957,70.482361,-2.160188,13.910994,-6.838191
4.137850,90.220253,-11.070074,69.809044,-2.557883,16.602955,-7.437088
4.142856,92.985832,-11.082578,71.939659,-2.307255,18.540680,-8.097795
4.147861,92.591507,-9.970871,71.946518,-2.368804,19.017670,-8.743462
4.152867,96.219521,-10.734578,76.001099,-2.530891,18.000578,-9.291992
4.157873,96.641907,-8.698914,78.128929,-2.801099,15.952746,-9.716364
4.162878,94.397331,-9.630375,80.356361,-2.722793,13.883819,-10.172661
4.167884,95.517456,-9.592634,83.252357,-3.118313,11.702509,-10.688485
4.172889,89.782127,-8.747254,84.498917,-3.515585,9.569077,-11.197618
4.177895,90.296120,-8.383316,86.690346,-3.401588,6.288333,-11.572534
4.182901,90.092735,-8.554488,86.410431,-3.554188,1.902098,-11.594984
4.187906,89.100372,-8.746853,82.983307,-4.114050,-3.137395,-11.230721
4.192912,84.359299,-7.600189,84.879288,-3.292347,-6.993125,-10.748059
4.197917,85.358665,-8.124976,82.342560,-3.235838,-8.131924,-10.405010
4.202923,85.287666,-7.872890,84.282135,-3.047190,-7.318626,-10.316238
4.207929,82.561798,-7.960118,90.921295,-3.244915,-4.915831,-10.583730
4.212934,84.759972,-7.423476,94.616699,-3.639865,-2.450859,-11.072098
4.217940,84.221489,-7.854849,98.965736,-3.546517,-0.278248,-11.643457
4.222945,80.149330,-7.322082,101.548622,-4.335458,0.555724,-12.223928
4.227951,82.257477,-7.511868,103.065315,-4.252561,0.596822,-12.797275
4.232956,81.592018,-6.909686,105.969086,-4.847611,-0.077480,-13.264869
4.237962,80.587311,-6.987603,105.452110,-4.641119,-0.113590,-13.861116
4.242968,78.174049,-6.879631,108.068222,-4.471083,-0.141310,-14.632867
4.247973,79.150124,-6.488806,109.516205,-4.652923,-1.467969,-15.550628
4.252979,78.838776,-6.755856,113.461128,-4.661056,-4.888220,-16.267544
4.257984,75.158936,-6.398140,113.061249,-4.890867,-11.170267,-16.437654
4.262990,78.797478,-6.191626,115.681564,-4.958259,-18.234407,-16.096558
4.267996,76.273972,-6.225118,117.353485,-5.433038,-23.342373,-15.602311
4.273001,73.662491,-6.137165,120.948120,-6.346354,-24.611633,-15.193070
4.278007,72.111824,-5.966634,121.449493,-6.205041,-22.510309,-15.246315
4.283012,72.687157,-6.086116,118.675995,-5.504865,-19.791363,-15.521221
4.288018,69.436981,-5.997823,120.872375,-5.981118,-17.215830,-16.160810
4.293024,70.503456,-5.573140,121.535095,-5.501658,-15.609000,-16.945059
4.298029,68.682671,-5.914266,122.491638,-5.067975,-15.817622,-17.806665
4.303035,68.550522,-5.623373,130.442551,-5.005312,-16.738760,-18.845490
4.308040,67.396690,-5.145160,133.377197,-5.558225,-17.454018,-20.371714
4.313046,71.572426,-5.159008,140.576508,-6.167824,-18.047915,-22.569221
4.318052,66.589371,-5.489919,145.341751,-6.530421,-19.030724,-25.838093
4.323057,64.977570,-5.035887,147.974625,-8.045181,-27.197931,-27.771273
4.328063,64.146820,-5.079325,144.391129,-7.667515,-53.497688,-25.273285
4.333068,62.372074,-5.043469,147.879745,-7.466023,-84.898438,-21.899424
4.338074,61.339542,-4.927209,146.469788,-8.024460,-91.128609,-19.509350
4.343080,59.575653,-5.300556,143.751083,-7.824004,-87.148552,-18.086298
4.348085,59.794086,-5.208962,146.124985,-7.171940,-80.705482,-17.415607
4.353091,61.365791,-5.294152,148.018890,-7.928035,-74.448387,-16.989439
4.358096,55.721260,-4.994953,152.162796,-7.692933,-69.407974,-16.816914
4.363102,57.254776,-4.990088,153.732651,-8.059395,-64.280518,-16.606859
4.368107,56.966446,-5.289130,149.552170,-8.086914,-61.863728,-16.340229
4.373113,54.953159,-4.817172,149.423187,-8.450005,-58.414150,-15.860347
4.378119,56.153355,-5.341642,152.502884,-7.986685,-52.958481,-15.745824
4.383124,53.419289,-5.259917,146.573242,-7.251836,-47.174023,-15.801471
