Anritsu VNA Frequency[GHz],S21[deg],S21[dB],S11[deg],S11[dB],S22[deg],S22[dB]
1337771547.97,2012_05_23_12:12:27,+38.702,+11.244,+49.947,+11.210,+134.36,+14.882,+15.264,+15.071,13.162050,-14.792
3.001581,47.487576,-2.427252,9.521356,-5.804860,-150.923279,-10.240600
3.006586,48.392239,-2.396354,12.695336,-6.464211,-150.768127,-9.968391
3.011592,46.187477,-2.177830,11.580111,-6.567242,-150.916779,-9.598652
3.016597,47.397732,-2.366556,10.435866,-6.517676,-149.759476,-9.275510
3.021603,45.894791,-2.128724,15.465384,-6.159667,-147.238907,-8.990940
3.026609,46.715870,-2.461644,12.627069,-5.662256,-144.019501,-8.804228
3.031614,46.169815,-2.191981,14.890472,-5.809283,-139.985489,-8.751432
3.036620,43.568951,-2.179155,19.373550,-5.872624,-136.487854,-8.840884
3.041625,43.902149,-2.093501,25.494921,-6.156302,-134.000809,-8.981005
3.046631,44.071743,-2.271836,22.943029,-6.032109,-132.843018,-9.087383
3.051637,42.362293,-1.936961,26.521189,-6.732647,-132.683884,-9.210679
3.056642,42.374744,-1.863368,26.198391,-7.062627,-132.036285,-9.255434
3.061648,39.645649,-1.564216,23.702274,-6.623491,-131.196030,-9.365758
3.066653,39.613094,-2.036934,24.752274,-7.431714,-128.969284,-9.619143
3.071659,38.467216,-1.983702,23.674925,-6.966154,-126.243790,-9.981283
3.076664,38.197315,-1.607681,20.076817,-6.851045,-123.828964,-10.304519
3.081670,35.636776,-1.874411,20.870337,-6.697186,-122.201431,-10.535381
3.086676,36.152321,-1.847175,23.884676,-6.833086,-121.774826,-10.588661
3.091681,34.931255,-1.783218,22.139769,-7.218711,-121.829498,-10.466277
3.096687,36.232346,-1.535908,25.940510,-7.667748,-121.404297,-10.437918
3.101692,34.378139,-1.515218,25.046366,-7.437905,-119.698051,-10.601993
3.106698,32.351067,-1.714200,24.610598,-7.611279,-116.988403,-10.953097
3.111704,30.923395,-1.683922,25.594118,-7.760782,-113.683235,-11.515961
3.116709,30.123896,-1.911697,21.327141,-7.928479,-111.074150,-12.042377
3.121715,30.349293,-1.944168,23.705076,-7.550023,-109.741142,-12.490000
3.126720,29.360802,-1.588391,21.702620,-7.671287,-110.911659,-12.661717
3.131726,27.718779,-1.677872,25.402468,-7.867953,-112.964684,-12.521857
3.136732,25.972778,-1.427069,24.587187,-8.523745,-115.292282,-12.460952
3.141737,26.376554,-1.484901,29.424240,-9.188422,-116.835197,-12.521309
3.146743,24.411968,-1.508896,27.704166,-9.454870,-117.041458,-12.827315
3.151748,22.920732,-1.527682,21.560921,-9.909764,-116.806038,-13.156717
3.156754,21.097864,-1.675375,20.501892,-9.952054,-116.209557,-13.245505
3.161760,19.538258,-1.512508,18.254656,-8.986279,-116.051025,-12.984067
3.166765,19.843250,-1.873712,19.687777,-8.308472,-115.924957,-12.409758
3.171771,17.494938,-1.516529,25.565121,-8.620429,-114.043297,-11.752031
3.176776,18.848921,-1.631413,23.405247,-8.295140,-110.379646,-11.230182
3.181782,13.968392,-1.595905,27.387278,-9.551141,-106.596718,-11.055866
3.186788,14.276808,-1.571992,34.119865,-8.844422,-101.932098,-11.174884
3.191793,13.578450,-1.615005,28.711117,-10.005429,-97.381645,-11.654048
3.196799,13.406422,-1.685359,26.697121,-10.325275,-93.848984,-12.195668
3.201804,12.832608,-1.484842,26.493288,-10.493158,-91.033554,-12.765361
3.206810,9.823056,-1.837535,27.069607,-10.171602,-88.796890,-13.281699
3.211815,7.789712,-1.580423,29.093369,-10.691099,-87.298607,-13.928063
3.216821,6.467832,-1.390092,18.720322,-12.017951,-86.071205,-14.792491
3.221827,5.011146,-1.561041,27.127216,-15.059628,-84.548248,-16.406788
3.226832,3.583080,-1.538741,21.922451,-16.653889,-84.209702,-18.733025
3.231838,0.547235,-1.849690,20.253149,-22.287952,-87.407860,-21.796244
3.236843,-2.036366,-1.595044,16.493324,-23.851097,-97.326462,-24.664654
3.241849,-2.552321,-1.553724,-12.329203,-23.403456,-119.506409,-25.327726
3.246855,-6.218027,-1.925950,-68.961357,-19.835987,-145.360397,-25.193453
3.251860,-9.074366,-1.782367,-85.677162,-20.287521,-158.634705,-26.024931
3.256866,-11.211061,-2.076689,-109.868698,-17.251921,-162.483124,-28.038395
3.261871,-13.205548,-2.658043,-123.993752,-16.538275,-167.776947,-31.836439
3.266877,-15.720325,-2.811654,-143.336472,-13.424090,171.769333,-31.806187
3.271883,-19.437845,-3.739457,-156.783249,-10.660575,102.697372,-26.235298
3.276888,-22.917614,-4.044656,-171.449371,-7.994235,69.119904,-21.473045
3.281894,-23.888752,-4.768332,-173.365448,-5.966457,55.982567,-18.092312
3.286899,-27.955654,-5.914888,-177.349426,-5.012456,44.340290,-15.067467
3.291905,-30.079798,-7.001948,-179.043808,-4.351590,35.878990,-12.717008
3.296911,-27.647724,-8.442686,171.570129,-3.473912,29.243845,-10.862549
3.301916,-22.659740,-10.046935,167.854187,-3.009580,25.848421,-9.582511
3.306922,-16.484455,-10.481445,158.463181,-2.277348,23.314678,-8.896193
3.311927,-6.130168,-9.843980,152.095993,-1.819872,21.360271,-8.688047
3.316933,6.135881,-8.881760,146.988297,-1.550480,18.971903,-8.785884
3.321939,11.267488,-7.867460,144.186691,-1.264781,15.254110,-8.974578
3.326944,15.683121,-7.437037,138.820450,-1.179645,10.963274,-9.192690
3.331950,19.607492,-6.142708,137.446793,-1.745860,5.736887,-9.433282
3.336955,21.493080,-5.875227,133.960556,-1.856367,0.865059,-9.506256
3.341961,22.461922,-5.170496,126.952522,-1.930104,-3.294974,-9.802176
3.346967,17.337120,-4.522208,125.487999,-1.769906,-7.202373,-10.056030
3.351972,16.445078,-4.411020,121.094009,-1.762434,-11.849690,-10.161240
3.356978,16.280436,-4.101086,120.586693,-1.828207,-17.524900,-10.077350
3.361983,14.079880,-3.965541,120.201157,-2.320775,-23.212404,-9.680109
3.366989,14.109275,-3.329218,121.548370,-2.507467,-28.090277,-9.234851
3.371994,11.673030,-3.402132,117.929642,-2.512728,-30.526739,-8.948543
3.377000,10.580704,-2.721450,118.406853,-2.543244,-30.637705,-8.778065
3.382006,7.365039,-2.605310,120.216164,-2.496844,-29.952427,-8.834381
3.387011,5.424314,-2.716582,116.593430,-2.870088,-29.169260,-9.034995
3.392017,3.673401,-2.967957,115.754417,-2.722890,-28.365997,-9.167974
3.397022,2.360507,-2.521388,113.673080,-2.928848,-28.397011,-9.174388
3.402028,1.822591,-2.399934,116.241730,-2.955181,-29.121687,-8.980618
3.407034,1.217607,-2.693130,113.812889,-3.009381,-29.489599,-8.833999
3.412039,-0.876165,-2.522686,115.723938,-3.549756,-28.714211,-8.863769
3.417045,-2.475621,-2.354384,116.664940,-3.213720,-28.001242,-9.027441
3.422050,-2.927615,-1.914529,118.905006,-3.818793,-27.113058,-9.283638
3.427056,-6.314413,-2.213371,113.678017,-4.060327,-26.740479,-9.512259
3.432062,-9.391751,-2.036794,113.609909,-3.813863,-26.345961,-9.491303
3.437067,-8.290383,-2.108078,113.965012,-3.868116,-26.520681,-9.223530
3.442073,-9.165783,-2.225633,114.757744,-3.593196,-26.040146,-8.912026
3.447078,-9.835361,-2.212542,112.334145,-3.714025,-25.189777,-8.661299
3.452084,-12.691176,-2.071484,114.287186,-3.463070,-23.415976,-8.637246
3.457090,-13.482753,-2.177811,115.868431,-3.559809,-21.251553,-8.855332
3.462095,-14.287309,-1.926803,118.080368,-3.985067,-19.435190,-9.255259
3.467101,-15.921312,-2.192079,115.678642,-4.176323,-18.062737,-9.622516
3.472106,-18.363018,-2.103677,116.012337,-4.829361,-17.097605,-9.932467
3.477112,-18.583712,-2.189179,115.428284,-4.758165,-16.800978,-10.004321
3.482118,-21.882626,-2.076223,113.170288,-4.060874,-16.568792,-9.980958
3.487123,-21.251081,-2.259140,112.841225,-4.073701,-16.666105,-9.941960
3.492129,-22.734644,-2.043932,110.737923,-4.082047,-16.539612,-10.042763
3.497134,-22.283104,-2.493710,115.637901,-3.726539,-17.326704,-10.140369
3.502140,-26.347229,-2.090751,119.396072,-3.858416,-19.364071,-10.269020
3.507145,-26.485054,-2.573861,121.440720,-3.957839,-23.027081,-10.157498
3.512151,-27.854479,-2.481842,123.647980,-4.103200,-27.193863,-9.828215
3.517157,-29.491322,-2.660682,125.459808,-4.056992,-30.424168,-9.356341
3.522162,-29.157333,-2.407823,125.360519,-3.691807,-31.580730,-8.956948
3.527168,-31.204487,-2.500924,127.833061,-3.787039,-31.265408,-8.733413
3.532173,-32.091213,-2.400036,128.421829,-3.320681,-30.123878,-8.691969
3.537179,-31.650625,-2.570077,132.637177,-3.246131,-29.200443,-8.755660
3.542185,-36.315407,-2.247719,135.641220,-3.552063,-29.604935,-8.913748
3.547190,-33.912159,-2.834191,139.850891,-3.616502,-29.738211,-9.114967
3.552196,-34.929665,-2.646398,141.494339,-3.807843,-31.106499,-9.240481
3.557201,-38.305233,-2.699121,143.548492,-4.283435,-32.240917,-9.518702
3.562207,-38.162384,-2.806150,145.060532,-4.309480,-32.392921,-9.938924
3.567213,-41.214252,-2.262739,146.684265,-4.406042,-32.365818,-10.387115
3.572218,-41.924873,-2.596870,144.193970,-4.299512,-33.372589,-10.852370
3.577224,-40.685459,-2.755706,144.786591,-4.209654,-36.027752,-11.004419
3.582229,-43.450478,-2.815978,147.564072,-4.325305,-40.933365,-10.762424
3.587235,-43.417305,-2.902749,149.890518,-3.829819,-46.509090,-10.299413
3.592241,-45.941650,-2.930714,149.888138,-3.748358,-50.410896,-9.777574
3.597246,-48.614834,-3.179008,154.395004,-3.306367,-53.065964,-9.344791
3.602252,-48.167080,-3.174819,159.103256,-3.286725,-53.419262,-9.194074
3.607257,-52.361469,-2.967627,157.657562,-3.413057,-53.874306,-9.163495
3.612263,-50.154129,-3.204280,159.205887,-3.461902,-54.111919,-9.099046
3.617269,-51.178986,-3.068536,157.614182,-3.094434,-54.386402,-9.036676
3.622274,-55.550663,-3.100832,159.381699,-2.888949,-55.032547,-8.928414
3.627280,-58.568913,-3.468820,161.021042,-2.644414,-55.151184,-8.811307
3.632285,-54.818840,-3.292972,161.682877,-2.834843,-55.240345,-8.995140
3.637291,-57.360264,-3.573762,166.876846,-2.639916,-55.648449,-9.354964
3.642296,-58.829678,-3.817687,169.104248,-2.802156,-56.772224,-9.973100
3.647302,-58.683479,-4.074777,176.569931,-3.162606,-59.938686,-10.697570
3.652308,-61.621906,-4.004954,174.353424,-3.230630,-65.319664,-10.948377
3.657313,-64.186150,-3.676787,177.041748,-3.263749,-73.223289,-10.554714
3.662319,-64.412674,-4.222178,176.840515,-3.172749,-80.788269,-9.940904
3.667324,-63.582115,-4.387372,174.456711,-3.373151,-86.325439,-9.197796
3.672330,-68.750626,-4.446931,173.701340,-2.453250,-88.927750,-8.601092
3.677336,-70.898537,-4.897695,177.880280,-2.274308,-90.799767,-8.107697
3.682341,-71.904480,-5.216824,178.854584,-1.867633,-92.476364,-7.668637
3.687347,-73.031769,-4.769783,-176.215256,-1.819122,-94.091362,-7.107746
3.692352,-73.188332,-5.597326,-174.907181,-1.870847,-96.070885,-6.634578
3.697358,-74.783249,-5.625614,-174.264938,-1.788657,-96.439857,-6.199922
3.702364,-78.634979,-5.715737,-172.135620,-1.773137,-95.708778,-5.921324
3.707369,-73.648750,-6.007290,-168.822159,-1.316262,-94.107948,-5.791124
3.712375,-77.497246,-6.165842,-172.164352,-1.120561,-92.354668,-5.841423
3.717380,-80.364944,-6.343421,-173.840561,-1.088429,-90.920067,-5.986207
3.722386,-81.083221,-6.903209,-170.942566,-1.399553,-90.564865,-6.131175
3.727392,-80.970428,-6.911872,-170.147888,-1.079187,-91.371597,-6.133870
3.732397,-81.262955,-7.627769,-167.059570,-0.622726,-93.068237,-6.035128
3.737403,-78.785637,-7.695615,-164.941986,-0.460901,-94.882149,-5.924788
3.742408,-82.730263,-7.681288,-164.096634,-0.681165,-96.257462,-5.850160
3.747414,-80.329536,-7.537580,-163.161484,-0.513345,-97.342911,-5.862544
3.752420,-82.378754,-8.230413,-161.279465,-0.358769,-98.440369,-5.922498
3.757425,-84.967018,-8.474220,-160.639862,-0.511536,-99.868637,-5.928585
3.762431,-86.082298,-8.920609,-162.767487,-0.311204,-101.843239,-5.836487
3.767436,-88.461990,-9.546498,-160.669922,-0.266200,-104.083191,-5.670647
3.772442,-89.654373,-9.400028,-158.173035,-0.196199,-105.666611,-5.510716
3.777448,-87.963066,-10.546558,-155.718353,-0.158150,-106.811462,-5.414919
3.782453,-84.351509,-10.888566,-154.888840,-0.193784,-107.220032,-5.447179
3.787459,-83.439064,-11.603292,-153.201828,-0.330653,-107.638580,-5.599782
3.792464,-88.595345,-11.512011,-149.558502,-0.497219,-108.783043,-5.758244
3.797470,-81.431808,-12.195754,-150.124603,-0.436836,-110.565552,-5.806232
3.802475,-89.092033,-12.955233,-151.413025,-0.612086,-113.011986,-5.749807
3.807481,-89.346802,-13.151774,-152.895660,-0.333335,-115.442856,-5.643909
3.812487,-80.740799,-13.030945,-152.948578,0.175674,-117.426674,-5.544252
3.817492,-85.666679,-14.976022,-152.318283,-0.255246,-118.828117,-5.552050
3.822498,-77.403717,-14.262527,-151.033325,-0.159357,-119.938316,-5.613056
3.827503,-77.257004,-14.840819,-149.448151,-0.134047,-121.211586,-5.652986
3.832509,-74.039581,-15.007362,-147.592545,-0.251296,-122.784859,-5.613101
3.837515,-66.172737,-14.987829,-148.334167,-0.166953,-124.570717,-5.519603
3.842520,-60.742348,-15.917113,-145.915436,-0.216840,-125.796402,-5.427397
3.847526,-58.902592,-15.833416,-146.597824,-0.071456,-126.301369,-5.437764
3.852531,-62.844337,-15.042373,-145.579193,0.019210,-126.344666,-5.618621
3.857537,-52.101059,-16.445431,-144.975754,0.197534,-126.299950,-5.957998
3.862543,-43.846924,-15.680870,-141.127121,-0.002386,-127.005890,-6.346489
3.867548,-44.238087,-14.676419,-138.155396,-0.153821,-129.097885,-6.621115
3.872554,-39.447575,-15.272989,-134.065125,0.015737,-132.308411,-6.736718
3.877559,-39.992870,-15.048141,-135.462555,-0.363756,-136.157288,-6.653003
3.882565,-38.413513,-14.341057,-132.448868,-0.503152,-139.775452,-6.564540
3.887571,-26.832335,-12.889279,-130.649323,-0.327143,-142.473572,-6.520208
3.892576,-37.753880,-13.301207,-129.787277,-0.269064,-144.511398,-6.539735
3.897582,-29.479744,-12.362354,-130.359695,-0.320028,-146.640686,-6.562696
3.902587,-24.821857,-12.069446,-128.894730,-0.269512,-148.853500,-6.494431
3.907593,-27.478256,-11.722549,-127.701256,-0.762844,-151.142090,-6.256980
3.912599,-24.698641,-12.462914,-127.473938,-0.448307,-153.081055,-5.966888
3.917604,-22.325010,-10.889730,-124.840576,-0.095144,-153.411194,-5.728898
3.922610,-22.442289,-10.065614,-124.312309,-0.845625,-152.323013,-5.710714
3.927615,-24.317980,-10.487544,-120.381088,-0.542045,-150.394043,-5.909768
3.932621,-17.918705,-10.309954,-119.989189,-0.931092,-148.158188,-6.296064
3.937626,-23.087662,-9.473026,-118.665779,-0.912636,-146.656097,-6.789574
3.942632,-23.823154,-8.989456,-118.291603,-0.851174,-146.249420,-7.295419
3.947638,-25.880074,-9.020788,-118.840172,-0.608062,-147.396957,-7.698773
3.952643,-25.768322,-9.318558,-118.442245,-0.666365,-149.599045,-8.020326
3.957649,-23.796070,-8.961731,-116.478020,-0.471072,-151.970825,-8.300888
3.962654,-28.999811,-8.704841,-112.921371,-0.864112,-154.224655,-8.697535
3.967660,-26.368937,-7.687906,-110.111282,-0.930730,-156.992645,-9.053297
3.972666,-26.183187,-7.868438,-106.207359,-1.264684,-160.427246,-9.321588
3.977671,-27.414696,-7.506085,-106.431816,-1.793715,-164.636002,-9.213034
3.982677,-27.712231,-7.414243,-102.721748,-1.593432,-169.467224,-8.844763
3.987682,-28.799400,-6.795914,-105.511871,-1.662434,-172.878296,-8.325958
3.992688,-29.811831,-6.630257,-102.785309,-1.758060,-174.381012,-7.878289
3.997694,-31.590973,-6.898114,-105.929466,-1.572076,-173.705505,-7.636251
4.002699,-32.544823,-6.264770,-102.227402,-1.615687,-171.828857,-7.622548
4.007705,-31.917944,-6.491696,-99.273605,-1.667769,-169.453812,-7.820721
4.012710,-34.421707,-6.312607,-97.021179,-2.010166,-167.035385,-8.025621
4.017716,-35.378548,-6.030987,-95.478500,-2.268725,-164.668442,-8.254956
4.022722,-34.320629,-5.708743,-94.569153,-2.574802,-162.490540,-8.484900
4.027727,-33.081940,-5.835187,-93.323494,-2.576335,-160.082092,-8.732885
4.032733,-38.960632,-5.454022,-98.025917,-2.607391,-157.264328,-9.098519
4.037738,-38.064499,-5.227710,-95.405273,-2.500955,-154.367798,-9.671814
4.042744,-41.279587,-5.230307,-96.997528,-2.586715,-151.869949,-10.454513
4.047750,-39.892345,-4.826867,-92.399460,-2.650111,-150.291245,-11.356258
4.052755,-43.110504,-5.021081,-90.835121,-2.996394,-150.522446,-12.152110
4.057761,-43.478523,-4.839600,-88.916336,-3.109888,-151.822311,-12.711863
4.062766,-44.058689,-4.698803,-87.433426,-3.134567,-153.564072,-13.008802
4.067772,-47.211819,-4.100966,-86.328384,-3.424378,-154.799057,-13.244547
4.072777,-47.448452,-4.535110,-82.693771,-3.849522,-154.534882,-13.693405
4.077783,-49.325359,-4.657139,-84.822685,-3.784402,-152.967896,-14.445910
4.082789,-47.227570,-4.438498,-85.092224,-3.304113,-151.968430,-15.375025
4.087794,-48.793827,-4.418194,-83.389641,-3.615444,-152.439850,-16.346348
4.092800,-53.551060,-4.153981,-79.771713,-3.469906,-154.568893,-17.206343
4.097805,-54.335670,-3.858687,-77.958412,-3.245508,-158.563019,-18.026791
4.102811,-53.053986,-4.274549,-71.379044,-3.593912,-160.737411,-19.021250
4.107817,-53.804802,-4.527884,-65.541466,-3.686110,-159.728699,-20.614641
4.112822,-54.314384,-4.180129,-65.702477,-4.163085,-155.201172,-23.199749
4.117828,-58.594288,-3.750614,-59.433876,-4.811311,-150.967422,-27.376217
4.122833,-58.798805,-3.775380,-59.573490,-4.391160,-153.111771,-32.371372
4.127839,-57.819500,-3.585872,-60.147629,-5.222569,177.645065,-29.122862
4.132845,-60.492825,-3.702945,-62.253967,-4.980348,130.653625,-24.784155
4.137850,-60.768795,-3.566149,-60.377533,-5.104440,124.580200,-22.667850
4.142856,-63.704285,-3.674343,-57.143688,-4.918404,127.574257,-21.856884
4.147861,-62.133362,-3.538549,-58.052357,-5.052237,132.401001,-22.070536
4.152867,-63.209949,-4.076628,-54.199074,-4.836908,133.503952,-23.006817
4.157873,-65.585365,-3.429496,-51.369247,-4.699712,130.348938,-23.491610
4.162878,-63.846031,-3.527467,-50.428738,-4.664174,122.145561,-23.247890
4.167884,-66.398605,-3.745843,-51.345982,-5.086759,114.278000,-22.226971
4.172889,-67.121826,-3.614286,-46.568504,-4.769636,109.472321,-21.805449
4.177895,-68.247528,-3.398566,-43.508480,-4.746445,108.217827,-22.158625
4.182901,-69.799530,-3.655716,-41.977020,-4.403335,105.117493,-22.661972
4.187906,-70.068138,-3.915674,-35.852314,-4.372949,91.208794,-21.886633
4.192912,-73.541702,-3.851061,-33.082188,-4.417675,71.409821,-19.756235
4.197917,-71.108795,-3.537014,-27.102354,-4.746070,55.689095,-17.540941
4.202923,-72.528931,-3.330753,-19.406054,-4.707253,50.867245,-15.880292
4.207929,-75.892212,-3.217953,-15.022533,-5.567717,52.523239,-15.011823
4.212934,-74.172554,-3.089178,-10.895954,-5.567796,56.142727,-14.811869
4.217940,-76.044106,-3.388471,-7.658891,-5.493170,61.170097,-15.040579
4.222945,-75.052231,-2.973858,-7.813532,-5.624112,65.163391,-15.369614
4.227951,-75.901680,-3.382389,-7.569845,-5.181876,68.612259,-15.794127
4.232956,-79.490570,-3.069537,-7.534227,-5.740161,68.895027,-15.960585
4.237962,-79.836861,-3.066066,-5.967937,-5.572361,69.731522,-16.170591
4.242968,-77.233955,-3.077743,-1.074134,-5.894489,70.761528,-16.488171
4.247973,-79.595833,-3.015933,1.997337,-6.465394,71.488304,-17.180984
4.252979,-81.114693,-3.359975,1.787435,-6.348099,71.465561,-18.365229
4.257984,-83.823296,-3.274599,5.538803,-6.397721,68.072861,-19.210768
4.262990,-82.959534,-3.387671,6.625804,-6.319253,59.577190,-19.107681
4.267996,-85.481621,-3.168908,7.786928,-6.094838,47.857727,-17.723118
4.273001,-86.383278,-2.962970,9.860193,-6.023840,37.639946,-15.966150
4.278007,-85.670212,-3.158910,10.820182,-5.566409,35.375000,-14.516201
4.283012,-86.622559,-3.469809,13.617094,-5.275062,36.080334,-13.438517
4.288018,-88.224709,-3.063445,22.356037,-5.269944,38.336651,-12.803186
4.293024,-89.541275,-3.090807,26.317047,-5.239132,40.343975,-12.464984
4.298029,-90.496933,-3.303923,30.606289,-5.604617,41.555103,-12.240299
4.303035,-87.539238,-3.235704,38.124130,-5.918789,42.438816,-12.130302
4.308040,-88.506546,-2.937208,38.491634,-5.955529,45.070496,-12.159789
4.313046,-89.043671,-3.136307,40.802395,-6.764037,48.091827,-12.221723
4.318052,-89.448006,-2.942729,40.227798,-6.727222,53.456070,-12.663585
4.323057,-92.007271,-2.683180,43.608463,-6.474065,58.493599,-13.686503
4.328063,-92.407784,-3.246948,37.488583,-6.265461,62.679504,-14.960430
4.333068,-93.263214,-2.951083,43.787312,-6.760014,63.201649,-16.414465
4.338074,-97.009277,-3.269547,47.526321,-6.226682,58.779587,-17.601374
4.343080,-95.934677,-2.890521,48.691963,-6.718833,48.098690,-17.655298
4.348085,-96.165237,-2.829318,54.108990,-6.907009,34.792889,-17.023638
4.353091,-95.385437,-3.033354,56.807819,-7.698431,25.058483,-16.150513
4.358096,-97.718689,-2.723943,60.849903,-7.821477,17.345409,-15.552928
4.363102,-97.845955,-2.682624,63.116440,-7.539763,13.602925,-14.941353
