Anritsu VNA Frequency[GHz],S21[deg],S21[dB],S11[deg],S11[dB],S22[deg],S22[dB]
1338038720.38,2012_05_26_14:25:20,+298.24,+298.27,+297.93,+298.15,+297.60,+298.65,+298.13,+298.66,243.696899,-5.800
3.006250,-58.128201,-18.897976,-93.111015,-9.252798,30.153345,-10.015603
3.012500,-58.128201,-18.897976,-93.111015,-9.252798,30.153345,-10.015603
3.018750,-58.128201,-18.897976,-93.111015,-9.252798,30.153345,-10.015603
3.025000,-58.128201,-18.897976,-93.111015,-9.252798,30.153345,-10.015603
3.031250,-58.128201,-18.897976,-93.111015,-9.252798,30.153345,-10.015603
3.037500,-58.128201,-18.897976,-93.111015,-9.252798,30.153345,-10.015603
3.043750,-58.128201,-18.897976,-93.111015,-9.252798,30.153345,-10.015603
3.050000,-58.128201,-18.897976,-93.111015,-9.252798,30.153345,-10.015603
3.056250,-58.128201,-18.897976,-93.111015,-9.252798,30.153345,-10.015603
3.062500,-58.128201,-18.897976,-93.111015,-9.252798,30.153345,-10.015603
3.068750,-58.128201,-18.897976,-93.111015,-9.252798,30.153345,-10.015603
3.075000,-58.128201,-18.897976,-93.111015,-9.252798,30.153345,-10.015603
3.081250,-58.128201,-18.897976,-93.111015,-9.252798,30.153345,-10.015603
3.087500,-58.128201,-18.897976,-93.111015,-9.252798,30.153345,-10.015603
3.093750,-58.128201,-19.086250,-93.111015,-9.091222,30.153345,-9.813199
3.100000,-60.237247,-19.255737,-85.180115,-8.937217,25.925135,-9.610731
3.106250,-62.013798,-19.399164,-76.316505,-8.800651,21.362139,-9.418145
3.112500,-63.506367,-19.510824,-64.938942,-8.692031,16.515757,-9.243928
3.118750,-64.759865,-19.585127,-53.024429,-8.620054,11.446097,-9.094761
3.125000,-65.823395,-19.617500,-40.700447,-8.589355,6.219155,-8.975897
3.131250,-66.760651,-19.606554,-28.116631,-8.602923,0.897837,-8.890985
3.137500,-67.644417,-19.553591,-15.415422,-8.664880,-4.472554,-8.843394
3.143750,-68.547310,-19.462971,-2.751117,-8.776998,-9.862057,-8.834324
3.150000,-69.534279,-19.341415,9.702532,-8.937417,-15.244347,-8.861659
3.156250,-70.657967,-19.196262,21.770718,-9.141109,-20.594681,-8.919980
3.162500,-71.950523,-19.034000,33.290661,-9.378857,-25.893023,-9.001963
3.168750,-73.432686,-18.862080,44.125473,-9.637800,-31.127529,-9.099388
3.175000,-75.132805,-18.689501,54.178673,-9.903205,-36.286709,-9.203677
3.181250,-77.064774,-18.526884,63.396641,-10.159691,-41.361156,-9.306385
3.187500,-79.221901,-18.383377,71.775650,-10.392225,-46.339359,-9.399664
3.193750,-81.568283,-18.264477,79.358589,-10.586982,-51.206913,-9.476458
3.200000,-84.055656,-18.172623,84.336525,-10.731970,-55.948227,-9.531453
3.206250,-86.645332,-18.110195,88.451088,-10.817942,-60.545929,-9.561446
3.212500,-89.303513,-18.079956,91.317520,-10.838773,-64.985817,-9.565399
3.218750,-91.989548,-18.083300,92.610535,-10.791489,-69.261086,-9.543981
3.225000,-94.649513,-18.117289,92.079964,-10.676705,-73.373779,-9.499665
3.231250,-97.222664,-18.175636,89.564056,-10.498590,-77.334877,-9.436394
3.237500,-99.670105,-18.252087,84.996307,-10.264650,-81.165199,-9.359275
3.243750,-101.980225,-18.342230,78.410645,-9.985703,-84.896141,-9.273960
3.250000,-104.146957,-18.442503,69.939247,-9.675467,-88.570801,-9.185969
3.256250,-106.160507,-18.547270,59.806400,-9.349960,-92.240242,-9.100271
3.262500,-108.012108,-18.649384,48.320831,-9.027178,-95.958336,-9.020790
3.268750,-109.707603,-18.742947,35.857758,-8.725863,-99.778793,-8.950156
3.275000,-111.280823,-18.825733,22.846283,-8.464907,-103.748291,-8.889263
3.281250,-112.778877,-18.899113,9.748343,-8.263330,-107.902847,-8.837535
3.287500,-114.233635,-18.964787,-2.957278,-8.140086,-112.261177,-8.793222
3.293750,-115.666405,-19.023724,-14.790724,-8.118552,-114.927406,-8.754255
3.300000,-117.091949,-19.076780,-25.281086,-8.256686,-117.504356,-8.718390
3.306250,-118.531708,-19.126507,-33.963799,-8.477673,-119.427689,-8.683161
3.312500,-120.012489,-19.177954,-41.429298,-8.806912,-120.164215,-8.646393
3.318750,-121.553566,-19.237938,-46.554199,-9.270444,-119.234085,-8.606502
3.325000,-123.154686,-19.311453,-49.424393,-9.865653,-116.237091,-8.562837
3.331250,-124.792252,-19.401295,-50.201908,-10.576697,-110.875099,-8.515474
3.337500,-126.437988,-19.507372,-49.126259,-11.378070,-102.971527,-8.465095
3.343750,-128.070435,-19.631735,-46.499893,-12.237163,-92.483833,-8.412953
3.350000,-129.683426,-19.776764,-42.692230,-13.116192,-79.505058,-8.360756
3.356250,-131.245224,-19.944414,-38.122032,-13.974729,-64.260101,-8.310785
3.362500,-132.714890,-20.130991,-33.237728,-14.772066,-47.095901,-8.265111
3.368750,-134.046738,-20.330324,-28.494223,-15.469552,-28.463921,-8.225257
3.375000,-135.213669,-20.536772,-24.329943,-16.032707,-8.898540,-8.191817
3.381250,-136.218124,-20.748461,-18.981527,-16.433201,11.015187,-8.164408
3.387500,-137.062622,-20.963490,-14.161440,-16.650373,30.672768,-8.142133
3.393750,-137.733856,-21.176729,-9.657909,-16.672449,49.484005,-8.123751
3.400000,-138.214600,-21.380890,-5.240768,-16.497589,66.903862,-8.108015
3.406250,-138.507431,-21.569128,-0.670927,-16.133577,82.459381,-8.093414
3.412500,-138.645035,-21.739206,4.287084,-15.598304,95.772522,-8.078551
3.418750,-138.674316,-21.892708,9.853800,-14.919079,106.583160,-8.062080
3.425000,-138.626312,-22.030815,14.327516,-14.131731,114.761971,-8.043579
3.431250,-138.512070,-22.152246,19.486341,-13.279088,120.318596,-8.023675
3.437500,-138.345032,-22.255770,24.909025,-12.409826,123.397362,-8.004166
3.443750,-138.153900,-22.343426,30.165346,-11.576400,124.264954,-7.987542
3.450000,-137.981491,-22.421919,34.854313,-10.830831,123.294518,-7.976414
3.456250,-137.852982,-22.497976,38.612232,-10.228271,120.945602,-7.973352
3.462500,-137.760376,-22.574795,41.146671,-9.832398,117.741737,-7.980922
3.468750,-137.682693,-22.653639,42.441250,-9.592744,114.244446,-8.001261
3.475000,-137.600861,-22.734959,42.521729,-9.540785,108.852783,-8.035978
3.481250,-137.508270,-22.821262,41.092247,-9.637269,103.475861,-8.085747
3.487500,-137.398056,-22.915869,36.446438,-9.959674,98.118271,-8.149850
3.493750,-137.249466,-23.020535,31.612484,-10.478744,92.779861,-8.226059
3.500000,-137.016922,-23.130911,25.695112,-11.139911,87.455757,-8.310443
3.506250,-136.650726,-23.240028,18.839838,-11.895038,82.142632,-8.397943
3.512500,-136.130905,-23.340700,11.233693,-12.696408,76.841248,-8.482712
3.518750,-135.460678,-23.429947,3.091508,-13.496626,71.559235,-8.558873
3.525000,-134.660995,-23.505657,-5.366487,-14.250462,66.310822,-8.621140
3.531250,-133.731400,-23.563437,-13.910762,-14.916223,61.115967,-8.665166
3.537500,-132.667892,-23.595432,-22.318691,-15.457459,55.999283,-8.687736
3.543750,-131.487579,-23.595715,-30.382301,-15.844854,50.988361,-8.687301
3.550000,-130.236298,-23.563192,-37.919918,-16.058088,46.110168,-8.664306
3.556250,-128.981537,-23.501797,-44.788334,-16.086983,41.386433,-8.620835
3.562500,-127.773590,-23.415649,-50.884850,-15.932456,36.828472,-8.560328
3.568750,-126.633392,-23.306856,-56.152229,-15.605648,32.435169,-8.487549
3.575000,-125.580833,-23.177938,-60.573368,-15.127602,28.195110,-8.408763
3.581250,-124.645554,-23.033947,-64.177521,-14.528622,24.084631,-8.331070
3.587500,-123.865967,-22.884560,-67.035889,-13.843890,20.064426,-8.261922
3.593750,-123.260437,-22.739752,-69.238968,-13.115925,16.080887,-8.207597
3.600000,-122.806824,-22.604807,-70.930260,-12.390901,12.069715,-8.173163
3.606250,-122.456017,-22.481098,-70.099243,-11.716771,7.962714,-8.161695
3.612500,-122.168747,-22.368374,-68.287842,-11.144834,3.695806,-8.174485
3.618750,-121.918571,-22.268429,-65.210686,-10.741352,-0.785470,-8.211155
3.625000,-121.677223,-22.182394,-60.779087,-10.468127,-5.519354,-8.270097
3.631250,-121.405479,-22.107319,-55.310875,-10.342813,-10.525187,-8.348722
3.637500,-121.048477,-22.036001,-48.396309,-10.380242,-15.802570,-8.443884
3.643750,-120.568062,-21.959881,-40.291626,-10.542174,-21.332296,-8.552040
3.650000,-119.952400,-21.871519,-31.627750,-10.882732,-27.078220,-8.669784
3.656250,-119.211937,-21.765406,-23.108074,-11.350130,-32.986149,-8.794406
3.662500,-118.364578,-21.636391,-15.021307,-11.892968,-38.989952,-8.924501
3.668750,-117.430321,-21.478317,-5.838609,-12.466453,-45.014591,-9.060115
3.675000,-116.431084,-21.284479,2.474172,-13.026918,-50.986217,-9.202064
3.681250,-115.417664,-21.052488,9.883237,-13.533912,-56.836552,-9.352474
3.687500,-114.464706,-20.784863,16.383287,-13.953538,-62.510769,-9.513705
3.693750,-113.647430,-20.488268,22.017797,-14.257825,-67.970390,-9.688176
3.700000,-113.023766,-20.170359,26.881638,-14.425735,-73.198235,-9.877807
3.706250,-112.622185,-19.836782,31.115463,-14.444390,-78.193054,-10.083508
3.712500,-112.463623,-19.493830,34.900917,-14.309518,-82.967468,-10.305377
3.718750,-112.576973,-19.150192,38.451958,-14.025944,-87.550659,-10.541747
3.725000,-112.984856,-18.818113,42.003334,-13.607443,-91.985786,-10.788700
3.731250,-113.691269,-18.509027,43.901978,-13.075641,-96.325775,-11.039823
3.737500,-114.662445,-18.230310,46.005104,-12.459181,-100.624001,-11.287266
3.743750,-115.834671,-17.984936,47.992901,-11.792296,-104.926903,-11.522778
3.750000,-117.155708,-17.774700,49.548706,-11.113681,-109.269157,-11.738448
3.756250,-118.580193,-17.601507,50.358753,-10.462866,-113.676224,-11.927368
3.762500,-120.059746,-17.466030,50.119198,-9.872809,-118.161026,-12.084212
3.768750,-121.533905,-17.364967,48.539391,-9.369082,-122.722618,-12.206285
3.775000,-122.938301,-17.291210,45.392029,-8.975042,-127.345589,-12.294656
3.781250,-124.222893,-17.236612,40.550243,-8.708741,-130.116226,-12.353523
3.787500,-125.368263,-17.193954,33.902969,-8.574078,-132.641052,-12.388270
3.793750,-126.367683,-17.157877,25.383997,-8.555016,-134.388260,-12.403292
3.800000,-127.218384,-17.121588,15.014648,-8.597281,-134.861725,-12.405604
3.806250,-127.927467,-17.078289,3.035144,-8.739308,-133.615921,-12.405961
3.812500,-128.509033,-17.021917,-9.852837,-8.958793,-130.305038,-12.414955
3.818750,-129.002167,-16.950108,-23.728918,-9.210854,-124.711700,-12.440536
3.825000,-129.454956,-16.864025,-38.157715,-9.465011,-116.748459,-12.487356
3.831250,-129.910660,-16.765541,-52.634655,-9.697001,-106.450882,-12.557244
3.837500,-130.399551,-16.656649,-66.653000,-9.887465,-93.971420,-12.649348
3.843750,-130.947189,-16.539785,-79.727188,-10.022211,-79.567810,-12.760599
3.850000,-131.578400,-16.419348,-91.423767,-10.092595,-63.589359,-12.886686
3.856250,-132.322067,-16.302036,-101.378929,-10.094645,-46.456631,-13.023096
3.862500,-133.190674,-16.194649,-109.320358,-10.029167,-28.635811,-13.166217
3.868750,-134.177734,-16.102596,-115.078178,-9.901131,-10.612252,-13.315479
3.875000,-135.259674,-16.029053,-118.592987,-9.718904,7.140499,-13.474853
3.881250,-136.407608,-15.976215,-119.917137,-9.494351,24.196255,-13.654134
3.887500,-137.595047,-15.945779,-119.211060,-9.241451,40.214909,-13.862553
3.893750,-138.789719,-15.937996,-116.734657,-8.976219,54.985699,-14.098451
3.900000,-139.957581,-15.951389,-112.833870,-8.715776,66.451721,-14.375607
3.906250,-141.063843,-15.983165,-107.924347,-8.477390,76.106476,-14.715739
3.912500,-142.079102,-16.029474,-100.301910,-8.277548,83.477089,-15.136364
3.918750,-142.979889,-16.086380,-91.819603,-8.131696,88.276276,-15.649075
3.925000,-143.752945,-16.149069,-82.476814,-8.052973,90.397156,-16.259405
3.931250,-144.385788,-16.212095,-72.313194,-8.051567,89.889206,-16.967714
3.937500,-144.876221,-16.270170,-61.409481,-8.133095,86.946983,-17.770411
3.943750,-145.234589,-16.318670,-49.887081,-8.294656,81.910393,-18.658743
3.950000,-145.481766,-16.355165,-37.875187,-8.536950,75.248978,-19.616903
3.956250,-145.645737,-16.378365,-25.473650,-8.864450,67.550323,-20.622595
3.962500,-145.751663,-16.387331,-12.844744,-9.273601,57.314892,-21.645294
3.968750,-145.819901,-16.381414,-0.185735,-9.754614,46.633377,-22.654030
3.975000,-145.875198,-16.360781,12.302934,-10.292838,35.772045,-23.619562
3.981250,-145.947800,-16.327427,24.435293,-10.871114,25.023615,-24.514917
3.987500,-146.066132,-16.284731,36.054214,-11.470028,14.679078,-25.312687
3.993750,-146.252167,-16.236937,47.030148,-12.068467,5.035920,-25.987711
4.000000,-146.517044,-16.187691,57.267727,-12.644623,-3.606281,-26.520683
4.006250,-146.862411,-16.139912,66.712173,-13.176904,-10.973511,-26.899658
4.012500,-147.287109,-16.096567,75.354622,-13.644845,-16.838446,-27.119953
4.018750,-147.788620,-16.060871,81.339378,-14.031167,-21.040735,-27.185823
4.025000,-148.362137,-16.036451,86.371956,-14.322513,-23.499966,-27.110312
4.031250,-148.996796,-16.026356,90.046371,-14.510104,-24.223989,-26.916582
4.037500,-149.669418,-16.031807,92.028648,-14.590941,-23.313591,-26.639071
4.043750,-150.353485,-16.052589,92.074829,-14.567457,-20.968746,-26.317173
4.050000,-151.022888,-16.087990,90.042747,-14.447956,-17.557594,-25.949015
4.056250,-151.660156,-16.137810,85.894463,-14.246648,-13.611319,-25.554167
4.062500,-152.246994,-16.200613,79.699005,-13.982759,-9.405063,-25.168360
4.068750,-152.760376,-16.273991,71.631737,-13.680288,-5.469773,-24.813778
4.075000,-153.183945,-16.355507,61.959839,-13.367075,-2.482779,-24.517414
4.081250,-153.502106,-16.441906,51.030685,-13.073521,1.094784,-24.285807
4.087500,-153.704880,-16.529512,39.244503,-12.832199,3.415285,-24.110468
4.093750,-153.785599,-16.614450,27.033358,-12.673951,4.519421,-23.978781
4.100000,-153.746811,-16.693144,14.819470,-12.621451,4.469824,-23.877365
4.106250,-153.596970,-16.762804,2.996223,-12.684876,3.361676,-23.792885
4.112500,-153.349228,-16.821510,-8.036489,-12.870980,1.341535,-23.711662
4.118750,-153.018585,-16.867611,-17.875250,-13.182728,-1.382702,-23.618189
4.125000,-152.621307,-16.899870,-26.162518,-13.623697,-4.564715,-23.497095
4.131250,-152.173035,-16.917583,-32.592873,-14.192077,-7.928030,-23.335396
4.137500,-151.690536,-16.920269,-37.023792,-14.868297,-11.195278,-23.123558
4.143750,-151.193268,-16.908276,-39.395851,-15.626705,-14.082644,-22.860193
4.150000,-150.699432,-16.882574,-39.685951,-16.441723,-16.320204,-22.549147
4.156250,-150.227188,-16.844757,-37.935406,-17.288755,-17.661417,-22.202459
4.162500,-149.791458,-16.796576,-34.268749,-18.144165,-17.880772,-21.837597
4.168750,-149.403397,-16.740572,-28.922764,-18.981571,-16.787594,-21.479921
4.175000,-149.071716,-16.678658,-22.222239,-19.770990,-14.211685,-21.155279
4.181250,-148.797592,-16.612736,-14.527385,-20.493670,-11.842641,-20.863878
4.187500,-148.580521,-16.543924,-6.219440,-21.135853,-7.957231,-20.626966
4.193750,-148.419510,-16.473318,2.257072,-21.686172,-3.191956,-20.472912
4.200000,-148.315109,-16.402533,12.590046,-22.133904,1.926286,-20.416889
4.206250,-148.266449,-16.332798,22.942465,-22.469669,6.934771,-20.460709
4.212500,-148.270401,-16.265181,31.471727,-22.686558,11.411066,-20.591482
4.218750,-148.321686,-16.200401,39.846416,-22.780657,14.985595,-20.780504
4.225000,-148.416473,-16.139269,47.571236,-22.751583,17.363552,-20.988424
4.231250,-148.551605,-16.082550,54.180954,-22.602068,18.423077,-21.218756
4.237500,-148.720093,-16.030525,59.267452,-22.337835,18.247604,-21.458002
4.243750,-148.917587,-15.983817,62.498333,-21.967125,16.670050,-21.672247
4.250000,-149.139694,-15.943159,63.636215,-21.500233,13.740663,-21.840673
4.256250,-149.378281,-15.908370,62.556450,-20.948332,9.624622,-21.949902
4.262500,-149.626831,-15.879552,59.251022,-20.322811,4.543530,-21.994251
4.268750,-149.877563,-15.856655,53.839996,-19.633533,-1.237687,-21.977438
4.275000,-150.126724,-15.839880,46.565105,-18.891003,-7.425408,-21.911823
4.281250,-150.367111,-15.829128,37.803009,-18.110647,-13.738168,-21.816187
4.287500,-150.589081,-15.823744,28.047054,-17.316307,-19.920841,-21.713995
4.293750,-150.781693,-15.822353,17.827816,-16.528761,-25.769838,-21.633156
4.300000,-150.937515,-15.823325,7.669703,-15.765389,-31.159863,-21.604626
4.306250,-151.051208,-15.825389,-1.881884,-15.044771,-36.081543,-21.637804
4.312500,-151.122299,-15.827104,-10.299875,-14.385400,-40.640888,-21.737490
4.318750,-151.150360,-15.827051,-17.109222,-13.805600,-42.936684,-21.927269
4.325000,-151.135162,-15.823552,-21.925116,-13.321363,-44.689720,-22.220125
4.331250,-151.079910,-15.814957,-24.486872,-12.944360,-45.619080,-22.614403
4.337500,-150.990555,-15.799990,-24.670315,-12.679754,-45.544697,-23.094536
4.343750,-150.877625,-15.778119,-22.507463,-12.522750,-44.382362,-23.632023
4.350000,-150.752670,-15.748762,-18.144615,-12.464510,-42.136074,-24.185560
4.356250,-150.626144,-15.711962,-11.805553,-12.503729,-38.922211,-24.711802
4.362500,-150.510849,-15.667954,-3.835137,-12.629642,-32.872559,-25.197271
4.368750,-150.418640,-15.617453,5.274281,-12.824317,-27.569664,-25.613245
4.375000,-150.362808,-15.561803,14.963929,-13.065310,-21.103117,-25.926027
4.381250,-150.355560,-15.503112,24.656351,-13.328526,-13.896871,-26.114164
4.387500,-150.408157,-15.443837,33.771343,-13.590224,-6.464745,-26.170176
4.393750,-150.521973,-15.386188,43.922810,-13.827371,0.657350,-26.098213
4.400000,-150.697922,-15.331819,53.245903,-14.018917,6.942095,-25.913494
4.406250,-150.930725,-15.282435,61.808887,-14.146975,11.888226,-25.638741
4.412500,-151.217987,-15.239900,67.819267,-14.197945,15.015876,-25.290758
4.418750,-151.557343,-15.206797,73.028831,-14.162959,17.773674,-24.883516
4.425000,-151.938034,-15.184566,77.058510,-14.038214,18.307344,-24.447313
4.431250,-152.341766,-15.173352,79.580177,-13.825133,17.027452,-24.011520
4.437500,-152.750107,-15.172545,80.331085,-13.529701,14.366677,-23.600313
4.443750,-153.148743,-15.181455,79.128059,-13.161778,10.804383,-23.231760
4.450000,-153.528748,-15.200148,75.876038,-12.734932,6.851734,-22.915243
4.456250,-153.881088,-15.228147,70.575424,-12.265742,3.030774,-22.651480
4.462500,-154.190247,-15.263950,63.321636,-11.772552,-0.126484,-22.432827
4.468750,-154.439697,-15.304976,54.298302,-11.274145,-2.100819,-22.244659
4.475000,-154.619507,-15.348517,43.768440,-10.788047,-2.394851,-22.065439
4.481250,-154.727890,-15.392500,32.064304,-10.329653,-0.537197,-21.869120
4.487500,-154.768600,-15.435875,19.575998,-9.911831,3.940996,-21.653122
4.493750,-154.744995,-15.477102,6.733360,-9.544301,9.601957,-21.426619
4.500000,-154.655685,-15.514481,-6.013387,-9.232499,16.074335,-21.183531
4.506250,-154.503967,-15.546213,-18.214243,-8.977458,24.258446,-20.926033
4.512500,-154.295837,-15.570841,-29.437216,-8.775390,33.208801,-20.662596
4.518750,-154.038681,-15.587438,-39.282448,-8.619673,42.043850,-20.395353
4.525000,-153.741760,-15.594944,-47.390404,-8.505406,49.904034,-20.138519
4.531250,-153.415115,-15.592591,-53.461784,-8.430343,55.926945,-19.917593
4.537500,-153.069412,-15.579798,-57.314289,-8.388044,59.414982,-19.755064
4.543750,-152.717209,-15.556574,-58.886269,-8.370431,59.858364,-19.668041
4.550000,-152.374924,-15.523926,-58.214081,-8.370961,59.083210,-19.669939
4.556250,-152.055649,-15.483086,-55.436039,-8.384697,55.556507,-19.769716
4.562500,-151.767090,-15.434578,-50.801613,-8.407859,49.782589,-19.972874
4.568750,-151.515518,-15.379076,-44.660030,-8.437117,42.379227,-20.280180
4.575000,-151.312134,-15.317808,-37.444229,-8.469467,34.061314,-20.687710
4.581250,-151.166611,-15.253005,-29.648752,-8.502164,25.617235,-21.179335
4.587500,-151.089722,-15.187165,-21.804581,-8.532459,17.873558,-21.731478
4.593750,-151.084961,-15.122861,-12.283462,-8.557388,11.621604,-22.337067
4.600000,-151.149826,-15.061768,-2.968609,-8.574141,5.502717,-22.995844
4.606250,-151.279251,-15.005801,6.160248,-8.579833,1.522177,-23.692022
4.612500,-151.468506,-14.956793,15.129859,-8.571832,-0.279211,-24.406597
4.618750,-151.709839,-14.916540,23.976835,-8.548258,0.081520,-25.120993
4.625000,-151.992157,-14.886318,32.747776,-8.508617,2.501746,-25.816422
4.631250,-152.299179,-14.866150,41.493908,-8.453767,6.771071,-26.474871
4.637500,-152.612167,-14.855515,48.373112,-8.385349,12.583028,-27.079620
4.643750,-152.916168,-14.853197,55.055790,-8.306031,19.550964,-27.616268
4.650000,-153.199234,-14.858306,61.054916,-8.219190,27.226559,-28.073452
4.656250,-153.451797,-14.869537,65.916878,-8.129745,35.121574,-28.445656
4.662500,-153.664413,-14.885478,69.240234,-8.043268,42.736774,-28.736931
4.668750,-153.829376,-14.903755,70.698059,-7.965320,49.577694,-28.985716
