Anritsu VNA Frequency[GHz],S21[deg],S21[dB],S11[deg],S11[dB],S22[deg],S22[dB]
1338038882.63,2012_05_26_14:28:02,+298.24,+298.28,+297.92,+298.16,+297.61,+298.66,+298.14,+298.66,243.702881,-6.485
3.006250,23.575266,-24.960569,-93.301056,-9.162524,-13.607206,-6.857255
3.012500,23.575266,-24.960569,-93.301056,-9.162524,-13.607206,-6.857255
3.018750,23.575266,-24.960569,-93.301056,-9.162524,-13.607206,-6.857255
3.025000,23.575266,-24.960569,-93.301056,-9.162524,-13.607206,-6.857255
3.031250,23.575266,-24.960569,-93.301056,-9.162524,-13.607206,-6.857255
3.037500,23.575266,-24.960569,-93.301056,-9.162524,-13.607206,-6.857255
3.043750,23.575266,-24.960569,-93.301056,-9.162524,-13.607206,-6.857255
3.050000,23.575266,-24.960569,-93.301056,-9.162524,-13.607206,-6.857255
3.056250,23.575266,-24.960569,-93.301056,-9.162524,-13.607206,-6.857255
3.062500,23.575266,-24.960569,-93.301056,-9.162524,-13.607206,-6.857255
3.068750,23.575266,-24.960569,-93.301056,-9.162524,-13.607206,-6.857255
3.075000,23.575266,-24.960569,-93.301056,-9.162524,-13.607206,-6.857255
3.081250,23.575266,-24.960569,-93.301056,-9.162524,-13.607206,-6.857255
3.087500,23.575266,-24.960569,-93.301056,-9.162524,-13.607206,-6.857255
3.093750,23.575266,-25.168299,-93.301056,-9.003772,-13.607206,-6.873557
3.100000,23.325102,-25.351366,-85.326920,-8.854769,-18.436657,-6.885530
3.106250,23.397118,-25.502312,-76.420555,-8.725227,-23.173355,-6.893907
3.112500,23.740700,-25.615511,-65.003059,-8.625359,-27.819721,-6.899700
3.118750,24.311132,-25.684803,-53.055229,-8.563165,-32.381874,-6.904355
3.125000,25.062775,-25.703585,-40.708527,-8.542562,-36.868896,-6.909723
3.131250,25.931246,-25.668818,-28.114153,-8.566243,-41.294724,-6.917384
3.137500,26.827253,-25.583359,-15.414421,-8.638016,-45.677727,-6.928236
3.143750,27.655592,-25.454857,-2.764510,-8.759341,-50.041424,-6.942317
3.150000,28.351379,-25.290302,9.661387,-8.927859,-54.407879,-6.958632
3.156250,28.874331,-25.095201,21.686811,-9.137550,-58.796940,-6.975672
3.162500,29.191040,-24.876495,33.147549,-9.379046,-63.222797,-6.991350
3.168750,29.257860,-24.644442,43.910404,-9.638822,-67.695023,-7.003591
3.175000,29.042809,-24.412107,53.880089,-9.902303,-72.217377,-7.010404
3.181250,28.530348,-24.191790,63.007362,-10.153933,-76.790359,-7.009929
3.187500,27.754709,-23.990568,71.292145,-10.379095,-81.409729,-7.000881
3.193750,26.763165,-23.813164,78.781761,-10.564072,-86.067902,-6.982613
3.200000,25.603067,-23.662416,83.670166,-10.697339,-90.755043,-6.955163
3.206250,24.305843,-23.542290,87.703262,-10.770537,-95.458344,-6.919760
3.212500,22.913916,-23.455698,90.500702,-10.777884,-100.166649,-6.878399
3.218750,21.483767,-23.401794,91.739731,-10.717336,-104.871338,-6.833638
3.225000,20.076582,-23.374449,91.172852,-10.590046,-107.673264,-6.788471
3.231250,18.746521,-23.367281,88.638977,-10.400849,-110.192871,-6.745878
3.237500,17.515503,-23.375572,84.072403,-10.157719,-111.900726,-6.708400
3.243750,16.385080,-23.395834,77.506416,-9.871967,-112.310295,-6.678116
3.250000,15.364594,-23.424412,69.073921,-9.557634,-111.001991,-6.656494
3.256250,14.468788,-23.455048,58.994350,-9.231601,-107.643654,-6.644148
3.262500,13.702425,-23.480494,47.576069,-8.911751,-102.004936,-6.640844
3.268750,13.044372,-23.497562,35.189976,-8.616923,-93.970840,-6.645326
3.275000,12.453856,-23.506514,22.261366,-8.366338,-83.543877,-6.655826
3.281250,11.891558,-23.510231,9.249730,-8.179164,-70.845184,-6.670140
3.287500,11.342116,-23.509354,-3.369421,-8.075230,-56.106041,-6.686027
3.293750,10.799677,-23.503229,-15.114456,-8.081530,-39.656528,-6.701644
3.300000,10.255114,-23.491932,-25.505125,-8.288508,-21.910934,-6.715469
3.306250,9.682742,-23.478895,-33.685383,-8.527062,-3.348259,-6.726484
3.312500,9.053294,-23.470366,-41.038750,-8.897879,15.512300,-6.734328
3.318750,8.359276,-23.470556,-45.924477,-9.414979,34.135311,-6.739305
3.325000,7.623230,-23.480736,-48.453957,-10.069919,51.996235,-6.742030
3.331250,6.866580,-23.500635,-48.811764,-10.842048,68.606628,-6.743626
3.337500,6.097862,-23.531420,-47.259174,-11.701686,83.537399,-6.745322
3.343750,5.311267,-23.577410,-44.122517,-12.612764,96.441399,-6.748546
3.350000,4.514030,-23.641972,-39.801365,-13.534913,107.069687,-6.754657
3.356250,3.736666,-23.724245,-34.742088,-14.425655,115.284225,-6.764542
3.362500,3.027682,-23.819992,-29.411882,-15.241810,121.063950,-6.778540
3.368750,2.405940,-23.926064,-24.297758,-15.943904,124.507706,-6.796047
3.375000,1.875356,-24.042467,-19.854029,-16.497608,125.831306,-6.815976
3.381250,1.428635,-24.170135,-14.329797,-16.874889,125.360031,-6.837008
3.387500,1.089215,-24.306242,-9.447735,-17.056311,123.509964,-6.857709
3.393750,0.888630,-24.444960,-4.999501,-17.032017,120.769661,-6.876664
3.400000,0.842362,-24.579571,-0.752027,-16.802376,117.673004,-6.892496
3.406250,0.943562,-24.706070,3.541766,-16.378162,112.605530,-6.903810
3.412500,1.158636,-24.825750,8.132913,-15.780250,107.475182,-6.909741
3.418750,1.464310,-24.938440,13.260592,-15.039250,102.301308,-6.910163
3.425000,1.865273,-25.041468,17.249640,-14.194073,97.107994,-6.905965
3.431250,2.362582,-25.130672,21.902063,-13.290710,91.920807,-6.898797
3.437500,2.936081,-25.203241,26.829145,-12.381175,86.763321,-6.891060
3.443750,3.547281,-25.263021,31.588089,-11.516931,81.652679,-6.885199
3.450000,4.147757,-25.316803,35.889874,-10.751843,76.600563,-6.883761
3.456250,4.727919,-25.368441,39.355877,-10.137137,71.611870,-6.889115
3.462500,5.305765,-25.417749,41.715744,-9.721453,66.686028,-6.903344
3.468750,5.895126,-25.464840,42.897537,-9.486995,61.818237,-6.928052
3.475000,6.491416,-25.511749,42.945255,-9.436210,56.996735,-6.964181
3.481250,7.083223,-25.563496,41.616268,-9.485589,52.205925,-7.011935
3.487500,7.679453,-25.624384,36.742310,-9.809347,47.426807,-7.070262
3.493750,8.320568,-25.692791,32.096298,-10.308568,42.640163,-7.137152
3.500000,9.056123,-25.763145,26.324474,-10.940717,37.831188,-7.209600
3.506250,9.918701,-25.828974,19.542604,-11.659131,32.991596,-7.284475
3.512500,10.911115,-25.887167,11.966343,-12.420081,28.119049,-7.358604
3.518750,12.024878,-25.935814,3.803954,-13.179528,23.217293,-7.429120
3.525000,13.267372,-25.969652,-4.722527,-13.895072,18.293385,-7.493584
3.531250,14.654675,-25.980545,-13.378407,-14.527491,13.357510,-7.550125
3.537500,16.178722,-25.960440,-21.933308,-15.041922,8.420954,-7.597674
3.543750,17.795361,-25.905798,-30.177572,-15.411365,3.495658,-7.635879
3.550000,19.446119,-25.818687,-37.910183,-15.616355,-1.408770,-7.665295
3.556250,21.064508,-25.702946,-44.980328,-15.647069,-6.287715,-7.686937
3.562500,22.629835,-25.559048,-51.273785,-15.505074,-11.142247,-7.702621
3.568750,24.109852,-25.388309,-56.728325,-15.199573,-15.979826,-7.714293
3.575000,25.463428,-25.195702,-61.302925,-14.751429,-20.813921,-7.724298
3.581250,26.638262,-24.991682,-65.023994,-14.188672,-25.663212,-7.734703
3.587500,27.590034,-24.789833,-67.949478,-13.545259,-30.549707,-7.747334
3.593750,28.329739,-24.598181,-70.171669,-12.860692,-35.496326,-7.763612
3.600000,28.901592,-24.421211,-71.824532,-12.178646,-40.523705,-7.784446
3.606250,29.350397,-24.260592,-70.900169,-11.543673,-45.648560,-7.810259
3.612500,29.711834,-24.118797,-68.936958,-11.004139,-50.879833,-7.841303
3.618750,30.020449,-23.999935,-65.647942,-10.623056,-56.218163,-7.877765
3.625000,30.316286,-23.903875,-60.840874,-10.377482,-61.655010,-7.920074
3.631250,30.674709,-23.824059,-55.130646,-10.263834,-67.175285,-7.968833
3.637500,31.162247,-23.750519,-47.935749,-10.308809,-72.758781,-8.024479
3.643750,31.813259,-23.673996,-39.547112,-10.493307,-78.380547,-8.087605
3.650000,32.631969,-23.586760,-30.545158,-10.836655,-84.014954,-8.159271
3.656250,33.610817,-23.482296,-21.654385,-11.306490,-89.633827,-8.240929
3.662500,34.740948,-23.349669,-13.243962,-11.856026,-95.211296,-8.334369
3.668750,35.981861,-23.184603,-3.807223,-12.439257,-100.726509,-8.441427
3.675000,37.352020,-22.977724,4.714675,-13.013495,-106.164864,-8.563745
3.681250,38.744629,-22.726789,12.267061,-13.534818,-109.626480,-8.702431
3.687500,40.060772,-22.437866,18.873146,-13.970919,-112.737190,-8.857630
3.693750,41.229168,-22.116383,24.548010,-14.292758,-114.974876,-9.028357
3.700000,42.197464,-21.768780,29.391529,-14.478099,-115.861969,-9.212775
3.706250,42.931850,-21.400864,33.546852,-14.513223,-114.985283,-9.408601
3.712500,43.386772,-21.021660,37.202045,-14.392859,-112.016716,-9.612643
3.718750,43.520168,-20.644642,40.579308,-14.121057,-106.731163,-9.820798
3.725000,43.309666,-20.283566,43.922951,-13.710846,-99.016273,-10.027913
3.731250,42.778072,-19.947847,45.590717,-13.183297,-88.875343,-10.228591
3.737500,41.980701,-19.642756,47.452229,-12.566819,-76.425827,-10.417630
3.743750,40.969631,-19.373402,49.200218,-11.894711,-61.893974,-10.590394
3.750000,39.794926,-19.142126,50.538105,-11.207039,-45.603870,-10.743631
3.756250,38.501091,-18.952572,51.151901,-10.542962,-27.961712,-10.875796
3.762500,37.158455,-18.803532,50.755428,-9.937452,-9.438675,-10.987695
3.768750,35.842987,-18.688293,49.060638,-9.416021,9.449894,-11.082265
3.775000,34.621559,-18.599043,45.847778,-9.003154,28.163092,-11.162886
3.781250,33.528648,-18.528500,40.987198,-8.718015,46.156532,-11.231988
3.787500,32.582241,-18.469795,34.369652,-8.567405,62.920811,-11.292449
3.793750,31.788694,-18.416195,25.920235,-8.537229,78.017372,-11.349975
3.800000,31.155249,-18.359907,15.638893,-8.574254,91.089378,-11.410816
3.806250,30.675663,-18.293457,3.676070,-8.701931,101.864540,-11.479440
3.812500,30.317715,-18.212076,-9.068865,-8.917397,110.177574,-11.558212
3.818750,30.033165,-18.115225,-22.822350,-9.169729,115.983109,-11.647616
3.825000,29.774302,-18.004179,-37.149788,-9.427158,119.366692,-11.746560
3.831250,29.506033,-17.880098,-51.546352,-9.664534,120.541748,-11.853255
3.837500,29.199072,-17.744291,-65.505722,-9.861919,119.840813,-11.965631
3.843750,28.823982,-17.600174,-78.544220,-10.004464,117.697128,-12.082227
3.850000,28.344128,-17.454002,-90.228439,-10.082891,114.621033,-12.203186
3.856250,27.732058,-17.313318,-100.194695,-10.092957,111.171021,-12.330855
3.862500,26.986534,-17.183922,-108.169861,-10.034752,105.747063,-12.468493
3.868750,26.124485,-17.069780,-113.981384,-9.912927,100.241592,-12.613773
3.875000,25.168188,-16.973961,-117.566879,-9.735368,94.642090,-12.763829
3.881250,24.141056,-16.899269,-118.974251,-9.513878,88.988258,-12.926172
3.887500,23.063498,-16.848093,-118.360535,-9.262225,83.322914,-13.109815
3.893750,21.972464,-16.820578,-115.980469,-8.996231,77.635208,-13.320768
3.900000,20.909426,-16.814375,-112.174980,-8.733057,71.894600,-13.561636
3.906250,19.912071,-16.825939,-107.355545,-8.490247,66.069885,-13.833168
3.912500,19.007034,-16.851650,-99.813728,-8.284448,60.137432,-14.134514
3.918750,18.212742,-16.887432,-91.398651,-8.131479,54.089592,-14.463967
3.925000,17.542669,-16.928820,-82.107796,-8.044904,47.929710,-14.819388
3.931250,17.008141,-16.970297,-71.979729,-8.035554,41.679043,-15.198364
3.937500,16.612318,-17.006460,-61.093224,-8.109658,35.371235,-15.598281
3.943750,16.343149,-17.032921,-49.571819,-8.264339,29.056120,-16.016975
3.950000,16.177511,-17.048067,-37.548286,-8.500207,22.795446,-16.452469
3.956250,16.088127,-17.050076,-25.127024,-8.822346,16.654436,-16.901577
3.962500,16.055286,-17.037506,-12.465036,-9.227788,10.696321,-17.359190
3.968750,16.057053,-17.009451,0.234855,-9.706678,4.996570,-17.823914
3.975000,16.063374,-16.966789,12.766852,-10.244764,-0.334331,-18.297815
3.981250,16.040722,-16.912542,24.944818,-10.824822,-5.226668,-18.783281
3.987500,15.959297,-16.850760,36.606991,-11.427478,-9.636580,-19.279762
3.993750,15.805165,-16.784773,47.620533,-12.031426,-13.542481,-19.786135
4.000000,15.573436,-16.717495,57.888496,-12.614606,-16.930183,-20.300257
4.006250,15.260947,-16.651634,67.353325,-13.154886,-19.798452,-20.819763
4.012500,14.863675,-16.590696,76.004700,-13.631583,-22.160378,-21.341557
4.018750,14.379694,-16.538750,81.986351,-14.026808,-24.040216,-21.863197
4.025000,13.816140,-16.499571,87.003288,-14.326810,-25.491615,-22.383293
4.031250,13.190232,-16.475197,90.649994,-14.522398,-26.595367,-22.898066
4.037500,12.528529,-16.466436,92.593483,-14.610016,-27.507698,-23.382130
4.043750,11.851881,-16.473429,92.592010,-14.591963,-28.412010,-23.814995
4.050000,11.182786,-16.496094,90.504768,-14.476155,-29.300821,-24.200872
4.056250,10.538415,-16.534159,86.296043,-14.276705,-30.201147,-24.543776
4.062500,9.940390,-16.586359,80.037941,-14.012599,-31.253510,-24.835981
4.068750,9.412548,-16.650087,71.907433,-13.707972,-32.620438,-25.065052
4.075000,8.973700,-16.722311,62.174416,-13.390633,-34.407139,-25.220785
4.081250,8.638050,-16.800035,51.188736,-13.090927,-36.669914,-25.296919
4.087500,8.412115,-16.880180,39.353035,-12.841326,-39.423767,-25.291349
4.093750,8.301385,-16.959459,27.102337,-12.673223,-42.647556,-25.206911
4.100000,8.306166,-17.034582,14.867743,-12.610380,-46.280464,-25.051874
4.106250,8.424928,-17.102188,3.041854,-12.663880,-50.225403,-24.839443
4.112500,8.649101,-17.159418,-7.981077,-12.840303,-54.345985,-24.586168
4.118750,8.965290,-17.204081,-17.804831,-13.142110,-58.451077,-24.307747
4.125000,9.354692,-17.235357,-26.057684,-13.573476,-62.293991,-24.009989
4.131250,9.799664,-17.252001,-32.442268,-14.133410,-65.613708,-23.701426
4.137500,10.284987,-17.253731,-36.809746,-14.802811,-68.177956,-23.399405
4.143750,10.792909,-17.240236,-39.108936,-15.556923,-69.685791,-23.124571
4.150000,11.303628,-17.211926,-39.317581,-16.370209,-69.811356,-22.892576
4.156250,11.798472,-17.170204,-37.478313,-17.218515,-68.301628,-22.710909
4.162500,12.257333,-17.117113,-33.725445,-18.078487,-64.930374,-22.580502
4.168750,12.667814,-17.054892,-28.297766,-18.922628,-61.415874,-22.501106
4.175000,13.018742,-16.985811,-21.530155,-19.721842,-56.020653,-22.469208
4.181250,13.305664,-16.911638,-13.778924,-20.456652,-49.246464,-22.478638
4.187500,13.525724,-16.834341,-5.424431,-21.113464,-41.637859,-22.519382
4.193750,13.675965,-16.756020,3.081092,-21.679922,-33.756107,-22.578499
4.200000,13.756753,-16.678804,13.422776,-22.144590,-26.158352,-22.638443
4.206250,13.770471,-16.604403,23.762835,-22.497471,-19.347391,-22.676916
4.212500,13.725210,-16.533936,32.258598,-22.730757,-13.743275,-22.670889
4.218750,13.629735,-16.468025,40.578434,-22.839905,-9.600716,-22.621449
4.225000,13.491690,-16.407314,48.231033,-22.823895,-7.015202,-22.534306
4.231250,13.314795,-16.352917,54.753956,-22.685047,-6.134071,-22.407545
4.237500,13.108010,-16.305229,59.743359,-22.428471,-6.962924,-22.258392
4.243750,12.882585,-16.263931,62.871052,-22.062317,-9.357800,-22.184027
4.250000,12.648675,-16.228502,63.906395,-21.596560,-13.361392,-22.012568
4.256250,12.412276,-16.198538,62.728458,-21.042648,-17.056677,-21.863546
4.262500,12.178155,-16.173864,59.334454,-20.412502,-23.183689,-21.775351
4.268750,11.949702,-16.154272,53.847576,-19.716787,-29.412025,-21.769363
4.275000,11.731607,-16.139580,46.512100,-18.966757,-35.581375,-21.854446
4.281250,11.531481,-16.129097,37.696659,-18.177605,-41.548866,-22.030506
4.287500,11.354751,-16.121822,27.896275,-17.373192,-47.190575,-22.288031
4.293750,11.206185,-16.116743,17.647938,-16.575277,-52.419827,-22.611092
4.300000,11.086585,-16.113331,7.482444,-15.802358,-57.220596,-22.982285
4.306250,10.998020,-16.110689,-2.071170,-15.072720,-61.672951,-23.395536
4.312500,10.942793,-16.107964,-10.480946,-14.405186,-65.929108,-23.841797
4.318750,10.922771,-16.103487,-17.274267,-13.818163,-70.192749,-24.287188
4.325000,10.938531,-16.096064,-22.067986,-13.327477,-72.863312,-24.701908
4.331250,10.986044,-16.084629,-24.603489,-12.944901,-75.767525,-25.077826
4.337500,11.058109,-16.068373,-24.762127,-12.675503,-78.669464,-25.407433
4.343750,11.150167,-16.046867,-22.572834,-12.514231,-81.450615,-25.682465
4.350000,11.254441,-16.019218,-18.184174,-12.453191,-81.877892,-25.895929
4.356250,11.364211,-15.985236,-11.811035,-12.490112,-81.283463,-26.043379
4.362500,11.469159,-15.944742,-3.805191,-12.614765,-79.163071,-26.122253
4.368750,11.557208,-15.898288,5.335598,-12.808836,-76.993225,-26.133902
4.375000,11.617137,-15.846890,15.056845,-13.049820,-72.839424,-26.085157
4.381250,11.638737,-15.791862,24.779549,-13.313763,-67.040230,-25.988684
4.387500,11.610199,-15.735228,33.922421,-13.576713,-60.007698,-25.862532
4.393750,11.528911,-15.678782,44.098301,-13.815705,-52.190258,-25.727951
4.400000,11.390155,-15.624084,53.442448,-14.009584,-44.043285,-25.607641
4.406250,11.195232,-15.573309,62.021450,-14.140471,-35.973495,-25.504898
4.412500,10.943813,-15.528437,68.042633,-14.194490,-28.288572,-25.407970
4.418750,10.638780,-15.491565,73.257469,-14.162627,-21.427465,-25.312752
4.425000,10.290859,-15.464075,77.286980,-14.040994,-15.727766,-25.122837
4.431250,9.913796,-15.446378,79.802177,-13.830823,-11.025115,-25.028818
4.437500,9.523314,-15.438656,80.542038,-13.537923,-9.127452,-24.946148
4.443750,9.127881,-15.441167,79.323181,-13.172160,-6.813889,-24.854776
4.450000,8.741088,-15.453972,76.052612,-12.747057,-5.635800,-24.743740
4.456250,8.377096,-15.476310,70.730972,-12.279003,-5.178292,-24.608311
4.462500,8.052234,-15.506107,63.455444,-11.786502,-4.980297,-24.447126
4.468750,7.780520,-15.541405,54.411026,-11.288312,-4.553771,-24.263201
4.475000,7.568972,-15.580258,43.861946,-10.801908,-3.406683,-24.063303
4.481250,7.419512,-15.621092,32.141136,-10.342873,-1.047874,-23.856810
4.487500,7.335306,-15.662266,19.640360,-9.924100,1.146674,-23.629333
4.493750,7.317732,-15.701348,6.789299,-9.555247,5.354967,-23.364702
4.500000,7.366252,-15.736447,-5.961380,-9.242155,11.399874,-23.090637
4.506250,7.473424,-15.766256,-18.161406,-8.985722,17.006075,-22.832817
4.512500,7.630791,-15.790155,-29.380888,-8.782331,23.316025,-22.593809
4.518750,7.831165,-15.807513,-39.220573,-8.625411,29.629496,-22.372723
4.525000,8.067487,-15.817185,-47.320354,-8.510053,35.327385,-22.168686
4.531250,8.335740,-15.818075,-53.381046,-8.434194,39.848076,-21.980333
4.537500,8.625751,-15.809255,-57.222065,-8.391500,42.693192,-21.806414
4.543750,8.923530,-15.791149,-58.782890,-8.373818,43.439030,-21.648317
4.550000,9.212991,-15.764981,-58.099873,-8.374507,43.928768,-21.509796
4.556250,9.483723,-15.731448,-55.312668,-8.388686,42.603275,-21.394121
4.562500,9.728264,-15.691539,-50.670502,-8.412563,39.911789,-21.300831
4.568750,9.944091,-15.645633,-44.523296,-8.442686,36.389744,-21.221878
4.575000,10.119718,-15.594922,-37.304260,-8.476063,32.588276,-21.150459
4.581250,10.249327,-15.541089,-29.507576,-8.510009,29.022875,-21.080252
4.587500,10.325296,-15.485486,-21.664682,-8.541477,26.145323,-21.023760
4.593750,10.343967,-15.429970,-12.147446,-8.567652,22.398157,-21.008593
4.600000,10.305212,-15.376457,-2.838176,-8.585621,19.860048,-21.044596
4.606250,10.207859,-15.326889,6.282717,-8.592380,18.384596,-21.155571
4.612500,10.055457,-15.283237,15.243219,-8.585304,17.739182,-21.340443
4.618750,9.853932,-15.246973,24.080297,-8.562424,18.057028,-21.560722
4.625000,9.616971,-15.218741,32.840782,-8.523207,18.667206,-21.858505
4.631250,9.357700,-15.198864,41.576565,-8.468488,19.249542,-22.247561
4.637500,9.087516,-15.187060,48.446186,-8.399997,19.628500,-22.726610
4.643750,8.818139,-15.183242,55.120094,-8.320420,19.653408,-23.283117
4.650000,8.562651,-15.186410,61.111603,-8.233086,19.194441,-23.895102
4.656250,8.332277,-15.195230,65.967186,-8.142976,18.140053,-24.532465
4.662500,8.137576,-15.207974,69.286453,-8.055552,16.385868,-25.161869
4.668750,7.984285,-15.222580,70.741844,-7.976597,15.953149,-25.786375
4.675000,7.874804,-15.237663,70.092659,-7.911840,15.279840,-26.409389
4.681250,7.810064,-15.251485,67.198967,-7.866459,13.619646,-26.922878
4.687500,7.788277,-15.262185,62.025658,-7.844820,12.593735,-27.359535
4.693750,7.804591,-15.268283,54.644730,-7.849525,12.084183,-27.719528
4.700000,7.851297,-15.268529,45.233604,-7.880400,12.057239,-27.998278
4.706250,7.916807,-15.262398,34.070698,-7.935454,12.445415,-28.193125
4.712500,7.984943,-15.250449,21.528057,-8.011824,13.160197,-28.303162
4.718750,8.042283,-15.233785,8.054082,-8.106220,14.094790,-28.329651
