Anritsu VNA Frequency[GHz],S21[deg],S21[dB],S11[deg],S11[dB],S22[deg],S22[dB]
1338031944.21,2012_05_26_12:32:24,+298.06,+297.90,+02.989,+297.78,+297.21,+298.15,+297.76,+298.18,243.387985,-6.620
3.006250,-104.424255,-13.829856,6.400208,-4.402658,-92.619713,-11.698103
3.012500,-104.424255,-13.829856,6.400208,-4.402658,-92.619713,-11.698103
3.018750,-104.424255,-13.829856,6.400208,-4.402658,-92.619713,-11.698103
3.025000,-104.424255,-13.829856,6.400208,-4.402658,-92.619713,-11.698103
3.031250,-104.424255,-13.829856,6.400208,-4.402658,-92.619713,-11.698103
3.037500,-104.424255,-13.829856,6.400208,-4.402658,-92.619713,-11.698103
3.043750,-104.424255,-13.829856,6.400208,-4.402658,-92.619713,-11.698103
3.050000,-104.424255,-13.829856,6.400208,-4.402658,-92.619713,-11.698103
3.056250,-104.424255,-13.829856,6.400208,-4.402658,-92.619713,-11.698103
3.062500,-104.424255,-13.829856,6.400208,-4.402658,-92.619713,-11.698103
3.068750,-104.424255,-13.829856,6.400208,-4.402658,-92.619713,-11.698103
3.075000,-104.424255,-13.829856,6.400208,-4.402658,-92.619713,-11.698103
3.081250,-104.424255,-13.829856,6.400208,-4.402658,-92.619713,-11.698103
3.087500,-104.424255,-13.829856,6.400208,-4.402658,-92.619713,-11.698103
3.093750,-104.424255,-13.660617,6.400208,-4.472830,-92.619713,-12.105035
3.100000,-105.822975,-13.505387,5.925304,-4.540989,-94.385063,-12.496526
3.106250,-107.229767,-13.362732,4.271886,-4.606874,-94.624161,-12.867532
3.112500,-108.633202,-13.231405,3.486042,-4.670244,-92.990295,-13.213097
3.118750,-110.025917,-13.110286,3.403130,-4.731019,-89.235649,-13.528175
3.125000,-111.405296,-12.998270,3.824299,-4.789077,-83.221428,-13.808354
3.131250,-112.770027,-12.894861,4.525994,-4.844187,-74.924835,-14.049841
3.137500,-114.119629,-12.799752,5.270888,-4.896469,-64.439117,-14.249714
3.143750,-115.453270,-12.712721,5.819081,-4.945878,-51.970043,-14.405865
3.150000,-116.766296,-12.633256,5.943086,-4.992528,-37.825058,-14.517185
3.156250,-118.055122,-12.560495,7.603744,-5.036395,-22.395748,-14.583229
3.162500,-119.316185,-12.493625,9.264391,-5.077620,-6.138763,-14.604500
3.168750,-120.548401,-12.431908,9.388900,-5.116277,10.446830,-14.582398
3.175000,-121.751953,-12.374914,9.938511,-5.152496,26.848055,-14.519024
3.181250,-122.926231,-12.322212,10.685462,-5.186304,42.564705,-14.417165
3.187500,-124.073792,-12.273674,11.390842,-5.217890,57.132664,-14.280540
3.193750,-125.193237,-12.229115,11.819637,-5.247412,70.150505,-14.113151
3.200000,-126.284088,-12.188043,11.749804,-5.274843,81.298790,-13.919454
3.206250,-127.343803,-12.149946,10.983541,-5.300134,90.353889,-13.704287
3.212500,-128.372971,-12.114405,9.358061,-5.323244,97.202415,-13.472201
3.218750,-129.372925,-12.081215,8.921307,-5.344158,101.847572,-13.227499
3.225000,-130.345474,-12.050281,8.239072,-5.362827,104.407867,-12.973903
3.231250,-131.291672,-12.021690,5.889765,-5.379172,105.114769,-12.714780
3.237500,-132.211945,-11.995554,3.956491,-5.393078,104.300629,-12.453011
3.243750,-133.105896,-11.971518,2.333666,-5.404531,102.380341,-12.191036
3.250000,-133.972763,-11.949367,0.898554,-5.413526,99.834351,-11.931322
3.256250,-134.810852,-11.928556,-0.481623,-5.420157,97.181015,-11.675900
3.262500,-135.620941,-11.908650,-1.941884,-5.424404,92.783371,-11.426359
3.268750,-136.406311,-11.889647,-3.613966,-5.426349,88.518845,-11.183670
3.275000,-137.168610,-11.871718,-5.620550,-5.426037,84.371712,-10.948639
3.281250,-137.909607,-11.855138,-8.069201,-5.423722,80.324577,-10.721890
3.287500,-138.627930,-11.839956,-8.878333,-5.419498,76.363602,-10.503862
3.293750,-139.320770,-11.825602,-9.469189,-5.413521,72.475441,-10.294639
3.300000,-139.985504,-11.811489,-11.275499,-5.405813,68.648712,-10.094505
3.306250,-140.620300,-11.796767,-12.251181,-5.396471,64.872818,-9.903679
3.312500,-141.225723,-11.780818,-12.559567,-5.385600,61.138336,-9.722426
3.318750,-141.805847,-11.763434,-12.398067,-5.373165,57.437233,-9.550796
3.325000,-142.366409,-11.745033,-11.989195,-5.359069,53.762646,-9.388712
3.331250,-142.913467,-11.726633,-11.569988,-5.343505,50.107719,-9.236406
3.337500,-143.447723,-11.708866,-11.379307,-5.326679,46.465401,-9.093802
3.343750,-143.966064,-11.691908,-11.644897,-5.308603,42.831371,-8.960908
3.350000,-144.463898,-11.675549,-10.405311,-5.289304,39.201950,-8.837543
3.356250,-144.936539,-11.659024,-9.198158,-5.268835,35.573219,-8.723608
3.362500,-145.381302,-11.641361,-7.667187,-5.247434,31.941877,-8.619135
3.368750,-145.799118,-11.621954,-7.367564,-5.225127,28.304844,-8.523907
3.375000,-146.195969,-11.600917,-6.374212,-5.201893,24.659832,-8.437968
3.381250,-146.577927,-11.579302,-4.967703,-5.178025,21.002562,-8.361598
3.387500,-146.948944,-11.557943,-3.451329,-5.153708,17.330551,-8.294768
3.393750,-147.304718,-11.536996,-2.135155,-5.129083,13.642444,-8.237348
3.400000,-147.638443,-11.515822,-1.322060,-5.104296,9.935383,-8.189282
3.406250,-147.943634,-11.493310,-1.293010,-5.079459,6.207396,-8.150659
3.412500,-148.216827,-11.468199,-0.124041,-5.054820,2.457393,-8.121493
3.418750,-148.458633,-11.439187,0.627695,-5.030529,-1.316687,-8.101716
3.425000,-148.672974,-11.405742,1.317433,-5.006752,-5.113605,-8.091412
3.431250,-148.869431,-11.368320,2.300777,-4.983750,-8.932722,-8.090597
3.437500,-149.056961,-11.328135,2.020591,-4.961730,-12.773829,-8.099316
3.443750,-149.238388,-11.286160,2.400800,-4.941033,-16.635263,-8.117604
3.450000,-149.409912,-11.242518,3.160983,-4.922007,-20.515821,-8.145597
3.456250,-149.564407,-11.196417,3.997790,-4.905020,-24.413498,-8.183331
3.462500,-149.696014,-11.146589,4.600009,-4.890417,-28.327080,-8.230749
3.468750,-149.803680,-11.091704,4.664781,-4.878723,-32.256039,-8.287741
3.475000,-149.891052,-11.030869,3.911240,-4.870373,-36.197918,-8.354153
3.481250,-149.966187,-10.963827,4.262733,-4.865808,-40.152031,-8.429815
3.487500,-150.040359,-10.891323,4.162290,-4.865432,-44.116402,-8.514346
3.493750,-150.122803,-10.814503,3.965449,-4.869650,-48.088692,-8.607363
3.500000,-150.217285,-10.734208,4.027337,-4.878988,-52.065632,-8.708465
3.506250,-150.321808,-10.650546,2.791246,-4.894006,-56.046036,-8.817371
3.512500,-150.431824,-10.562665,2.182543,-4.914995,-60.026226,-8.933404
3.518750,-150.545319,-10.469535,1.923054,-4.942347,-64.003105,-9.056020
3.525000,-150.665482,-10.370325,1.711081,-4.976527,-67.973412,-9.184592
3.531250,-150.799515,-10.264816,1.238525,-5.017903,-71.934433,-9.318453
3.537500,-150.959290,-10.153846,0.205859,-5.066689,-75.882126,-9.456660
3.543750,-151.157242,-10.039082,-1.662861,-5.122993,-79.813141,-9.598372
3.550000,-151.399948,-9.922448,-2.439536,-5.187294,-83.723831,-9.743164
3.556250,-151.688339,-9.805272,-3.676468,-5.259928,-87.612373,-9.890269
3.562500,-152.016510,-9.687777,-5.010364,-5.340651,-91.472527,-10.038842
3.568750,-152.378067,-9.569774,-6.075789,-5.429119,-95.300400,-10.187755
3.575000,-152.770859,-9.451145,-6.528627,-5.525461,-99.094139,-10.336610
3.581250,-153.195099,-9.331784,-7.954875,-5.629659,-102.853104,-10.484939
3.587500,-153.655060,-9.212145,-8.469998,-5.741198,-106.574707,-10.631762
3.593750,-154.155182,-9.093253,-8.405009,-5.859174,-110.256416,-10.775840
3.600000,-154.700851,-8.976728,-8.125944,-5.982895,-113.896042,-10.916405
3.606250,-155.294266,-8.864157,-8.012756,-6.111670,-117.494034,-11.052690
3.612500,-155.930115,-8.756449,-8.438052,-6.244602,-121.049355,-11.184004
3.618750,-156.600128,-8.653630,-7.578923,-6.380586,-124.557556,-11.309258
3.625000,-157.296295,-8.555342,-7.099755,-6.518377,-128.016769,-11.427567
3.631250,-158.013397,-8.461284,-6.754911,-6.657143,-131.426147,-11.538505
3.637500,-158.750107,-8.371353,-6.290630,-6.795913,-134.785950,-11.641468
3.643750,-159.507065,-8.285717,-5.458167,-6.933569,-136.199615,-11.735799
3.650000,-160.284988,-8.205058,-4.027182,-7.068984,-137.288147,-11.820895
3.656250,-161.083847,-8.130166,-3.693091,-7.201293,-137.520889,-11.896285
3.662500,-161.900101,-8.061714,-2.672927,-7.329507,-136.406036,-11.961473
3.668750,-162.727829,-7.999646,-1.384163,-7.452870,-133.517090,-12.016126
3.675000,-163.558304,-7.943450,-0.255391,-7.570728,-128.514267,-12.059854
3.681250,-164.384750,-7.892454,0.295094,-7.682503,-121.163681,-12.092663
3.687500,-165.203506,-7.845928,2.049406,-7.787740,-111.344032,-12.114407
3.693750,-166.013885,-7.803470,3.310966,-7.885972,-99.056976,-12.124844
3.700000,-166.816605,-7.764930,4.306933,-7.976936,-84.425255,-12.123910
3.706250,-167.612991,-7.730633,5.280354,-8.060516,-67.689209,-12.111483
3.712500,-168.403290,-7.700788,6.479158,-8.136798,-49.191227,-12.087461
3.718750,-169.185226,-7.675303,8.144353,-8.205886,-29.361776,-12.051851
3.725000,-169.954788,-7.653808,8.603852,-8.268073,-8.694990,-12.004501
3.731250,-168.813553,-7.635581,9.673185,-8.323420,12.274254,-11.945174
3.737500,-167.380844,-7.619944,10.973875,-8.372007,33.000500,-11.873833
3.743750,-165.124756,-7.606397,12.118787,-8.414396,52.946438,-11.790539
3.750000,-161.555252,-7.594860,12.733758,-8.451248,71.616745,-11.695807
3.756250,-156.248001,-7.585276,12.478663,-8.482759,88.581467,-11.589672
3.762500,-148.864395,-7.577959,13.231212,-8.509035,103.496117,-11.472267
3.768750,-139.167252,-7.573002,13.399433,-8.530496,116.119583,-11.343997
3.775000,-127.034317,-7.570393,13.320209,-8.547804,126.321663,-11.205626
3.781250,-112.463074,-7.569771,13.350444,-8.561257,134.096100,-11.057631
3.787500,-95.573563,-7.570718,11.952307,-8.571077,139.559937,-10.900430
3.793750,-76.603722,-7.573071,11.086899,-8.577548,142.944046,-10.734553
3.800000,-55.896172,-7.577014,10.523299,-8.581102,144.582001,-10.561027
3.806250,-33.880810,-7.583050,10.020956,-8.582271,144.894577,-10.380754
3.812500,-11.050425,-7.591480,9.343684,-8.581239,144.369812,-10.194560
3.818750,12.063462,-7.602626,8.266821,-8.578299,143.536438,-10.003408
3.825000,34.917801,-7.616424,6.590678,-8.573828,140.768021,-9.808270
3.831250,56.982891,-7.632599,4.149393,-8.568254,137.954880,-9.610169
3.837500,77.769836,-7.650537,2.987618,-8.561835,135.093826,-9.410194
3.843750,96.851479,-7.669853,1.669616,-8.554943,132.181976,-9.209459
3.850000,113.885864,-7.690605,0.666952,-8.547844,129.217117,-9.008933
3.856250,128.631851,-7.713448,-1.455727,-8.540668,126.198341,-8.809484
3.862500,140.966492,-7.739099,-2.652705,-8.533588,123.124725,-8.612059
3.868750,150.892181,-7.767946,-3.089249,-8.526816,119.994682,-8.417695
3.875000,158.537567,-7.799753,-2.963392,-8.520549,116.807503,-8.227403
3.881250,164.146866,-7.833767,-2.498331,-8.514731,113.563759,-8.041997
3.887500,168.067322,-7.868680,-1.930369,-8.509320,110.263458,-7.862359
3.893750,170.729385,-7.903246,-1.498158,-8.504354,106.905121,-7.689419
3.900000,172.623428,-7.936659,-1.429594,-8.499748,103.490723,-7.523847
3.906250,174.276611,-7.968997,0.237760,-8.495153,100.022064,-7.366269
3.912500,174.061768,-8.000826,1.965945,-8.490417,96.501472,-7.217109
3.918750,173.871643,-8.032591,2.215723,-8.485640,92.928749,-7.077196
3.925000,173.709991,-8.064047,2.948063,-8.480623,89.306808,-6.946946
3.931250,173.582687,-8.094260,3.935141,-8.475096,85.640190,-6.826591
3.937500,173.494965,-8.121773,4.936928,-8.468847,81.931534,-6.716522
3.943750,173.449097,-8.144748,5.714400,-8.461960,78.183746,-6.617256
3.950000,173.441711,-8.161802,6.043465,-8.454380,74.398354,-6.529128
3.956250,171.568222,-8.172598,5.725200,-8.445736,70.581131,-6.452168
3.962500,169.436325,-8.178057,4.595179,-8.435863,66.735161,-6.386429
3.968750,168.397858,-8.179586,4.697639,-8.424936,62.861439,-6.332274
3.975000,166.336594,-8.178038,4.596301,-8.412996,58.962002,-6.289924
3.981250,163.361725,-8.173306,2.869490,-8.400005,55.039455,-6.259355
3.987500,159.631302,-8.164427,1.599449,-8.385934,51.097286,-6.240615
3.993750,155.338791,-8.150228,0.678185,-8.370933,47.136425,-6.233782
4.000000,150.702393,-8.129408,-0.016867,-8.355155,43.158417,-6.239017
4.006250,145.952209,-8.101464,-0.619312,-8.338703,39.164658,-6.256253
4.012500,141.319138,-8.066966,-1.265136,-8.321730,35.156853,-6.285609
4.018750,137.026398,-8.027844,-2.087393,-8.304475,31.135279,-6.327056
4.025000,133.284653,-7.986043,-3.209139,-8.287058,27.101391,-6.380414
4.031250,130.284470,-7.942912,-4.737217,-8.269443,23.055927,-6.445459
4.037500,128.185577,-7.898353,-4.590277,-8.251811,18.998440,-6.522181
4.043750,127.101509,-7.851483,-6.085738,-8.234184,14.929077,-6.610423
4.050000,127.091621,-7.801118,-7.140188,-8.216472,10.849579,-6.709706
4.056250,128.153030,-7.746544,-7.859809,-8.198516,6.760849,-6.819692
4.062500,130.223816,-7.687963,-8.368254,-8.180544,2.662835,-6.940279
4.068750,133.186188,-7.626723,-8.798014,-8.162656,-1.445185,-7.071260
4.075000,136.879211,-7.564928,-9.282235,-8.144635,-5.561021,-7.212189
4.081250,141.110641,-7.504409,-9.951600,-8.126484,-9.683530,-7.362581
4.087500,145.667847,-7.445848,-10.929300,-8.108596,-13.815120,-7.522466
4.093750,150.324860,-7.388723,-12.321574,-8.091315,-17.956854,-7.691752
4.100000,154.848557,-7.331812,-12.041873,-8.074422,-22.107437,-7.869583
4.106250,159.005524,-7.274041,-11.509724,-8.057864,-26.266399,-8.055424
4.112500,162.574051,-7.214921,-12.160612,-8.042050,-30.437460,-8.249159
4.118750,165.357452,-7.154881,-11.947785,-8.027501,-34.624107,-8.450550
4.125000,167.194595,-7.095346,-11.031986,-8.013967,-38.826912,-8.658787
4.131250,167.974655,-7.038186,-9.608012,-8.001098,-43.046173,-8.873136
4.137500,169.813995,-6.984584,-7.898412,-7.988939,-47.287117,-9.093287
4.143750,171.359848,-6.934554,-6.141460,-7.977739,-51.556519,-9.319115
4.150000,171.001678,-6.887281,-4.571983,-7.967270,-55.858109,-9.549921
4.156250,170.640579,-6.841630,-3.414737,-7.957055,-60.194782,-9.784604
4.162500,170.278091,-6.796999,-0.707217,-7.946918,-64.572136,-10.022447
4.168750,169.910599,-6.753285,2.014321,-7.936881,-68.996460,-10.262696
4.175000,169.533356,-6.710945,3.215300,-7.926773,-73.471832,-10.504427
4.181250,169.141830,-6.671010,4.859690,-7.916348,-78.001442,-10.746654
4.187500,168.734528,-6.634467,6.721957,-7.905481,-82.589249,-10.988727
4.193750,168.316147,-6.601678,8.563911,-7.894188,-87.237946,-11.229934
4.200000,167.895142,-6.571921,10.151245,-7.882243,-91.948196,-11.469408
4.206250,167.479034,-6.544168,11.262062,-7.869540,-96.721672,-11.706312
4.212500,167.070740,-6.517358,11.696738,-7.856134,-101.559700,-11.939837
4.218750,166.667877,-6.491096,11.290392,-7.841884,-106.464066,-12.169079
4.225000,166.266525,-6.465510,12.090169,-7.826622,-109.539284,-12.392858
4.231250,165.861740,-6.441128,12.660186,-7.810155,-112.406830,-12.610237
4.237500,165.450851,-6.418660,11.576563,-7.792583,-114.532921,-12.820338
4.243750,165.034851,-6.398516,10.921138,-7.773592,-115.422440,-13.022396
4.250000,164.618759,-6.380579,10.588013,-7.753089,-114.643158,-13.215492
4.256250,164.207047,-6.364251,10.453407,-7.731297,-111.850746,-13.398856
4.262500,163.802811,-6.348882,10.385133,-7.708452,-106.804802,-13.571992
4.268750,163.405182,-6.334074,10.249146,-7.684609,-99.376884,-13.733950
4.275000,163.011536,-6.319819,9.916466,-7.659761,-89.560440,-13.883800
4.281250,162.618332,-6.306587,9.265216,-7.634491,-77.470612,-14.021223
4.287500,162.223206,-6.294789,8.189222,-7.609334,-63.338154,-14.145811
4.293750,161.826157,-6.284763,8.773571,-7.584401,-47.493874,-14.257092
4.300000,161.428589,-6.276491,7.705035,-7.559597,-30.352797,-14.354947
4.306250,161.034668,-6.269711,7.066838,-7.535145,-12.398096,-14.439686
4.312500,160.646179,-6.264038,6.751600,-7.511199,5.845351,-14.511847
4.318750,160.263016,-6.259264,6.637648,-7.487530,23.839949,-14.571839
4.325000,159.883820,-6.255378,6.593510,-7.463831,41.061550,-14.620103
4.331250,159.506760,-6.252525,6.482924,-7.439960,57.022572,-14.657238
4.337500,159.132248,-6.250990,6.173310,-7.415700,71.301826,-14.683848
4.343750,158.760880,-6.250796,5.543426,-7.390672,83.564857,-14.700395
4.350000,158.394882,-6.251777,4.487959,-7.364656,93.580467,-14.707703
4.356250,158.036407,-6.253592,5.090145,-7.337852,101.231850,-14.707102
4.362500,157.686310,-6.255893,4.034377,-7.310149,106.523811,-14.699791
4.368750,157.344437,-6.258615,3.406757,-7.281289,109.584007,-14.686792
4.375000,157.009003,-6.261775,3.102740,-7.251322,110.653809,-14.669393
4.381250,156.678284,-6.265671,2.998420,-7.220844,110.072784,-14.649065
4.387500,156.351807,-6.270465,2.960689,-7.190149,108.268707,-14.626980
4.393750,156.031113,-6.276228,2.856505,-7.159185,105.734467,-14.603868
4.400000,155.717834,-6.282707,2.554237,-7.128113,103.003448,-14.580222
4.406250,155.413834,-6.289510,1.929428,-7.097327,98.451637,-14.557078
4.412500,155.118958,-6.296412,0.874700,-7.066998,93.972618,-14.535075
4.418750,154.831604,-6.303328,1.473450,-7.036800,89.567726,-14.514786
4.425000,154.549469,-6.310517,0.409347,-7.006846,85.233482,-14.496605
4.431250,154.270142,-6.318459,-0.237047,-6.977343,80.966560,-14.481231
4.437500,153.993591,-6.327440,-0.570867,-6.948213,76.763046,-14.469118
4.443750,153.722015,-6.337520,-0.711856,-6.919141,72.620735,-14.460222
4.450000,153.458954,-6.348399,-0.790276,-6.890224,68.532883,-14.454599
4.456250,153.207336,-6.359515,-0.941378,-6.861882,64.493790,-14.452546
4.462500,152.968719,-6.370193,-1.295179,-6.834214,60.497700,-14.453786
4.468750,152.741562,-6.380203,-1.968887,-6.807085,56.542629,-14.458057
4.475000,152.522980,-6.389593,-3.065757,-6.780617,52.624149,-14.465275
4.481250,152.309616,-6.398767,-2.502359,-6.755104,48.735397,-14.475712
4.487500,152.099838,-6.408200,-3.593763,-6.730708,44.872902,-14.489673
4.493750,151.895004,-6.417916,-4.255702,-6.707362,41.033386,-14.507244
4.500000,151.698608,-6.427582,-4.594387,-6.685152,37.211567,-14.528737
4.506250,151.513733,-6.436579,-4.732302,-6.664040,33.402508,-14.554124
4.512500,151.342316,-6.444139,-4.801531,-6.637716,29.603733,-14.583194
4.518750,151.183029,-6.449711,-4.984660,-6.617954,25.809814,-14.616211
4.525000,151.031372,-6.453252,-5.343151,-6.599528,22.015242,-14.653685
4.531250,150.881561,-6.455230,-6.022387,-6.582213,18.216597,-14.695875
4.537500,150.729294,-6.456386,-7.124599,-6.565119,14.413095,-14.742372
4.543750,150.573624,-6.457231,-6.563391,-6.547888,10.604040,-14.793182
4.550000,150.416595,-6.457819,-7.657927,-6.531160,6.783388,-14.849017
4.556250,150.261581,-6.457801,-8.323751,-6.515012,2.947856,-14.910149
4.562500,150.111496,-6.456465,-8.661359,-6.498943,-0.899951,-14.976223
4.568750,149.966568,-6.453355,-8.789181,-6.482634,-4.760828,-15.046491
4.575000,149.822754,-6.448159,-8.841942,-6.466529,-8.639059,-15.120920
4.581250,149.674591,-6.441347,-8.956103,-6.451008,-12.538897,-15.199201
4.587500,149.516098,-6.433733,-9.261419,-6.435585,-16.457251,-15.279944
4.593750,149.343521,-6.426281,-9.878809,-6.419850,-20.392624,-15.362077
4.600000,149.157990,-6.419629,-10.919239,-6.404471,-24.348978,-15.445335
4.606250,148.962891,-6.413877,-10.302575,-6.389608,-28.326056,-15.529109
4.612500,148.763199,-6.408562,-11.341813,-6.374572,-32.319145,-15.612260
4.618750,148.562302,-6.403157,-11.953525,-6.358768,-36.324554,-15.693521
4.625000,148.359650,-6.397323,-12.247240,-6.342484,-40.347782,-15.772512
4.631250,148.152252,-6.391093,-12.348789,-6.326052,-44.391163,-15.848917
4.637500,147.935486,-6.385250,-12.387494,-6.308937,-48.454918,-15.921241
4.643750,147.705399,-6.380773,-12.494952,-6.290593,-52.538311,-15.988128
4.650000,147.462219,-6.378607,-12.806179,-6.271601,-56.647095,-16.049227
4.656250,147.209641,-6.379246,-13.445478,-6.252724,-60.787445,-16.104118
4.662500,146.955017,-6.382450,-14.515528,-6.233852,-64.959328,-16.151962
4.668750,146.705948,-6.387383,-13.929039,-6.214709,-69.164604,-16.192217
4.675000,146.467560,-6.393007,-13.108373,-6.195689,-73.411743,-16.226166
4.681250,146.241486,-6.398464,-13.489202,-6.177468,-77.707573,-16.255608
4.687500,146.022949,-6.404002,-13.023320,-6.160175,-82.044655,-16.279764
4.693750,145.806931,-6.410110,-11.871245,-6.143469,-86.411591,-16.297756
4.700000,145.593048,-6.417083,-10.231709,-6.127725,-90.813835,-16.311083
4.706250,145.384018,-6.424873,-8.327942,-6.113006,-95.254318,-16.321497
4.712500,145.183914,-6.433045,-6.395491,-6.099371,-99.723946,-16.330008
4.718750,144.996933,-6.440637,-4.670323,-6.086775,-104.205338,-16.337259
