Anritsu VNA Frequency[GHz],S21[deg],S21[dB],S11[deg],S11[dB],S22[deg],S22[dB]
1338032453.91,2012_05_26_12:40:53,+298.08,+297.93,+02.989,+297.80,+297.23,+298.18,+297.78,+298.21,243.408112,-6.630
3.006250,11.050024,-10.559812,1.688372,-10.476589,-81.809158,-10.704078
3.012500,11.050024,-10.559812,1.688372,-10.476589,-81.809158,-10.704078
3.018750,11.050024,-10.559812,1.688372,-10.476589,-81.809158,-10.704078
3.025000,11.050024,-10.559812,1.688372,-10.476589,-81.809158,-10.704078
3.031250,11.050024,-10.559812,1.688372,-10.476589,-81.809158,-10.704078
3.037500,11.050024,-10.559812,1.688372,-10.476589,-81.809158,-10.704078
3.043750,11.050024,-10.559812,1.688372,-10.476589,-81.809158,-10.704078
3.050000,11.050024,-10.559812,1.688372,-10.476589,-81.809158,-10.704078
3.056250,11.050024,-10.559812,1.688372,-10.476589,-81.809158,-10.704078
3.062500,11.050024,-10.559812,1.688372,-10.476589,-81.809158,-10.704078
3.068750,11.050024,-10.559812,1.688372,-10.476589,-81.809158,-10.704078
3.075000,11.050024,-10.559812,1.688372,-10.476589,-81.809158,-10.704078
3.081250,11.050024,-10.559812,1.688372,-10.476589,-81.809158,-10.704078
3.087500,11.050024,-10.559812,1.688372,-10.476589,-81.809158,-10.704078
3.093750,11.050024,-10.391601,1.688372,-10.564235,-81.809158,-11.106390
3.100000,10.720282,-10.234492,2.359532,-10.654570,-85.230972,-11.505537
3.106250,10.342220,-10.087736,3.126636,-10.747217,-88.567551,-11.897547
3.112500,9.929438,-9.950549,3.752619,-10.841775,-91.292908,-12.278070
3.118750,9.490545,-9.821931,4.011456,-10.937953,-92.917641,-12.642238
3.125000,9.029422,-9.701308,5.863847,-11.035447,-93.013756,-12.985305
3.131250,8.549093,-9.588315,7.772032,-11.133908,-91.234344,-13.302780
3.137500,8.050516,-9.483064,8.197927,-11.233149,-87.331116,-13.590446
3.143750,7.535728,-9.385551,9.101745,-11.332760,-81.164688,-13.844457
3.150000,7.009048,-9.295802,10.253913,-11.432080,-72.712791,-14.061620
3.156250,6.476592,-9.213122,11.414408,-11.530632,-62.072834,-14.239332
3.162500,5.944192,-9.136751,12.344645,-11.627855,-49.453762,-14.375813
3.168750,5.415825,-9.066049,12.821668,-11.723207,-35.164875,-14.469743
3.175000,4.892623,-9.000600,12.648152,-11.815942,-19.599758,-14.520540
3.181250,4.375010,-8.940023,11.659676,-11.905523,-3.218343,-14.528806
3.187500,3.864497,-8.884093,11.905346,-11.991651,13.479875,-14.495963
3.193750,3.362972,-8.832458,11.952505,-12.073577,29.984236,-14.423810
3.200000,2.871818,-8.784676,10.381665,-12.151065,45.794174,-14.315142
3.206250,2.392707,-8.740317,9.274521,-12.223973,60.444183,-14.173545
3.212500,1.926379,-8.698895,8.525733,-12.292193,73.530472,-14.002954
3.218750,1.473230,-8.660046,8.013176,-12.355597,84.730270,-13.807437
3.225000,1.032459,-8.623415,7.604403,-12.414042,93.820290,-13.590972
3.231250,0.602841,-8.589042,7.161606,-12.467303,100.686829,-13.357319
3.237500,0.183630,-8.556753,6.550873,-12.514998,105.332825,-13.110127
3.243750,-0.225011,-8.526339,5.646007,-12.556998,107.877502,-12.852880
3.250000,-0.622618,-8.497560,4.335213,-12.593073,108.553932,-12.589048
3.256250,-1.008341,-8.469930,4.698347,-12.622680,107.696449,-12.321836
3.262500,-1.383001,-8.442957,3.415909,-12.645202,105.723114,-12.053896
3.268750,-1.749218,-8.416555,2.566810,-12.660131,103.114189,-11.787682
3.275000,-2.110386,-8.391002,2.041303,-12.667290,100.385681,-11.525417
3.281250,-2.468852,-8.366561,1.714254,-12.666434,95.900269,-11.268777
3.287500,-2.824780,-8.343529,1.453357,-12.657182,91.538628,-11.018851
3.293750,-3.176271,-8.321617,1.123609,-12.639373,87.286453,-10.776604
3.300000,-3.521196,-8.300520,0.590757,-12.613302,83.127922,-10.543089
3.306250,-3.857754,-8.279572,-0.268237,-12.579240,79.050385,-10.319111
3.312500,-4.186363,-8.258224,-1.558705,-12.537309,75.042961,-10.105035
3.318750,-4.509932,-8.236298,-1.197533,-12.487673,71.096382,-9.901130
3.325000,-4.834190,-8.214223,-2.503736,-12.430603,67.199661,-9.707795
3.331250,-5.165377,-8.192929,-3.397778,-12.366544,63.341858,-9.525402
3.337500,-5.504749,-8.173315,-3.987385,-12.295316,59.517155,-9.353906
3.343750,-5.850439,-8.155834,-4.396350,-12.216725,55.719933,-9.193084
3.350000,-6.197925,-8.140392,-4.760818,-12.130597,51.943134,-9.042966
3.356250,-6.540914,-8.126364,-5.221042,-12.036796,48.180248,-8.903716
3.362500,-6.876162,-8.112838,-5.911448,-11.934854,44.428089,-8.775265
3.368750,-7.203957,-8.099077,-6.956908,-11.824366,40.684582,-8.657207
3.375000,-7.529618,-8.085323,-8.466940,-11.705341,36.943523,-8.550073
3.381250,-7.860127,-8.072557,-8.362240,-11.577810,33.200779,-8.454141
3.387500,-8.199143,-8.061742,-8.063274,-11.441646,29.454348,-8.369267
3.393750,-8.544494,-8.053362,-9.004745,-11.296885,25.702087,-8.295550
3.400000,-8.890363,-8.047204,-9.140132,-11.143852,21.940355,-8.233002
3.406250,-9.230390,-8.042662,-8.634355,-10.983013,18.165771,-8.181733
3.412500,-9.560515,-8.038671,-7.685529,-10.814736,14.377015,-8.141758
3.418750,-9.879058,-8.034255,-6.517280,-10.639620,10.572598,-8.112877
3.425000,-10.189470,-8.028928,-5.367597,-10.458159,6.752573,-8.095336
3.431250,-10.498934,-8.023033,-4.476062,-10.270835,2.916355,-8.089058
3.437500,-10.816238,-8.017970,-4.073610,-10.078187,-0.935279,-8.094123
3.443750,-11.145736,-8.015180,-2.201372,-9.880622,-4.800673,-8.110633
3.450000,-11.484230,-8.015280,-0.398893,-9.678677,-8.679029,-8.138728
3.456250,-11.824106,-8.018089,-0.206126,-9.472692,-12.568618,-8.178479
3.462500,-12.156347,-8.022818,0.337159,-9.262903,-16.467590,-8.229962
3.468750,-12.476665,-8.028351,1.001525,-9.049858,-20.374502,-8.293276
3.475000,-12.785453,-8.034002,1.547974,-8.834113,-24.289042,-8.368477
3.481250,-13.087070,-8.039549,1.740677,-8.616047,-28.208506,-8.455363
3.487500,-13.388494,-8.045794,1.358985,-8.396283,-32.130783,-8.553596
3.493750,-13.696961,-8.054008,0.205514,-8.175759,-36.054359,-8.663116
3.500000,-14.013821,-8.065321,-1.882347,-7.955364,-39.977852,-8.783666
3.506250,-14.334333,-8.080127,-2.853934,-7.735940,-43.898495,-8.914667
3.512500,-14.649530,-8.097828,-4.140055,-7.518187,-47.812252,-9.055449
3.518750,-14.952495,-8.117503,-5.266154,-7.303243,-51.717152,-9.205357
3.525000,-15.240149,-8.138000,-7.663776,-7.092031,-55.611355,-9.363926
3.531250,-15.513896,-8.158764,-9.282500,-6.885425,-59.490845,-9.530069
3.537500,-15.779655,-8.179980,-10.281463,-6.684090,-63.351055,-9.702778
3.543750,-16.043558,-8.202644,-10.855412,-6.488977,-67.189743,-9.881356
3.550000,-16.310583,-8.228177,-11.224503,-6.301162,-71.004311,-10.065136
3.556250,-16.578291,-8.257377,-11.618971,-6.121237,-74.789459,-10.253109
3.562500,-16.838415,-8.290048,-12.270203,-5.949615,-78.539665,-10.444050
3.568750,-17.081087,-8.325406,-13.401464,-5.787052,-82.252235,-10.637420
3.575000,-17.299105,-8.362427,-13.046830,-5.634559,-85.925735,-10.832448
3.581250,-17.489935,-8.400189,-12.735706,-5.492515,-89.557228,-11.028213
3.587500,-17.654007,-8.437832,-12.101182,-5.360989,-93.142601,-11.223386
3.593750,-17.794088,-8.475204,-12.690468,-5.240292,-96.681244,-11.416744
3.600000,-17.915087,-8.512720,-12.571168,-5.130968,-100.174217,-11.607389
3.606250,-18.020056,-8.550986,-12.014599,-5.033228,-103.621986,-11.794106
3.612500,-18.107733,-8.590210,-11.312278,-4.946901,-107.021103,-11.975327
3.618750,-18.173145,-8.629691,-10.764454,-4.871789,-110.370148,-12.149555
3.625000,-18.210365,-8.668548,-10.666599,-4.807970,-113.670441,-12.315815
3.631250,-18.217058,-8.705698,-11.290498,-4.755278,-116.922920,-12.472922
3.637500,-18.194757,-8.740257,-10.701264,-4.713062,-120.125801,-12.619678
3.643750,-18.148766,-8.771844,-10.447339,-4.680798,-123.279343,-12.754887
3.650000,-18.084356,-8.800564,-10.165382,-4.657992,-126.385269,-12.877768
3.656250,-18.007328,-8.826908,-9.493063,-4.644156,-129.446060,-12.987408
3.662500,-17.921156,-8.851349,-9.979403,-4.638703,-132.462646,-13.083087
3.668750,-17.825853,-8.873941,-9.693521,-4.641021,-135.436829,-13.164097
3.675000,-17.718906,-8.894418,-8.909021,-4.650667,-138.371185,-13.229938
3.681250,-17.598577,-8.912267,-7.923484,-4.667090,-141.268646,-13.280210
3.687500,-17.465149,-8.926923,-7.041487,-4.689665,-142.237091,-13.314738
3.693750,-17.321022,-8.938131,-6.560539,-4.717766,-142.900513,-13.333150
3.700000,-17.170931,-8.945862,-6.756717,-4.750906,-142.731491,-13.335478
3.706250,-17.019566,-8.950596,-5.702682,-4.788704,-141.242737,-13.321530
3.712500,-16.870354,-8.952835,-4.952029,-4.830699,-138.012650,-13.291558
3.718750,-16.725243,-8.952974,-4.146153,-4.876485,-132.705170,-13.245613
3.725000,-16.582998,-8.951038,-2.925641,-4.925636,-125.087448,-13.183676
3.731250,-16.442366,-8.946743,-2.844452,-4.977720,-115.042694,-13.105899
3.737500,-16.302290,-8.939801,-1.977046,-5.032489,-102.575325,-13.012894
3.743750,-16.164440,-8.930057,-0.602239,-5.089877,-87.811493,-12.905606
3.750000,-16.032360,-8.917626,0.980160,-5.149498,-70.990768,-12.784605
3.756250,-15.909701,-8.902820,2.462764,-5.210753,-52.454975,-12.650744
3.762500,-15.799168,-8.886095,3.544588,-5.273329,-32.633709,-12.505025
3.768750,-15.702589,-8.868048,3.945930,-5.337103,-12.023252,-12.348711
3.775000,-15.620539,-8.849031,5.592977,-5.401958,8.840573,-12.183014
3.781250,-15.551556,-8.829116,6.932250,-5.467426,29.411140,-12.008882
3.787500,-15.494287,-8.808238,8.323106,-5.533026,49.155441,-11.827103
3.793750,-15.449169,-8.786487,8.228023,-5.598670,67.578163,-11.638768
3.800000,-15.417110,-8.764359,8.607944,-5.664260,84.250145,-11.444999
3.806250,-15.400763,-8.742238,9.236023,-5.729490,98.829552,-11.246554
3.812500,-15.401496,-8.720840,9.875212,-5.794047,111.079628,-11.044397
3.818750,-15.417624,-8.700737,10.289030,-5.857769,120.876762,-10.839303
3.825000,-15.446527,-8.682067,10.254353,-5.920585,128.219254,-10.632172
3.831250,-15.484788,-8.664866,9.572941,-5.982369,133.227280,-10.423753
3.837500,-15.529330,-8.648727,8.080567,-6.043055,136.137085,-10.214849
3.843750,-15.578016,-8.633530,7.823869,-6.102517,137.287445,-10.006252
3.850000,-15.631567,-8.619262,7.369671,-6.160710,137.105026,-9.798723
3.856250,-15.693230,-8.606462,5.294974,-6.217350,136.081558,-9.593019
3.862500,-15.764091,-8.595929,3.682138,-6.272388,134.749557,-9.390036
3.868750,-15.843579,-8.588400,2.422981,-6.325881,131.488022,-9.190564
3.875000,-15.927206,-8.584104,1.394659,-6.377751,128.192581,-8.995364
3.881250,-16.007633,-8.582698,0.465111,-6.427896,124.865654,-8.805044
3.887500,-16.077971,-8.583496,-0.502498,-6.476354,121.508514,-8.620209
3.893750,-16.133116,-8.585374,-1.640800,-6.523295,118.122398,-8.441374
3.900000,-16.171083,-8.587651,-3.071471,-6.568788,114.709435,-8.268776
3.906250,-16.196571,-8.590355,-4.900846,-6.612803,111.271713,-8.102489
3.912500,-16.213440,-8.594110,-5.046550,-6.655522,107.810593,-7.942816
3.918750,-16.223343,-8.599639,-4.931452,-6.697419,104.326370,-7.789894
3.925000,-16.223320,-8.607164,-5.988596,-6.738566,100.820702,-7.643682
3.931250,-16.205133,-8.616065,-6.169120,-6.779011,97.296074,-7.504144
3.937500,-16.161409,-8.625190,-5.636575,-6.818914,93.751678,-7.371350
3.943750,-16.085947,-8.632775,-4.589304,-6.858537,90.186661,-7.245536
3.950000,-15.977393,-8.637121,-3.248612,-6.898003,86.601028,-7.126902
3.956250,-15.840398,-8.637321,-1.849108,-6.937119,82.995560,-7.015458
3.962500,-15.685631,-8.633702,-0.627222,-6.975762,79.369095,-6.911392
3.968750,-15.523443,-8.627337,0.188521,-7.014207,75.719963,-6.815210
3.975000,-15.358007,-8.619157,2.560882,-7.052389,72.046768,-6.727397
3.981250,-15.186153,-8.609109,4.955867,-7.090147,68.349594,-6.648242
3.987500,-15.000924,-8.596349,5.838211,-7.127384,64.629028,-6.578109
3.993750,-14.797029,-8.579483,7.170196,-7.164063,60.884827,-6.517427
4.000000,-14.573509,-8.557001,8.725074,-7.200196,57.117947,-6.466624
4.006250,-14.334914,-8.527905,10.266015,-7.235746,53.329292,-6.425939
4.012500,-14.091636,-8.492125,11.556908,-7.270681,49.519192,-6.395682
4.018750,-13.857856,-8.451080,12.375431,-7.304953,45.688984,-6.376144
4.025000,-13.645149,-8.406616,12.524227,-7.338574,41.840149,-6.367329
4.031250,-13.456798,-8.360308,11.839483,-7.371226,37.973335,-6.369270
4.037500,-13.286872,-8.312505,12.368024,-7.402961,34.089897,-6.382041
4.043750,-13.127913,-8.262439,12.675194,-7.433598,30.190403,-6.405599
4.050000,-12.973154,-8.208847,11.340635,-7.462910,26.277252,-6.439645
4.056250,-12.822044,-8.150631,10.446959,-7.490715,22.351976,-6.484072
4.062500,-12.681469,-8.087500,9.887438,-7.517150,18.414827,-6.538810
4.068750,-12.563139,-8.020179,9.539893,-7.542144,14.466899,-6.603801
4.075000,-12.479321,-7.950650,9.274543,-7.565573,10.510776,-6.678645
4.081250,-12.437023,-7.880914,8.956981,-7.587485,6.547522,-6.763083
4.087500,-12.432961,-7.812189,8.454252,-7.608253,2.575637,-6.857402
4.093750,-12.457392,-7.744416,7.644200,-7.628144,-1.404358,-6.961515
4.100000,-12.500641,-7.676576,6.423335,-7.646949,-5.390995,-7.074865
4.106250,-12.555955,-7.607475,6.875815,-7.664672,-9.383097,-7.197125
4.112500,-12.624321,-7.536385,5.682421,-7.681679,-13.384187,-7.328405
4.118750,-12.710606,-7.463259,4.924913,-7.698324,-17.396057,-7.468628
4.125000,-12.825493,-7.389258,4.498108,-7.714325,-21.418360,-7.617475
4.131250,-12.977057,-7.316359,4.281208,-7.729293,-25.451008,-7.774365
4.137500,-13.166772,-7.246245,4.140270,-7.743363,-29.497824,-7.939359
4.143750,-13.387973,-7.179490,3.936741,-7.756784,-33.563358,-8.112612
4.150000,-13.629493,-7.115551,3.540904,-7.769259,-37.649906,-8.293726
4.156250,-13.881550,-7.053339,2.833099,-7.780429,-41.757801,-8.481948
4.162500,-14.141200,-6.991931,1.706774,-7.790295,-45.890839,-8.676895
4.168750,-14.410679,-6.930994,2.245059,-7.799139,-50.054394,-8.878369
4.175000,-14.694832,-6.870779,1.134160,-7.806963,-54.249954,-9.085711
4.181250,-15.000696,-6.812223,0.459123,-7.813807,-58.480869,-9.298224
4.187500,-15.332161,-6.756635,0.114526,-7.819851,-62.749310,-9.515450
4.193750,-15.687803,-6.704954,-0.021527,-7.825333,-67.057869,-9.737084
4.200000,-16.059980,-6.657070,-0.079663,-7.830358,-71.408257,-9.962337
4.206250,-16.439642,-6.612034,-0.195366,-7.834880,-75.802017,-10.190737
4.212500,-16.821192,-6.568791,-0.502271,-7.839131,-80.241714,-10.421818
4.218750,-17.204304,-6.526756,-1.123516,-7.842992,-84.731056,-10.654837
4.225000,-17.591841,-6.485903,-2.165153,-7.846323,-89.271454,-10.889031
4.231250,-17.988924,-6.446729,-1.545240,-7.848851,-93.866562,-11.123824
4.237500,-18.399191,-6.410097,-2.580521,-7.850556,-98.519234,-11.358438
4.243750,-18.822674,-6.376756,-3.187808,-7.851030,-103.230354,-11.592096
4.250000,-19.254940,-6.346931,-3.470674,-7.850064,-106.106201,-11.823897
4.256250,-19.688940,-6.320201,-3.551361,-7.847723,-108.769341,-12.053202
4.262500,-20.118996,-6.295742,-3.561571,-7.844054,-110.688942,-12.279322
4.268750,-20.543028,-6.272915,-3.633786,-7.838982,-111.372490,-12.500961
4.275000,-20.962376,-6.251415,-3.897007,-7.832420,-110.391289,-12.716882
4.281250,-21.379732,-6.231442,-4.473135,-7.824762,-107.404404,-12.926189
4.287500,-21.798334,-6.213360,-5.469093,-7.816453,-102.174057,-13.128017
4.293750,-22.219179,-6.197549,-4.800142,-7.807527,-94.574081,-13.321024
4.300000,-22.641552,-6.184210,-5.781101,-7.797868,-84.597908,-13.504251
4.306250,-23.061308,-6.173067,-6.329823,-7.787631,-72.362579,-13.676823
4.312500,-23.475353,-6.163681,-6.555058,-7.776963,-58.100010,-13.838432
4.318750,-23.882599,-6.155541,-6.579124,-7.765562,-42.143322,-13.988609
4.325000,-24.284077,-6.148561,-6.534343,-7.753129,-24.912966,-14.126743
4.331250,-24.681246,-6.142800,-6.557230,-7.739602,-6.895084,-14.252488
4.337500,-25.075525,-6.138479,-6.781242,-7.724787,11.382600,-14.365633
4.343750,-25.466648,-6.135726,-7.327273,-7.708376,29.381260,-14.465833
4.350000,-25.853222,-6.134478,-8.300337,-7.690188,46.576527,-14.552827
4.356250,-26.233074,-6.134470,-7.618004,-7.670529,62.482304,-14.627146
4.362500,-26.603691,-6.135328,-8.594687,-7.649379,76.681244,-14.689304
4.368750,-26.965071,-6.136746,-9.143783,-7.626459,88.843353,-14.739614
4.375000,-27.318459,-6.138639,-9.370437,-7.602028,98.739838,-14.778827
4.381250,-27.666077,-6.141206,-9.398886,-7.576653,106.255211,-14.808340
4.387500,-28.009018,-6.144702,-9.361560,-7.550726,111.394463,-14.829068
4.393750,-28.346895,-6.149195,-9.392033,-7.524171,114.286873,-14.841506
4.400000,-28.678162,-6.154597,-9.622285,-7.497165,115.173653,-14.846535
4.406250,-29.001268,-6.160505,-10.177320,-7.470116,114.396782,-14.845411
4.412500,-29.315369,-6.166568,-11.165060,-7.443143,112.387566,-14.838850
4.418750,-29.621342,-6.172651,-10.501428,-7.415901,109.642441,-14.827669
4.425000,-29.921669,-6.178843,-11.503501,-7.388505,106.695908,-14.813075
4.431250,-30.218796,-6.185523,-12.090788,-7.361186,101.927010,-14.796303
4.437500,-30.513927,-6.193034,-12.367926,-7.333852,97.229706,-14.778273
4.443750,-30.805973,-6.201578,-12.454236,-7.306198,92.605850,-14.759540
4.450000,-31.092070,-6.210997,-12.479722,-7.278422,88.053360,-14.740977
4.456250,-31.369102,-6.220837,-12.579484,-7.250970,83.567169,-14.723409
4.462500,-31.634945,-6.230431,-12.882656,-7.223996,79.145668,-14.707242
4.468750,-31.889977,-6.239409,-13.506233,-7.197354,74.788086,-14.692513
4.475000,-32.136486,-6.247729,-14.553442,-7.171274,70.492226,-14.679589
4.481250,-32.378136,-6.255594,-13.940629,-7.146056,66.253532,-14.668965
4.487500,-32.617554,-6.263654,-13.087996,-7.121839,62.070934,-14.661378
4.493750,-32.855003,-6.272066,-13.426724,-7.098443,57.941963,-14.656878
4.500000,-33.087708,-6.280802,-12.909061,-7.075869,53.864193,-14.655906
4.506250,-33.312435,-6.289367,-11.697388,-7.053903,49.833496,-14.658641
4.512500,-33.526783,-6.297029,-9.988731,-7.031893,45.846264,-14.664817
4.518750,-33.730812,-6.303247,-8.005817,-7.009616,41.899395,-14.674698
4.525000,-33.927849,-6.307858,-5.986659,-6.987141,37.986996,-14.688673
4.531250,-34.122620,-6.311116,-4.168602,-6.964096,34.106415,-14.706868
4.537500,-34.320377,-6.313734,-2.775980,-6.939706,30.258371,-14.728834
4.543750,-34.523464,-6.316445,0.152551,-6.913843,26.439844,-14.754622
4.550000,-34.730484,-6.319643,3.076534,-6.887289,22.645477,-14.785052
4.556250,-34.938148,-6.323149,4.459167,-6.860283,18.872484,-14.820267
4.562500,-35.142162,-6.326429,6.266802,-6.832535,15.122115,-14.859510
4.568750,-35.340443,-6.328831,8.273618,-6.804125,11.392524,-14.902464
4.575000,-35.534195,-6.329971,10.238612,-6.775823,7.676206,-14.949306
4.581250,-35.727531,-6.329918,11.924536,-6.748241,3.968471,-14.999834
4.587500,-35.925804,-6.329341,13.112514,-6.721050,0.269825,-15.052875
4.593750,-36.132915,-6.329098,13.606416,-6.694273,-3.422101,-15.107880
4.600000,-36.349171,-6.329861,13.238618,-6.668751,-7.113190,-15.164973
4.606250,-36.571068,-6.331785,14.056247,-6.644714,-10.806636,-15.223924
4.612500,-36.793232,-6.334475,14.630580,-6.621521,-14.500014,-15.283677
4.618750,-37.011814,-6.337249,13.541839,-6.598686,-18.193127,-15.343811
4.625000,-37.225246,-6.339447,12.870505,-6.576677,-21.893703,-15.404520
4.631250,-37.435493,-6.340808,12.509778,-6.555709,-25.608210,-15.465901
4.637500,-37.647362,-6.341673,12.342278,-6.535131,-29.335657,-15.527284
4.643750,-37.865906,-6.342847,12.240667,-6.514438,-33.078598,-15.588187
4.650000,-38.092903,-6.345258,12.067506,-6.494211,-36.845505,-15.649113
4.656250,-38.325989,-6.349370,11.690124,-6.474925,-40.642368,-15.711023
4.662500,-38.559372,-6.354875,10.990488,-6.456413,-44.467316,-15.774027
4.668750,-38.786766,-6.360919,9.866845,-6.438312,-48.315582,-15.837144
4.675000,-39.005413,-6.366915,10.400794,-6.421030,-52.183769,-15.900244
4.681250,-39.215431,-6.372270,9.274282,-6.404989,-56.077457,-15.963885
4.687500,-39.418400,-6.376558,8.571539,-6.389977,-59.995548,-16.028074
4.693750,-39.618206,-6.379950,8.187476,-6.375783,-63.932606,-16.092695
4.700000,-39.818676,-6.382835,7.997876,-6.362658,-67.883049,-16.157127
4.706250,-40.022369,-6.385620,7.869079,-6.350690,-71.840393,-16.220524
4.712500,-40.228077,-6.388513,7.666373,-6.339868,-75.795235,-16.281555
4.718750,-40.432983,-6.391180,7.259296,-6.330091,-79.738419,-16.338758
4.725000,-40.634201,-6.392944,6.526478,-6.321445,-83.662086,-16.390654
4.731250,-40.831852,-6.393230,5.363650,-6.314055,-87.559036,-16.435877
4.737500,-41.028076,-6.391785,5.856429,-6.307890,-91.424316,-16.472765
