Anritsu VNA Frequency[GHz],S21[deg],S21[dB],S11[deg],S11[dB],S22[deg],S22[dB]
1338032395.73,2012_05_26_12:39:55,+298.08,+297.92,+02.989,+297.80,+297.23,+298.18,+297.78,+298.21,243.405884,-6.627
3.006250,-111.778282,-14.611412,-4.392846,-4.658934,-80.856400,-10.555423
3.012500,-111.778282,-14.611412,-4.392846,-4.658934,-80.856400,-10.555423
3.018750,-111.778282,-14.611412,-4.392846,-4.658934,-80.856400,-10.555423
3.025000,-111.778282,-14.611412,-4.392846,-4.658934,-80.856400,-10.555423
3.031250,-111.778282,-14.611412,-4.392846,-4.658934,-80.856400,-10.555423
3.037500,-111.778282,-14.611412,-4.392846,-4.658934,-80.856400,-10.555423
3.043750,-111.778282,-14.611412,-4.392846,-4.658934,-80.856400,-10.555423
3.050000,-111.778282,-14.611412,-4.392846,-4.658934,-80.856400,-10.555423
3.056250,-111.778282,-14.611412,-4.392846,-4.658934,-80.856400,-10.555423
3.062500,-111.778282,-14.611412,-4.392846,-4.658934,-80.856400,-10.555423
3.068750,-111.778282,-14.611412,-4.392846,-4.658934,-80.856400,-10.555423
3.075000,-111.778282,-14.611412,-4.392846,-4.658934,-80.856400,-10.555423
3.081250,-111.778282,-14.611412,-4.392846,-4.658934,-80.856400,-10.555423
3.087500,-111.778282,-14.611412,-4.392846,-4.658934,-80.856400,-10.555423
3.093750,-111.778282,-14.423851,-4.392846,-4.721453,-80.856400,-10.959393
3.100000,-112.856003,-14.249012,-4.893087,-4.781590,-86.152809,-11.360521
3.106250,-113.970207,-14.086278,-6.570644,-4.839194,-89.737442,-11.754858
3.112500,-115.106575,-13.934625,-7.379118,-4.894123,-93.238831,-12.138086
3.118750,-116.254143,-13.792899,-7.483411,-4.946380,-96.127251,-12.505549
3.125000,-117.405724,-13.660252,-7.081827,-4.995786,-97.909836,-12.852578
3.131250,-118.559875,-13.535973,-6.397709,-5.042257,-98.154373,-13.174427
3.137500,-119.713219,-13.419887,-5.667797,-5.085884,-96.508476,-13.467104
3.143750,-120.863670,-13.311702,-5.131039,-5.126756,-92.719055,-13.726751
3.150000,-122.008766,-13.211142,-5.014884,-5.164896,-86.645699,-13.950084
3.156250,-123.142639,-13.117483,-3.357800,-5.200366,-78.262764,-14.134489
3.162500,-124.261780,-13.029968,-1.696511,-5.233271,-67.665802,-14.277980
3.168750,-125.363548,-12.948001,-1.567372,-5.263648,-55.061413,-14.379282
3.175000,-126.446281,-12.871076,-1.008684,-5.291774,-40.758247,-14.437687
3.181250,-127.510284,-12.798591,-0.248605,-5.317648,-25.150946,-14.453466
3.187500,-128.555603,-12.730488,0.474626,-5.341454,-8.697791,-14.427867
3.193750,-129.583893,-12.666820,0.926014,-5.363322,8.101599,-14.362847
3.200000,-130.592590,-12.607318,0.882847,-5.383111,24.732832,-14.260967
3.206250,-131.579468,-12.551439,0.148048,-5.400861,40.691135,-14.125712
3.212500,-132.543686,-12.498789,-1.442302,-5.416494,55.507412,-13.960926
3.218750,-133.485031,-12.449220,-1.839901,-5.429981,68.774353,-13.770618
3.225000,-134.404236,-12.402562,-2.478406,-5.441217,80.164490,-13.558950
3.231250,-135.302765,-12.358845,-2.884582,-5.450087,89.448357,-13.329764
3.237500,-136.179504,-12.318085,-4.491228,-5.456497,96.509201,-13.086727
3.243750,-137.034180,-12.280045,-5.250426,-5.460344,101.345695,-12.833338
3.250000,-137.866013,-12.244534,-5.324699,-5.461667,104.076263,-12.573093
3.256250,-138.672043,-12.210793,-4.912042,-5.460485,104.931648,-12.309293
3.262500,-139.451782,-12.178449,-4.233809,-5.456886,104.243095,-12.044815
3.268750,-140.206558,-12.147189,-3.526093,-5.450930,102.425224,-11.781917
3.275000,-140.939331,-12.117015,-3.027223,-5.442688,99.956383,-11.522651
3.281250,-141.651886,-12.088260,-2.966693,-5.432543,97.353386,-11.268813
3.287500,-142.344147,-12.060821,-1.384654,-5.420591,92.978851,-11.021607
3.293750,-143.013275,-12.034417,0.181741,-5.407074,88.713760,-10.782046
3.300000,-143.656937,-12.008485,0.194988,-5.392041,84.543633,-10.550867
3.306250,-144.272583,-11.982261,0.614575,-5.375693,80.455315,-10.328815
3.312500,-144.860077,-11.955008,1.211749,-5.358215,76.437927,-10.116627
3.318750,-145.422745,-11.926248,1.748420,-5.339645,72.480507,-9.914544
3.325000,-145.967087,-11.896503,1.988877,-5.319936,68.573616,-9.722827
3.331250,-146.498627,-11.866625,1.709541,-5.299442,64.708199,-9.541898
3.337500,-147.021286,-11.837391,0.711770,-5.278264,60.875404,-9.371861
3.343750,-147.532181,-11.809294,-1.166008,-5.256525,57.069023,-9.212635
3.350000,-148.026855,-11.782393,-1.875802,-5.234320,53.283413,-9.064235
3.356250,-148.501297,-11.755919,-2.851531,-5.211616,49.513393,-8.926658
3.362500,-148.951370,-11.729032,-3.620886,-5.188679,45.753330,-8.799938
3.368750,-149.376099,-11.700928,-5.617429,-5.165439,41.999992,-8.683957
3.375000,-149.779205,-11.671408,-6.794354,-5.141936,38.249577,-8.578796
3.381250,-150.167892,-11.641279,-7.316445,-5.118437,34.498158,-8.484700
3.387500,-150.547501,-11.611572,-7.383738,-5.095078,30.741806,-8.401718
3.393750,-150.915375,-11.582608,-7.219024,-5.071935,26.979317,-8.329819
3.400000,-151.264862,-11.553896,-7.060033,-5.049078,23.206860,-8.268998
3.406250,-151.589279,-11.524472,-7.147165,-5.026657,19.422567,-8.219265
3.412500,-151.883560,-11.493026,-7.710892,-5.004868,15.623916,-8.180691
3.418750,-152.147232,-11.458240,-6.791862,-4.983810,11.810442,-8.153337
3.425000,-152.383072,-11.419328,-5.928993,-4.963665,7.981997,-8.137139
3.431250,-152.598953,-11.376345,-4.767143,-4.944643,4.138875,-8.132244
3.437500,-152.804016,-11.330444,-4.863276,-4.927000,0.281787,-8.138678
3.443750,-153.004288,-11.282691,-4.293583,-4.910993,-3.588030,-8.156586
3.450000,-153.197479,-11.233553,-3.338468,-4.896983,-7.468735,-8.186116
3.456250,-153.377380,-11.182516,-2.301414,-4.885320,-11.358719,-8.227327
3.462500,-153.536926,-11.128387,-1.494030,-4.876358,-15.257581,-8.280343
3.468750,-153.673065,-11.069905,-1.219527,-4.870577,-19.162922,-8.345122
3.475000,-153.788239,-11.005977,-1.759706,-4.868415,-23.074467,-8.421535
3.481250,-153.889023,-10.936047,-1.191227,-4.870275,-26.990097,-8.509517
3.487500,-153.986221,-10.860616,-1.071977,-4.876580,-30.908178,-8.608737
3.493750,-154.089539,-10.780707,-1.047669,-4.887758,-34.826931,-8.718851
3.500000,-154.204605,-10.697337,-0.763820,-4.904236,-38.743595,-8.839423
3.506250,-154.331207,-10.610755,-1.778147,-4.926700,-42.656143,-8.970148
3.512500,-154.464767,-10.520293,-2.166935,-4.955381,-46.561787,-9.110265
3.518750,-154.601868,-10.425024,-2.209383,-4.990791,-50.457043,-9.259155
3.525000,-154.744949,-10.323974,-2.208858,-5.033367,-54.338699,-9.416054
3.531250,-154.900391,-10.216581,-2.475051,-5.083511,-58.204311,-9.580262
3.537500,-155.078110,-10.103435,-3.309390,-5.141501,-62.049698,-9.750658
3.543750,-155.290176,-9.985915,-4.989363,-5.207585,-65.870827,-9.926313
3.550000,-155.546829,-9.865973,-5.589330,-5.282318,-69.665916,-10.106579
3.556250,-155.850433,-9.745121,-6.663867,-5.366028,-73.431862,-10.290625
3.562500,-156.197281,-9.623926,-7.850810,-5.458565,-77.163666,-10.477320
3.568750,-156.581360,-9.502337,-8.787905,-5.559620,-80.857353,-10.665428
3.575000,-156.998810,-9.380265,-9.133254,-5.669463,-84.512047,-10.854245
3.581250,-157.449829,-9.257696,-10.474227,-5.788152,-88.128059,-11.043201
3.587500,-157.938110,-9.134837,-10.928121,-5.915050,-91.702942,-11.230968
3.593750,-158.466965,-9.012606,-10.828429,-6.049297,-95.234497,-11.416107
3.600000,-159.042389,-8.892389,-10.542037,-6.190182,-98.723114,-11.597471
3.606250,-159.667114,-8.775926,-10.451089,-6.337034,-102.169815,-11.774122
3.612500,-160.338760,-8.664326,-10.928323,-6.488850,-105.574028,-11.944892
3.618750,-161.050278,-8.557964,-10.151652,-6.644267,-108.933876,-12.108301
3.625000,-161.793030,-8.456675,-9.785995,-6.802062,-112.247795,-12.263103
3.631250,-162.561386,-8.360136,-9.584797,-6.961149,-115.518166,-12.408575
3.637500,-163.352112,-8.268280,-9.294479,-7.120351,-118.745003,-12.543780
3.643750,-164.165009,-8.181227,-8.664603,-7.278238,-121.927010,-12.667631
3.650000,-165.000732,-8.099551,-7.463800,-7.433561,-125.065750,-12.779441
3.656250,-165.859177,-8.023982,-7.385190,-7.585052,-128.163055,-12.878451
3.662500,-166.737259,-7.955315,-6.644338,-7.731561,-131.221176,-12.964052
3.668750,-167.629974,-7.893708,-5.655766,-7.871938,-134.241302,-13.035677
3.675000,-166.634369,-7.838919,-4.845184,-8.005292,-137.225204,-13.092870
3.681250,-165.364365,-7.790346,-4.628600,-8.130899,-140.176529,-13.135417
3.687500,-163.282104,-7.747373,-3.221411,-8.248001,-141.203079,-13.163021
3.693750,-159.892960,-7.709452,-2.316115,-8.356039,-141.927551,-13.175560
3.700000,-154.769836,-7.676353,-1.683755,-8.454755,-141.821487,-13.172856
3.706250,-147.572006,-7.648183,-1.078969,-8.544131,-140.396927,-13.154973
3.712500,-138.062469,-7.625119,-0.251394,-8.624262,-137.230331,-13.121853
3.718750,-126.117798,-7.607143,1.042306,-8.695487,-131.985718,-13.073741
3.725000,-111.734177,-7.593899,1.132046,-8.758285,-124.429794,-13.010724
3.731250,-95.028305,-7.584672,1.834902,-8.812979,-114.443291,-12.932836
3.737500,-76.234444,-7.578651,2.773731,-8.860114,-102.029381,-12.840405
3.743750,-55.692356,-7.575171,3.562902,-8.900599,-87.314110,-12.734200
3.750000,-33.830807,-7.573883,3.830456,-8.935596,-70.537506,-12.615106
3.756250,-11.144970,-7.574583,3.238401,-8.965523,-52.042183,-12.483948
3.762500,11.830479,-7.577275,3.666016,-8.990837,-32.256023,-12.341264
3.768750,34.548725,-7.582233,3.523392,-9.012364,-11.675340,-12.188172
3.775000,56.476177,-7.589260,3.150090,-9.030996,9.163498,-12.025970
3.781250,77.121979,-7.598183,2.904958,-9.047255,29.712130,-11.855535
3.787500,96.059769,-7.608697,3.148263,-9.061372,49.437382,-11.677608
3.793750,112.948410,-7.620628,2.326161,-9.073734,67.845207,-11.493009
3.800000,127.548782,-7.634240,2.364658,-9.084839,84.505661,-11.302842
3.806250,139.736618,-7.649992,2.985241,-9.094916,99.075851,-11.108114
3.812500,149.511078,-7.668479,3.887885,-9.103924,111.319389,-10.909439
3.818750,156.995316,-7.689986,4.763996,-9.111707,121.113350,-10.707654
3.825000,162.429779,-7.714550,5.310515,-9.118202,128.455673,-10.503640
3.831250,166.160202,-7.741879,5.245979,-9.123173,133.466034,-10.298131
3.837500,168.617172,-7.771410,6.493053,-9.126424,136.380371,-10.091868
3.843750,170.295319,-7.802490,7.492372,-9.127575,137.537430,-9.885677
3.850000,171.728180,-7.834771,8.597157,-9.126454,137.363510,-9.680243
3.856250,171.292160,-7.868208,8.265236,-9.122452,136.349396,-9.476307
3.862500,170.880447,-7.903033,8.451937,-9.115365,135.027374,-9.283218
3.868750,170.494019,-7.939261,8.921563,-9.105099,131.783936,-9.085111
3.875000,170.136353,-7.976429,9.428913,-9.091741,128.498672,-8.890975
3.881250,169.812180,-8.013741,9.731652,-9.075353,125.179420,-8.701473
3.887500,169.524750,-8.049994,9.600480,-9.056222,121.827812,-8.517242
3.893750,169.274765,-8.083730,8.830757,-9.034898,118.444443,-8.338917
3.900000,169.059204,-8.114121,7.255282,-9.011930,115.031540,-8.166849
3.906250,168.869370,-8.141226,6.917134,-8.987823,111.591698,-8.001251
3.912500,168.695236,-8.165847,6.379412,-8.963467,108.126472,-7.842364
3.918750,168.529999,-8.189037,4.216341,-8.939791,104.635941,-7.690538
3.925000,168.372620,-8.211512,2.509868,-8.917540,101.123177,-7.545785
3.931250,168.226501,-8.233360,1.154729,-8.897213,97.590515,-7.407935
3.937500,168.096222,-8.253982,0.028227,-8.879391,94.038658,-7.277196
3.943750,167.985733,-8.272467,-1.002104,-8.864795,90.466797,-7.153745
3.950000,167.896057,-8.287705,-2.068942,-8.853700,86.875359,-7.037695
3.956250,167.821747,-8.299539,-3.300708,-8.845993,83.265587,-6.928942
3.962500,167.754089,-8.308847,-4.816555,-8.841473,79.637085,-6.827668
3.968750,167.684998,-8.317136,-6.720637,-8.840208,75.987526,-6.734297
3.975000,167.613083,-8.325695,-6.926721,-8.841790,72.315643,-6.649127
3.981250,167.545242,-8.334651,-6.851492,-8.845662,68.622108,-6.572466
3.987500,167.492126,-8.343068,-7.925164,-8.851218,64.906441,-6.504652
3.993750,167.463135,-8.349387,-8.098216,-8.857972,61.168407,-6.446110
4.000000,167.461945,-8.351938,-7.532609,-8.865617,57.408710,-6.397203
4.006250,167.486862,-8.349403,-6.425611,-8.873706,53.627960,-6.358255
4.012500,167.528381,-8.341482,-5.000292,-8.881919,49.826324,-6.329552
4.018750,167.574615,-8.329205,-3.493872,-8.889963,46.005116,-6.311403
4.025000,167.615311,-8.314138,-2.145525,-8.897627,42.165169,-6.303880
4.031250,167.647583,-8.297541,-1.185445,-8.904428,38.307590,-6.306992
4.037500,167.676941,-8.279493,1.343599,-8.910404,34.433060,-6.320879
4.043750,167.711166,-8.259077,3.901691,-8.915329,30.542315,-6.345555
4.050000,167.756027,-8.234776,4.951324,-8.918956,26.637821,-6.380699
4.056250,167.810989,-8.205442,6.452016,-8.921087,22.720959,-6.426106
4.062500,167.868820,-8.170560,8.172981,-8.921849,18.792149,-6.481863
4.068750,167.917557,-8.130773,9.875729,-8.921174,14.852404,-6.547820
4.075000,167.943451,-8.088112,11.326458,-8.918852,10.903917,-6.623566
4.081250,167.939819,-8.044428,12.302581,-8.914966,6.948595,-6.708979
4.087500,167.908478,-8.000969,12.605718,-8.909923,2.984228,-6.804237
4.093750,167.858643,-7.957514,12.072313,-8.903829,-0.988452,-6.909235
4.100000,167.800064,-7.913110,12.753470,-8.896596,-4.967150,-7.023434
4.106250,167.738480,-7.866426,13.215991,-8.888209,-8.951505,-7.146537
4.112500,167.672531,-7.816687,12.035072,-8.879072,-12.944886,-7.278753
4.118750,167.596542,-7.763804,11.291839,-8.869575,-16.948854,-7.419939
4.125000,167.499527,-7.708905,10.881338,-8.859484,-20.962978,-7.569698
4.131250,167.372391,-7.653935,10.681500,-8.848484,-24.987179,-7.727559
4.137500,167.213379,-7.600553,10.557953,-8.836709,-29.025103,-7.893564
4.143750,167.027817,-7.549386,10.372275,-8.824408,-33.081539,-8.067812
4.150000,166.827286,-7.499875,9.993889,-8.811340,-37.158230,-8.249838
4.156250,166.620148,-7.450883,9.302452,-8.797203,-41.256069,-8.439110
4.162500,166.409271,-7.401514,8.191222,-8.781935,-45.379051,-8.635174
4.168750,166.192245,-7.351424,8.743285,-8.765788,-49.531990,-8.837702
4.175000,165.962845,-7.300911,7.644088,-8.748890,-53.716957,-9.046119
4.181250,165.714172,-7.250904,6.979041,-8.731207,-57.936794,-9.259892
4.187500,165.441498,-7.202794,6.642976,-8.712996,-62.194454,-9.478413
4.193750,165.146194,-7.157520,6.514339,-8.694533,-66.492348,-9.701339
4.200000,164.835327,-7.115078,6.462377,-8.675918,-70.832420,-9.928075
4.206250,164.517319,-7.074559,6.351935,-8.657244,-75.215889,-10.157990
4.212500,164.197647,-7.034955,6.049670,-8.638772,-79.646095,-10.390641
4.218750,163.876556,-6.995708,5.432590,-8.620461,-84.125717,-10.625312
4.225000,163.550491,-6.956785,4.394426,-8.602241,-88.656685,-10.861288
4.231250,163.214172,-6.918796,5.016959,-8.583925,-93.242493,-11.097849
4.237500,162.863907,-6.882649,3.983646,-8.565455,-97.885574,-11.334431
4.243750,162.499161,-6.849122,3.377488,-8.546421,-102.587601,-11.570051
4.250000,162.124207,-6.818572,3.094464,-8.526571,-105.454514,-11.803982
4.256250,161.746628,-6.790476,3.012321,-8.505907,-108.108437,-12.035625
4.262500,161.371124,-6.764216,2.999888,-8.484449,-110.019424,-12.264054
4.268750,161.000015,-6.739005,2.924478,-8.461926,-110.694565,-12.488278
4.275000,160.632446,-6.714753,2.657118,-8.438372,-109.705933,-12.706945
4.281250,160.265518,-6.691495,2.075746,-8.413967,-106.713104,-12.919307
4.287500,159.895477,-6.669764,1.074376,-8.389121,-101.478485,-13.124380
4.293750,159.521774,-6.649918,1.737906,-8.363812,-93.876022,-13.320856
4.300000,159.145401,-6.632147,0.751318,-8.337974,-83.900665,-13.507646
4.306250,158.770248,-6.616264,0.196781,-8.311731,-71.668327,-13.684017
4.312500,158.399155,-6.601760,-0.033839,-8.285229,-57.411808,-13.849524
4.318750,158.033524,-6.588293,-0.063477,-8.258227,-41.464619,-14.003599
4.325000,157.672501,-6.575648,-0.024663,-8.230496,-24.246679,-14.145625
4.331250,157.314178,-6.563884,-0.054798,-8.201980,-6.244943,-14.275346
4.337500,156.957397,-6.553287,-0.287047,-8.172476,12.014208,-14.392377
4.343750,156.602051,-6.544014,-0.842929,-8.141700,29.991714,-14.496163
4.350000,156.249512,-6.536018,-1.828334,-8.109573,47.163452,-14.586668
4.356250,155.902069,-6.528993,-1.159903,-8.076314,63.044437,-14.664242
4.362500,155.562241,-6.522637,-2.152821,-8.041875,77.217293,-14.729271
4.368750,155.229752,-6.516665,-2.720557,-8.005994,89.352821,-14.782148
4.375000,154.903732,-6.510986,-2.967805,-7.968846,99.222420,-14.823644
4.381250,154.581482,-6.505772,-3.018154,-7.930997,106.711540,-14.854887
4.387500,154.262238,-6.501356,-3.003583,-7.892789,111.826210,-14.876873
4.393750,153.946182,-6.497827,-3.057399,-7.854119,114.695152,-14.890082
4.400000,153.634674,-6.494998,-3.311133,-7.815149,115.560478,-14.895319
4.406250,153.329697,-6.492637,-3.889209,-7.776208,114.765175,-14.893719
4.412500,153.032013,-6.490341,-4.898697,-7.737390,112.740128,-14.886168
4.418750,152.740433,-6.487950,-4.256828,-7.698343,109.981476,-14.873412
4.425000,152.453033,-6.485611,-5.280147,-7.659077,107.025085,-14.856606
4.431250,152.166656,-6.483642,-5.888869,-7.619862,102.248856,-14.837033
4.437500,151.879776,-6.482508,-6.188689,-7.580597,97.547218,-14.815691
4.443750,151.593811,-6.482358,-6.299813,-7.540921,92.920624,-14.793298
4.450000,151.311218,-6.483132,-6.353354,-7.501088,88.367119,-14.770515
4.456250,151.034592,-6.484399,-6.485341,-7.461482,83.881294,-14.748418
4.462500,150.765915,-6.485624,-6.826185,-7.422360,79.460976,-14.727324
4.468750,150.505325,-6.486449,-7.493822,-7.383710,75.105484,-14.707439
4.475000,150.250031,-6.486841,-8.592427,-7.345870,70.812286,-14.689022
4.481250,149.996109,-6.487270,-8.038663,-7.309295,66.577972,-14.672758
4.487500,149.741119,-6.488332,-9.147526,-7.274324,62.399750,-14.659047
4.493750,149.485641,-6.490353,-9.834551,-7.241050,58.276840,-14.648137
4.500000,149.232285,-6.493269,-10.205253,-7.209614,54.205509,-14.640371
4.506250,148.985153,-6.496745,-10.381438,-7.180045,50.182697,-14.635782
4.512500,148.747330,-6.500107,-10.493953,-7.151967,46.204723,-14.634146
4.518750,148.519592,-6.502758,-10.678017,-7.125283,42.268749,-14.635568
4.525000,148.299652,-6.504484,-11.067003,-7.100185,38.369408,-14.640402
4.531250,148.083466,-6.505521,-11.781204,-7.076443,34.503792,-14.648738
4.537500,147.866760,-6.506600,-12.923010,-7.053263,30.671339,-14.660164
4.543750,147.647614,-6.508279,-12.407202,-7.030586,26.869188,-14.674570
4.550000,147.427994,-6.510848,-11.657201,-7.009073,23.090021,-14.692850
4.556250,147.211990,-6.514110,-12.105083,-6.988934,19.331831,-14.715014
4.562500,147.004486,-6.517304,-11.697285,-6.969804,15.593495,-14.740622
4.568750,146.807663,-6.519663,-10.592789,-6.951582,11.872528,-14.769238
4.575000,146.620453,-6.520628,-8.990910,-6.934897,8.162890,-14.801090
4.581250,146.438644,-6.520265,-7.113546,-6.920181,4.457737,-14.836224
4.587500,146.256302,-6.518977,-5.192878,-6.907027,0.757218,-14.873587
4.593750,146.069183,-6.517621,-3.464721,-6.895216,-2.939287,-14.912659
4.600000,145.876389,-6.516844,-2.160531,-6.885420,-6.638018,-14.953732
4.606250,145.680618,-6.516754,0.680976,-6.877815,-10.341611,-14.996726
4.612500,145.486710,-6.516878,3.527770,-6.871505,-14.046589,-15.040955
4.618750,145.298706,-6.516480,4.845391,-6.865885,-17.753056,-15.085739
4.625000,145.116684,-6.514937,6.593538,-6.861184,-21.466080,-15.131420
4.631250,144.938538,-6.511917,8.543611,-6.857442,-25.190603,-15.178336
4.637500,144.758240,-6.507781,10.462770,-6.853806,-28.925943,-15.225661
4.643750,144.570358,-6.503400,12.120492,-6.849574,-32.671848,-15.272571
4.650000,144.371536,-6.499720,13.293181,-6.845029,-36.434948,-15.319094
4.656250,144.162369,-6.497515,13.782196,-6.840424,-40.220627,-15.365520
4.662500,143.947861,-6.496858,13.429520,-6.835284,-44.028316,-15.411119
4.668750,143.734039,-6.497162,14.286760,-6.828897,-47.857384,-15.455344
4.675000,143.525421,-6.497673,14.918209,-6.821315,-51.713696,-15.498578
4.681250,143.323303,-6.497838,13.898618,-6.812933,-55.602093,-15.541169
4.687500,143.125198,-6.497487,13.309467,-6.803471,-59.523365,-15.583140
4.693750,142.926712,-6.497094,13.044713,-6.792485,-63.472805,-15.624153
4.700000,142.724564,-6.497301,12.977888,-6.780024,-67.453697,-15.664255
4.706250,142.519348,-6.498582,12.972560,-6.766164,-71.466949,-15.704247
4.712500,142.314621,-6.500950,12.890761,-6.750966,-75.509369,-15.744195
4.718750,142.115799,-6.503811,12.599075,-6.734598,-79.573860,-15.784215
