Anritsu VNA Frequency[GHz],S21[deg],S21[dB],S11[deg],S11[dB],S22[deg],S22[dB]
1338031880.47,2012_05_26_12:31:20,+298.06,+297.90,+02.989,+297.78,+297.20,+298.15,+297.76,+298.18,243.385345,-6.620
3.006250,15.428875,-9.790535,1.811085,-10.071198,-93.083954,-11.751310
3.012500,15.428875,-9.790535,1.811085,-10.071198,-93.083954,-11.751310
3.018750,15.428875,-9.790535,1.811085,-10.071198,-93.083954,-11.751310
3.025000,15.428875,-9.790535,1.811085,-10.071198,-93.083954,-11.751310
3.031250,15.428875,-9.790535,1.811085,-10.071198,-93.083954,-11.751310
3.037500,15.428875,-9.790535,1.811085,-10.071198,-93.083954,-11.751310
3.043750,15.428875,-9.790535,1.811085,-10.071198,-93.083954,-11.751310
3.050000,15.428875,-9.790535,1.811085,-10.071198,-93.083954,-11.751310
3.056250,15.428875,-9.790535,1.811085,-10.071198,-93.083954,-11.751310
3.062500,15.428875,-9.790535,1.811085,-10.071198,-93.083954,-11.751310
3.068750,15.428875,-9.790535,1.811085,-10.071198,-93.083954,-11.751310
3.075000,15.428875,-9.790535,1.811085,-10.071198,-93.083954,-11.751310
3.081250,15.428875,-9.790535,1.811085,-10.071198,-93.083954,-11.751310
3.087500,15.428875,-9.790535,1.811085,-10.071198,-93.083954,-11.751310
3.093750,15.428875,-9.649813,1.811085,-10.170765,-93.083954,-12.157327
3.100000,14.792377,-9.521699,1.829933,-10.270760,-94.893433,-12.547239
3.106250,14.141809,-9.404916,1.220918,-10.370723,-95.178841,-12.915990
3.112500,13.487439,-9.298097,-0.179809,-10.470173,-93.593620,-13.258524
3.118750,12.834117,-9.200090,-0.324289,-10.568823,-89.887291,-13.569764
3.125000,12.184295,-9.110110,-0.647827,-10.666354,-83.920204,-13.845183
3.131250,11.537528,-9.027719,-2.573300,-10.762489,-75.668541,-14.081099
3.137500,10.893932,-8.952849,-4.020875,-10.857170,-65.225372,-14.274607
3.143750,10.254824,-8.885372,-5.098324,-10.950159,-52.794193,-14.423828
3.150000,9.623218,-8.824940,-5.930615,-11.040992,-38.680840,-14.527565
3.156250,9.003887,-8.770767,-6.652971,-11.129314,-23.276630,-14.585609
3.162500,8.400967,-8.722028,-7.404431,-11.214887,-7.039214,-14.598856
3.168750,7.816078,-8.678058,-8.318910,-11.297070,9.534624,-14.568850
3.175000,7.248803,-8.638346,-9.520357,-11.375231,25.932350,-14.497684
3.181250,6.699121,-8.602704,-11.117239,-11.449230,41.652546,-14.388403
3.187500,6.166196,-8.570775,-11.029704,-11.518676,56.230232,-14.245010
3.193750,5.651268,-8.542294,-10.678372,-11.583223,69.262794,-14.071785
3.200000,5.155680,-8.516663,-11.495604,-11.642307,80.431259,-13.872990
3.206250,4.680668,-8.493330,-11.434452,-11.695832,89.511017,-13.653481
3.212500,4.225511,-8.471837,-10.658672,-11.743844,96.386696,-13.417927
3.218750,3.789124,-8.451940,-9.366266,-11.786366,101.059715,-13.170601
3.225000,3.369210,-8.433505,-7.779540,-11.823403,103.649651,-12.915152
3.231250,2.964533,-8.416503,-6.135912,-11.854846,104.386696,-12.654604
3.237500,2.574046,-8.400888,-4.674382,-11.880662,103.602127,-12.391672
3.243750,2.197596,-8.386434,-3.624383,-11.900795,101.711372,-12.128977
3.250000,1.835952,-8.372865,-1.028985,-11.915397,99.192886,-11.868885
3.256250,1.489904,-8.359628,1.572201,-11.924134,96.565918,-11.613293
3.262500,1.157287,-8.346475,2.640085,-11.926606,92.194290,-11.363721
3.268750,0.835133,-8.333396,4.133178,-11.922462,87.955254,-11.120977
3.275000,0.519970,-8.320747,5.820045,-11.911653,83.831306,-10.886164
3.281250,0.210099,-8.308889,7.459842,-11.894076,79.805939,-10.659808
3.287500,-0.093830,-8.297791,8.816466,-11.869287,75.866280,-10.442241
3.293750,-0.389249,-8.287308,9.668614,-11.837252,71.999908,-10.233553
3.300000,-0.674020,-8.276767,9.816795,-11.798019,68.192970,-10.034081
3.306250,-0.947348,-8.265521,9.097501,-11.751866,64.434692,-9.844213
3.312500,-1.210194,-8.253004,9.558923,-11.698861,60.716640,-9.663912
3.318750,-1.467160,-8.239232,9.769047,-11.639058,57.031319,-9.493187
3.325000,-1.724259,-8.224795,8.303969,-11.572762,53.370335,-9.332008
3.331250,-1.987024,-8.210669,7.244590,-11.500410,49.725811,-9.180552
3.337500,-2.256522,-8.197576,6.483307,-11.422041,46.092567,-9.038854
3.343750,-2.529942,-8.185815,5.897335,-11.337478,42.467567,-8.906538
3.350000,-2.802305,-8.175162,5.352169,-11.246759,38.845039,-8.783560
3.356250,-3.069231,-8.164975,4.709012,-11.150068,35.221085,-8.670148
3.362500,-3.328544,-8.154299,3.832995,-11.046982,31.592690,-8.566150
3.368750,-3.582275,-8.142804,2.602362,-10.937235,27.958675,-8.471340
3.375000,-3.836312,-8.130828,0.908178,-10.820744,24.315491,-8.385863
3.381250,-4.098129,-8.119593,0.830371,-10.697755,20.658186,-8.310206
3.387500,-4.370439,-8.110077,0.946711,-10.568132,16.984787,-8.244229
3.393750,-4.649658,-8.102580,-0.175280,-10.431763,13.294873,-8.187830
3.400000,-4.930124,-8.096824,-0.488296,-10.288908,9.585449,-8.140987
3.406250,-5.205132,-8.092036,-0.157007,-10.139775,5.853703,-8.103729
3.412500,-5.471739,-8.087168,0.620481,-9.984667,2.098597,-8.076087
3.418750,-5.729578,-8.081373,1.622417,-9.823912,-1.680545,-8.057879
3.425000,-5.983342,-8.074373,2.610498,-9.657865,-5.483479,-8.049100
3.431250,-6.241671,-8.066923,3.346325,-9.486896,-9.310373,-8.049782
3.437500,-6.512748,-8.060685,3.599627,-9.311396,-13.159609,-8.059924
3.443750,-6.798448,-8.056883,5.330266,-9.131775,-17.029743,-8.079560
3.450000,-7.093505,-8.055976,6.998739,-8.948493,-20.920042,-8.108842
3.456250,-7.389299,-8.057592,7.066015,-8.761864,-24.827974,-8.147777
3.462500,-7.677630,-8.060855,7.492402,-8.572092,-28.751854,-8.196392
3.468750,-7.955255,-8.064750,8.048866,-8.379714,-32.691055,-8.254554
3.475000,-8.223674,-8.068685,8.495523,-8.185221,-36.645035,-8.322301
3.481250,-8.487971,-8.072846,8.596945,-7.989056,-40.611023,-8.399415
3.487500,-8.755408,-8.078207,8.131488,-7.791746,-44.586628,-8.485427
3.493750,-9.031530,-8.086183,6.901970,-7.594070,-48.570816,-8.580193
3.500000,-9.315314,-8.097759,4.745183,-7.396938,-52.561295,-8.683435
3.506250,-9.600518,-8.113035,3.711249,-7.201157,-56.555550,-8.794600
3.512500,-9.877515,-8.131142,2.369262,-7.007268,-60.549236,-8.912946
3.518750,-10.139128,-8.151059,1.194088,-6.816325,-64.540123,-9.037904
3.525000,-10.383439,-8.171686,-1.246024,-6.629235,-68.526260,-9.168938
3.531250,-10.612959,-8.192525,-2.900233,-6.446805,-72.503326,-9.305196
3.537500,-10.833942,-8.213939,-3.927797,-6.269603,-76.467201,-9.445545
3.543750,-11.053027,-8.237118,-4.522871,-6.098540,-80.415039,-9.589455
3.550000,-11.272429,-8.263253,-4.905444,-5.934738,-84.344154,-9.736420
3.556250,-11.488061,-8.292806,-5.305734,-5.778720,-88.249809,-9.885514
3.562500,-11.689632,-8.325264,-5.954939,-5.630848,-92.125900,-10.035676
3.568750,-11.868247,-8.359529,-7.075473,-5.491788,-95.969650,-10.186443
3.575000,-12.018329,-8.394531,-6.702060,-5.362523,-99.779915,-10.337399
3.581250,-12.137622,-8.429155,-6.364662,-5.243453,-103.553574,-10.487777
3.587500,-12.228811,-8.462674,-5.696243,-5.134537,-107.286484,-10.636445
3.593750,-12.296370,-8.495152,-6.243598,-5.035979,-110.977440,-10.782499
3.600000,-12.345853,-8.527103,-6.075057,-4.948219,-114.626045,-10.925271
3.606250,-12.380186,-8.559123,-5.462049,-4.871520,-118.231934,-11.063973
3.612500,-12.396521,-8.591213,-4.696764,-4.805548,-121.790771,-11.197483
3.618750,-12.389868,-8.622458,-4.079396,-4.750051,-125.299599,-11.324652
3.625000,-12.356001,-8.651797,-3.905278,-4.705040,-128.758362,-11.444951
3.631250,-12.294072,-8.678203,-4.447126,-4.670327,-132.167160,-11.557648
3.637500,-12.208121,-8.700998,-3.770670,-4.645293,-135.523468,-11.661915
3.643750,-12.104253,-8.719853,-3.424032,-4.629267,-136.931870,-11.756876
3.650000,-11.989306,-8.735249,-3.044674,-4.621814,-138.014786,-11.842120
3.656250,-11.869781,-8.747686,-2.270257,-4.622476,-138.240585,-11.917114
3.662500,-11.748465,-8.757758,-2.651097,-4.630615,-137.118591,-11.981292
3.668750,-11.624783,-8.765553,-2.255885,-4.645649,-134.221985,-12.034310
3.675000,-11.496727,-8.770676,-1.359069,-4.667183,-129.211456,-12.075861
3.681250,-11.362755,-8.772642,-0.258722,-4.694709,-121.852264,-12.105908
3.687500,-11.224357,-8.771096,0.740665,-4.727528,-112.024445,-12.124471
3.693750,-11.085279,-8.765979,1.341195,-4.765097,-99.729301,-12.131453
3.700000,-10.950550,-8.757683,1.267014,-4.806825,-85.090576,-12.126915
3.706250,-10.825705,-8.746827,2.445065,-4.852355,-68.348358,-12.110844
3.712500,-10.713929,-8.734177,3.321683,-4.901179,-49.846279,-12.083350
3.718750,-10.615102,-8.720262,4.254883,-4.952961,-30.014044,-12.044553
3.725000,-10.527569,-8.705161,3.709562,-5.007231,-9.345649,-11.994301
3.731250,-10.449209,-8.688665,3.647698,-5.063422,11.624444,-11.932535
3.737500,-10.379386,-8.670663,3.840752,-5.121256,32.347797,-11.859417
3.743750,-10.319432,-8.651135,4.049290,-5.180652,52.288261,-11.775364
3.750000,-10.272188,-8.630453,4.037521,-5.241307,70.952621,-11.680466
3.756250,-10.240233,-8.608948,3.583845,-5.302618,87.911537,-11.574770
3.762500,-10.225493,-8.587370,2.489696,-5.364213,102.820724,-11.458556
3.768750,-10.227593,-8.566270,0.590306,-5.426149,115.436996,-11.332404
3.775000,-10.244963,-8.545768,-0.067800,-5.488324,125.633324,-11.196774
3.781250,-10.274426,-8.525937,-0.917696,-5.550455,133.404770,-11.052066
3.787500,-10.313514,-8.506552,-1.485564,-5.612117,138.868912,-10.898511
3.793750,-10.362048,-8.487634,-3.205500,-5.673357,142.256348,-10.736772
3.800000,-10.420870,-8.469551,-4.030925,-5.734248,143.901077,-10.567768
3.806250,-10.491409,-8.452833,-4.124645,-5.794705,144.224487,-10.392042
3.812500,-10.573665,-8.438030,-3.682847,-5.854629,143.716537,-10.210343
3.818750,-10.665206,-8.425407,-2.928545,-5.914062,142.903687,-10.023554
3.825000,-10.762247,-8.415088,-2.097871,-5.973175,140.159531,-9.832599
3.831250,-10.861004,-8.406796,-1.428189,-6.031971,137.374725,-9.638403
3.837500,-10.957479,-8.400052,-1.148229,-6.090517,134.545410,-9.441895
3.843750,-11.050633,-8.394481,0.703410,-6.148967,131.668015,-9.244061
3.850000,-11.142118,-8.390165,2.590441,-6.207395,128.739914,-9.045837
3.856250,-11.235071,-8.387847,2.976936,-6.265554,125.759163,-8.848103
3.862500,-11.330790,-8.388275,3.825217,-6.323381,122.723740,-8.651801
3.868750,-11.426094,-8.391903,4.907529,-6.380866,119.632286,-8.457942
3.875000,-11.514522,-8.398626,5.987057,-6.437823,116.483139,-8.267486
3.881250,-11.588762,-8.407663,6.829625,-6.493928,113.276360,-8.081259
3.887500,-11.641624,-8.417943,7.214106,-6.548987,110.011024,-7.900269
3.893750,-11.669377,-8.428220,6.943259,-6.602864,106.686317,-7.725518
3.900000,-11.673355,-8.437812,5.856002,-6.655309,103.302902,-7.557785
3.906250,-11.659244,-8.446836,6.001414,-6.705936,99.862885,-7.397583
3.912500,-11.632356,-8.456040,5.945392,-6.754654,96.367661,-7.245681
3.918750,-11.593502,-8.465896,4.264741,-6.801605,92.817635,-7.102874
3.925000,-11.538851,-8.476293,3.042033,-6.846659,89.215782,-6.969706
3.931250,-11.461554,-8.486342,2.171300,-6.889607,85.566109,-6.846557
3.937500,-11.355366,-8.494669,1.528098,-6.930474,81.871719,-6.733872
3.943750,-11.217197,-8.499415,0.977329,-6.969409,78.134666,-6.632233
3.950000,-11.049542,-8.499170,0.382056,-7.006556,74.358673,-6.542028
3.956250,-10.861967,-8.493741,-0.390548,-7.041698,70.547974,-6.463364
3.962500,-10.666297,-8.483932,-1.463925,-7.074797,66.706535,-6.396294
3.968750,-10.472587,-8.471090,-2.946412,-7.106206,62.836132,-6.341219
3.975000,-10.282866,-8.456032,-2.755977,-7.136036,58.938530,-6.298298
3.981250,-10.092130,-8.438580,-4.207551,-7.164297,55.017071,-6.267456
3.987500,-9.893515,-8.417741,-5.217128,-7.191007,51.074974,-6.248733
3.993750,-9.683326,-8.392183,-5.890358,-7.216292,47.113163,-6.242282
4.000000,-9.461500,-8.360664,-6.349078,-7.240201,43.133606,-6.248083
4.006250,-9.235241,-8.322527,-6.724752,-7.262810,39.138351,-6.266196
4.012500,-9.016583,-8.279973,-7.153410,-7.284370,35.128307,-6.296566
4.018750,-8.819206,-8.231409,-7.767260,-7.305000,31.103975,-6.339179
4.025000,-8.650812,-8.180625,-8.687701,-7.324694,27.067057,-6.393929
4.031250,-8.511198,-8.128955,-10.021718,-7.343406,23.017986,-6.460506
4.037500,-8.392362,-8.076353,-9.687612,-7.361294,18.956572,-6.538915
4.043750,-8.285361,-8.021798,-9.107474,-7.378240,14.883422,-6.628960
4.050000,-8.184885,-7.964144,-9.714312,-7.394217,10.799718,-6.730132
4.056250,-8.093475,-7.902616,-9.460402,-7.409100,6.707037,-6.842185
4.062500,-8.018778,-7.837394,-8.509743,-7.423156,2.604420,-6.964989
4.068750,-7.972615,-7.769749,-7.059903,-7.436453,-1.507521,-7.098281
4.075000,-7.964204,-7.701801,-5.330783,-7.448995,-5.627124,-7.241525
4.081250,-7.995099,-7.635151,-3.556625,-7.460820,-9.753237,-7.394299
4.087500,-8.059037,-7.570364,-1.975905,-7.472458,-13.888038,-7.556610
4.093750,-8.144513,-7.506818,-0.815404,-7.484287,-18.032583,-7.728157
4.100000,-8.242029,-7.443274,1.890029,-7.496168,-22.185328,-7.908148
4.106250,-8.347806,-7.378506,4.605854,-7.508154,-26.345907,-8.095987
4.112500,-8.464517,-7.311879,5.794129,-7.520710,-30.518160,-8.291318
4.118750,-8.599193,-7.243677,7.416060,-7.534298,-34.705902,-8.493977
4.125000,-8.762085,-7.175321,9.247408,-7.548698,-38.909416,-8.703097
4.131250,-8.960094,-7.108517,11.053759,-7.563393,-43.129604,-8.917788
4.137500,-9.191168,-7.044538,12.599715,-7.578444,-47.371792,-9.137700
4.143750,-9.447380,-6.983375,13.661960,-7.593910,-51.643078,-9.362681
4.150000,-9.718726,-6.924283,14.046350,-7.609379,-55.948051,-9.592000
4.156250,-9.999611,-6.866312,13.593984,-7.624169,-60.290203,-9.824652
4.162500,-10.290329,-6.808955,14.353349,-7.638015,-64.675064,-10.059925
4.168750,-10.594754,-6.752296,14.891085,-7.650792,-69.109680,-10.297105
4.175000,-10.918841,-6.697068,13.786731,-7.662245,-73.598717,-10.535450
4.181250,-11.267772,-6.644460,13.125402,-7.672122,-78.145393,-10.774088
4.187500,-11.642509,-6.595681,12.800656,-7.680375,-82.753227,-11.012390
4.193750,-12.038810,-6.551301,12.689311,-7.687016,-87.424942,-11.249800
4.200000,-12.447403,-6.510895,12.659311,-7.692018,-92.161827,-11.485587
4.206250,-12.860378,-6.473509,12.573620,-7.695457,-96.964333,-11.718893
4.212500,-13.273649,-6.438286,12.297715,-7.697456,-101.834114,-11.949187
4.218750,-13.687981,-6.404859,11.707345,-7.698203,-104.876076,-12.175335
4.225000,-14.106328,-6.373422,10.694545,-7.697715,-107.712105,-12.396334
4.231250,-14.532269,-6.344571,11.340553,-7.695980,-109.807312,-12.611355
4.237500,-14.966452,-6.318882,10.327566,-7.693270,-110.667870,-12.819503
4.243750,-15.406590,-6.296710,9.737895,-7.689414,-109.862091,-13.019754
4.250000,-15.846857,-6.277814,9.467658,-7.684412,-107.044891,-13.211229
4.256250,-16.281099,-6.261373,9.394412,-7.678357,-101.973778,-13.393273
4.262500,-16.706406,-6.246777,9.386903,-7.671549,-94.524239,-13.565092
4.268750,-17.122349,-6.233408,9.312571,-7.663867,-84.688889,-13.725836
4.275000,-17.531130,-6.221198,9.042984,-7.655199,-72.582581,-13.874465
4.281250,-17.935688,-6.210336,8.457013,-7.646008,-58.435780,-14.010603
4.287500,-18.338724,-6.201182,7.448690,-7.636606,-42.582886,-14.133894
4.293750,-18.740341,-6.194003,8.103281,-7.627072,-25.440729,-14.243955
4.300000,-19.139021,-6.188632,7.107110,-7.617177,-7.490524,-14.340517
4.306250,-19.531563,-6.184796,6.543805,-7.607104,10.744154,-14.423915
4.312500,-19.916468,-6.182055,6.304973,-7.596986,28.723963,-14.494803
4.318750,-20.293741,-6.180105,6.268496,-7.586575,45.925068,-14.553535
4.325000,-20.665617,-6.178991,6.303135,-7.575600,61.862816,-14.600599
4.331250,-21.033819,-6.178821,6.272205,-7.563967,76.115692,-14.636560
4.337500,-21.398914,-6.179803,6.042349,-7.551609,88.347733,-14.662025
4.343750,-21.760406,-6.182032,5.492668,-7.538196,98.327675,-14.677547
4.350000,-22.116667,-6.185266,4.517881,-7.523523,105.940086,-14.684034
4.356250,-22.465704,-6.189177,5.201060,-7.507832,111.189110,-14.682655
4.362500,-22.806114,-6.193423,4.227284,-7.491095,114.200958,-14.674686
4.368750,-23.139212,-6.197914,3.683671,-7.472968,115.218903,-14.661063
4.375000,-23.466599,-6.202664,3.465728,-7.453519,114.585808,-14.643120
4.381250,-23.790169,-6.207826,3.450193,-7.433213,112.728722,-14.622278
4.387500,-24.110657,-6.213768,3.505711,-7.412281,110.139862,-14.599765
4.393750,-24.426638,-6.220327,3.500094,-7.390551,107.353378,-14.576060
4.400000,-24.736929,-6.227289,3.302483,-7.367765,102.746490,-14.551998
4.406250,-25.040152,-6.234235,2.789727,-7.344104,98.212830,-14.528581
4.412500,-25.336864,-6.240930,1.854896,-7.319308,93.749954,-14.506357
4.418750,-25.629955,-6.247393,2.581704,-7.292681,89.359322,-14.485819
4.425000,-25.922329,-6.254018,1.652891,-7.263981,85.037453,-14.467538
4.431250,-26.216682,-6.261312,1.147047,-7.233080,80.781166,-14.452275
4.437500,-26.514288,-6.269730,0.957031,-7.199625,76.585617,-14.440409
4.443750,-26.813198,-6.279556,0.960479,-7.162959,72.449013,-14.432019
4.450000,-27.110785,-6.290634,1.023120,-7.123013,68.365540,-14.427037
4.456250,-27.403940,-6.302662,1.005101,-7.080258,64.328644,-14.425856
4.462500,-27.691483,-6.315227,0.771725,-7.034918,60.333149,-14.428314
4.468750,-27.974190,-6.328329,0.200598,-6.987317,56.377064,-14.433924
4.475000,-28.254137,-6.342243,-0.816743,-6.938230,52.454781,-14.442691
4.481250,-28.533615,-6.357511,-0.200553,-6.888696,48.562141,-14.454890
4.487500,-28.811941,-6.374638,-1.269030,-6.839755,44.694935,-14.470790
4.493750,-29.086367,-6.393701,-1.938911,-6.792257,40.849167,-14.490277
4.500000,-29.351524,-6.414408,-2.316166,-6.747179,37.020142,-14.513740
4.506250,-29.602337,-6.435967,-2.521364,-6.705296,33.204052,-14.541167
4.512500,-29.835728,-6.457506,-2.683645,-6.666847,29.396807,-14.572279
4.518750,-30.051378,-6.478462,-2.934595,-6.632160,25.594444,-14.607350
4.525000,-30.252359,-6.498544,-3.403970,-6.601680,21.791636,-14.646762
4.531250,-30.442926,-6.518018,-4.208560,-6.575531,17.984537,-14.690759
4.537500,-30.626181,-6.537412,-5.445800,-6.552936,14.173066,-14.738992
4.543750,-30.803104,-6.557053,-5.025910,-6.533461,10.355330,-14.791435
4.550000,-30.971210,-6.576788,-6.263140,-6.517365,6.525971,-14.848853
4.556250,-31.126862,-6.596172,-7.070004,-6.504303,2.682371,-14.911576
4.562500,-31.267229,-6.614384,-7.544449,-6.493330,-1.173599,-14.978974
4.568750,-31.392076,-6.630598,-7.804161,-6.483704,-5.042722,-15.050470
4.575000,-31.505655,-6.644539,-7.983385,-6.475482,-8.929384,-15.125996
4.581250,-31.613390,-6.656449,-8.219577,-6.468773,-12.836915,-15.205313
4.587500,-31.721519,-6.667019,-8.643053,-6.462916,-16.763029,-15.286889
4.593750,-31.833805,-6.677014,-9.376775,-6.457655,-20.705387,-15.369652
4.600000,-31.949841,-6.686922,-10.532601,-6.453663,-24.668179,-15.453392
4.606250,-32.066479,-6.696598,-10.030831,-6.451229,-28.650623,-15.537515
4.612500,-32.179661,-6.705503,-11.184743,-6.449905,-32.648464,-15.620715
4.618750,-32.286869,-6.712951,-11.910314,-6.449333,-36.658783,-15.701718
4.625000,-32.390110,-6.718428,-12.317204,-6.450051,-40.684860,-15.780246
4.631250,-32.492939,-6.722034,-12.528800,-6.452557,-44.730885,-15.855751
4.637500,-32.602303,-6.724442,-12.672897,-6.456411,-48.796661,-15.926950
4.643750,-32.722931,-6.726735,-12.879086,-6.461173,-52.881523,-15.992304
4.650000,-32.856403,-6.729867,-13.279490,-6.467344,-56.992241,-16.051546
4.656250,-32.999939,-6.734410,-13.995293,-6.475243,-61.132713,-16.104200
4.662500,-33.147923,-6.740374,-15.126228,-6.484433,-65.305458,-16.149426
4.668750,-33.294373,-6.747243,-14.583096,-6.494082,-69.512901,-16.186832
4.675000,-33.434105,-6.754132,-13.786569,-6.503899,-73.762848,-16.218252
4.681250,-33.566029,-6.760301,-14.172677,-6.514273,-78.062721,-16.245316
4.687500,-33.694584,-6.766276,-13.695147,-6.524880,-82.400421,-16.266438
4.693750,-33.824276,-6.772738,-12.514088,-6.534939,-86.765991,-16.281500
4.700000,-33.954746,-6.779997,-10.829021,-6.544198,-91.167412,-16.292187
4.706250,-34.081879,-6.788012,-8.865980,-6.552600,-95.605278,-16.300243
4.712500,-34.200359,-6.796322,-6.863056,-6.560022,-100.068726,-16.306702
4.718750,-34.305382,-6.803855,-5.059296,-6.566408,-104.539917,-16.312111
4.725000,-34.394142,-6.809487,-3.684425,-6.571938,-108.999458,-16.316660
4.731250,-34.467583,-6.812345,-0.777444,-6.576844,-113.427109,-16.320066
4.737500,-34.530182,-6.811884,2.124805,-6.581499,-117.804092,-16.321394
4.743750,-34.589310,-6.808250,3.486959,-6.586316,-122.114655,-16.319702
4.750000,-34.652370,-6.802016,5.271335,-6.591887,-126.347717,-16.313528
