Anritsu VNA Frequency[GHz],S21[deg],S21[dB],S11[deg],S11[dB],S22[deg],S22[dB]
1338032581.7,2012_05_26_12:43:01,+298.09,+297.93,+02.989,+297.81,+297.24,+298.19,+297.79,+298.22,243.414673,-6.630
3.006250,161.142761,-9.691655,6.919261,-4.338419,32.350880,-10.472384
3.012500,161.142761,-9.691655,6.919261,-4.338419,32.350880,-10.472384
3.018750,161.142761,-9.691655,6.919261,-4.338419,32.350880,-10.472384
3.025000,161.142761,-9.691655,6.919261,-4.338419,32.350880,-10.472384
3.031250,161.142761,-9.691655,6.919261,-4.338419,32.350880,-10.472384
3.037500,161.142761,-9.691655,6.919261,-4.338419,32.350880,-10.472384
3.043750,161.142761,-9.691655,6.919261,-4.338419,32.350880,-10.472384
3.050000,161.142761,-9.691655,6.919261,-4.338419,32.350880,-10.472384
3.056250,161.142761,-9.691655,6.919261,-4.338419,32.350880,-10.472384
3.062500,161.142761,-9.691655,6.919261,-4.338419,32.350880,-10.472384
3.068750,161.142761,-9.691655,6.919261,-4.338419,32.350880,-10.472384
3.075000,161.142761,-9.691655,6.919261,-4.338419,32.350880,-10.472384
3.081250,161.142761,-9.691655,6.919261,-4.338419,32.350880,-10.472384
3.087500,161.142761,-9.691655,6.919261,-4.338419,32.350880,-10.472384
3.093750,161.142761,-9.761012,6.919261,-4.408929,32.350880,-10.461654
3.100000,160.490616,-9.824574,6.443766,-4.477524,30.390310,-10.465194
3.106250,159.874176,-9.882489,4.789284,-4.544098,28.435194,-10.481838
3.112500,159.288605,-9.935140,4.001955,-4.608386,26.491350,-10.510323
3.118750,158.731400,-9.982480,3.918347,-4.670069,24.564604,-10.549569
3.125000,158.200729,-10.024489,4.338457,-4.729036,22.657042,-10.598629
3.131250,157.694977,-10.060816,5.038120,-4.785227,20.769573,-10.656965
3.137500,157.210983,-10.091489,5.780123,-4.838628,18.903828,-10.723741
3.143750,156.744446,-10.116642,6.325815,-4.889090,17.059507,-10.798094
3.150000,156.290100,-10.136719,6.447502,-4.936711,15.235698,-10.879449
3.156250,155.843445,-10.152386,8.104733,-4.981642,13.429800,-10.967207
3.162500,155.401703,-10.164330,9.761206,-5.024008,11.639872,-11.060688
3.168750,154.964432,-10.172968,9.882615,-5.063728,9.864774,-11.159006
3.175000,154.533493,-10.178398,10.430289,-5.100861,8.102179,-11.261413
3.181250,154.109283,-10.180760,11.174784,-5.135656,6.348945,-11.367574
3.187500,153.693100,-10.179844,11.878452,-5.168379,4.601716,-11.476993
3.193750,153.285126,-10.175503,12.306491,-5.199080,2.860476,-11.589169
3.200000,152.883621,-10.167819,12.235986,-5.227692,1.123895,-11.703480
3.206250,152.485565,-10.157065,11.470033,-5.254158,-0.609633,-11.819823
3.212500,152.089249,-10.143631,9.844591,-5.278557,-2.342792,-11.938359
3.218750,151.693848,-10.127732,9.407796,-5.300909,-4.076144,-12.058970
3.225000,151.299667,-10.109588,8.726813,-5.321000,-5.812386,-12.181621
3.231250,150.907547,-10.089260,6.379520,-5.338688,-7.552039,-12.306628
3.237500,150.517838,-10.066627,4.448215,-5.353950,-9.298964,-12.434077
3.243750,150.129684,-10.041622,2.826689,-5.366850,-11.056329,-12.564364
3.250000,149.741348,-10.014537,1.393084,-5.377383,-12.827140,-12.697808
3.256250,149.350677,-9.985825,0.015524,-5.385450,-14.615701,-12.834373
3.262500,148.956741,-9.955982,-1.441140,-5.391009,-16.424446,-12.974240
3.268750,148.558960,-9.925344,-3.109334,-5.394215,-18.258825,-13.117530
3.275000,148.159393,-9.894085,-5.112922,-5.395344,-20.123274,-13.264643
3.281250,147.760956,-9.862234,-7.557511,-5.394397,-22.019823,-13.415614
3.287500,147.365326,-9.829481,-8.361087,-5.391451,-23.951288,-13.570490
3.293750,146.975082,-9.795535,-8.945639,-5.386663,-25.918753,-13.729570
3.300000,146.589355,-9.760213,-10.746344,-5.380280,-27.926418,-13.893333
3.306250,146.207596,-9.723485,-11.715729,-5.372289,-29.974669,-14.062109
3.312500,145.827774,-9.685644,-12.016340,-5.362572,-32.063301,-14.236207
3.318750,145.448517,-9.646884,-11.846187,-5.351172,-34.193668,-14.416065
3.325000,145.069977,-9.607501,-11.429698,-5.338263,-36.368801,-14.602377
3.331250,144.693207,-9.567522,-11.003283,-5.323937,-38.589645,-14.795589
3.337500,144.321411,-9.526780,-10.803455,-5.308058,-40.856674,-14.995870
3.343750,143.955368,-9.485037,-11.059082,-5.290774,-43.170399,-15.203593
3.350000,143.596039,-9.442063,-9.810343,-5.272274,-45.531769,-15.419436
3.356250,143.243332,-9.397814,-8.594512,-5.252700,-47.942417,-15.643715
3.362500,142.895157,-9.352299,-7.053027,-5.231964,-50.401451,-15.876545
3.368750,142.550323,-9.305798,-6.742361,-5.210073,-52.909527,-16.118200
3.375000,142.207748,-9.258677,-5.738297,-5.187398,-55.467365,-16.369453
3.381250,141.869415,-9.210963,-4.321012,-5.164016,-58.077084,-16.630505
3.387500,141.537766,-9.162418,-2.792678,-5.139998,-60.736851,-16.901194
3.393750,141.214905,-9.112601,-1.463553,-5.115555,-63.447128,-17.181505
3.400000,140.903198,-9.060952,-0.637377,-5.090930,-66.210464,-17.471241
3.406250,140.601776,-9.007043,-0.594921,-5.066254,-69.027527,-17.769968
3.412500,140.308807,-8.950622,0.588450,-5.041616,-71.900146,-18.076672
3.418750,140.021042,-8.891644,1.355607,-5.017175,-74.827271,-18.390587
3.425000,139.736115,-8.830482,2.061122,-4.993287,-77.810852,-18.711105
3.431250,139.451981,-8.767259,3.060604,-4.970073,-80.850204,-19.036488
3.437500,139.169769,-8.701948,2.797522,-4.947696,-83.943298,-19.365957
3.443750,138.889847,-8.634358,3.196118,-4.926431,-87.091019,-19.697519
3.450000,138.613678,-8.564160,3.975213,-4.906728,-90.294266,-20.030251
3.456250,138.341354,-8.490997,4.831866,-4.888884,-93.554825,-20.362036
3.462500,138.071350,-8.414462,5.454764,-4.873281,-96.874298,-20.690845
3.468750,137.801422,-8.334476,5.541036,-4.860368,-100.253937,-21.014248
3.475000,137.528183,-8.251063,4.809686,-4.850647,-103.698410,-21.329660
3.481250,137.248199,-8.164399,5.184760,-4.844427,-107.204140,-21.634048
3.487500,136.958725,-8.074715,5.108585,-4.842190,-110.771606,-21.924999
3.493750,136.658600,-7.981995,4.935877,-4.844498,-114.401428,-22.199789
3.500000,136.346786,-7.886219,5.021872,-4.851831,-118.095322,-22.455187
3.506250,136.021561,-7.787131,3.810800,-4.864621,-121.853073,-22.688446
3.512500,135.681519,-7.684642,3.227521,-4.883214,-123.780144,-22.895966
3.518750,135.322342,-7.578761,2.992295,-4.908207,-125.496376,-23.075233
3.525000,134.939270,-7.469862,2.804235,-4.939892,-126.468094,-23.223345
3.531250,134.527573,-7.358377,2.356238,-4.978503,-126.199371,-23.338058
3.537500,134.082108,-7.245118,1.347032,-5.024499,-124.258713,-23.418056
3.543750,133.600937,-7.130780,-0.500967,-5.078303,-120.301048,-23.462652
3.550000,133.082443,-7.016037,-1.257190,-5.140092,-114.077385,-23.472294
3.556250,132.527008,-6.901286,-2.471605,-5.209439,-105.458656,-23.446857
3.562500,131.934479,-6.786938,-3.782927,-5.286636,-94.436745,-23.387966
3.568750,131.304947,-6.673370,-4.832188,-5.372279,-81.131950,-23.298206
3.575000,130.638687,-6.561170,-5.272256,-5.466155,-65.776382,-23.179522
3.581250,129.933670,-6.451013,-6.682587,-5.567308,-48.700333,-23.033525
3.587500,129.189606,-6.343641,-7.180872,-5.675289,-30.325243,-22.862909
3.593750,128.407242,-6.239879,-7.105033,-5.790226,-11.137821,-22.671013
3.600000,127.589134,-6.140466,-6.821599,-5.911680,8.335618,-22.461060
3.606250,126.738647,-6.045778,-6.706079,-6.038343,27.561277,-22.234911
3.612500,125.860298,-5.956113,-7.128599,-6.168978,46.013527,-21.995747
3.618750,124.957680,-5.871553,-6.270704,-6.302989,63.201942,-21.746193
3.625000,124.034279,-5.792278,-5.800219,-6.439730,78.700584,-21.489508
3.631250,123.092499,-5.718469,-5.467397,-6.577896,92.172684,-21.227262
3.637500,122.134682,-5.650353,-5.015963,-6.716128,103.385559,-20.961042
3.643750,121.163361,-5.588212,-4.199412,-6.853610,112.218987,-20.692249
3.650000,120.182114,-5.532261,-2.788655,-6.989401,118.674286,-20.422852
3.656250,119.194473,-5.482467,-2.477385,-7.122399,122.878479,-20.154247
3.662500,118.205421,-5.438792,-1.481528,-7.251544,125.068657,-19.888378
3.668750,117.219421,-5.400843,-0.218806,-7.376101,125.585815,-19.626738
3.675000,116.240189,-5.368253,0.882195,-7.495378,124.856140,-19.370680
3.681250,115.271080,-5.340703,1.404483,-7.608548,123.371437,-19.121811
3.687500,114.314285,-5.317864,3.130025,-7.714952,121.662491,-18.880501
3.693750,113.370888,-5.299476,4.361618,-7.814347,118.103355,-18.647861
3.700000,112.442009,-5.285390,5.325138,-7.906569,114.583450,-18.424185
3.706250,111.530060,-5.275289,6.263733,-7.991664,111.097496,-18.209696
3.712500,110.636253,-5.268850,7.425997,-8.069542,107.639893,-18.004341
3.718750,109.763077,-5.265619,9.054371,-8.140159,104.206940,-17.807816
3.725000,108.911667,-5.265126,9.477142,-8.203612,100.795448,-17.620255
3.731250,108.082497,-5.266911,10.507303,-8.260286,97.394760,-17.441250
3.737500,107.275146,-5.270702,11.764747,-8.310882,93.998161,-17.271408
3.743750,106.489105,-5.276284,12.865037,-8.355513,90.599739,-17.110744
3.750000,105.723419,-5.283427,13.439984,-8.394043,87.193245,-16.958992
3.756250,104.977463,-5.291941,13.147073,-8.426852,83.772430,-16.816416
3.762500,104.251503,-5.301559,13.859233,-8.454833,80.326607,-16.684353
3.768750,103.546379,-5.312022,13.985972,-8.478401,76.850204,-16.563307
3.775000,102.861282,-5.322958,13.869802,-8.497367,73.340141,-16.453785
3.781250,102.195503,-5.334150,13.867973,-8.512030,69.789253,-16.356604
3.787500,101.547638,-5.345446,12.439528,-8.522993,66.189568,-16.273129
3.793750,100.916901,-5.356791,11.542489,-8.530935,62.535069,-16.204617
3.800000,100.302338,-5.368145,10.949614,-8.535993,58.824192,-16.151672
3.806250,99.703789,-5.379345,10.422211,-8.538265,55.054863,-16.114790
3.812500,99.121277,-5.390189,9.720819,-8.538267,51.221077,-16.094547
3.818750,98.554520,-5.400428,8.618852,-8.536645,47.318310,-16.091366
3.825000,98.002663,-5.409809,6.916834,-8.533685,43.341949,-16.105370
3.831250,97.464066,-5.418300,4.449467,-8.529898,39.288357,-16.136444
3.837500,96.935852,-5.426131,3.261985,-8.525403,35.153099,-16.184448
3.843750,96.416626,-5.433437,1.918705,-8.520405,30.930988,-16.248793
3.850000,95.905640,-5.440268,0.891135,-8.515163,26.614420,-16.328798
3.856250,95.402893,-5.446632,-1.257448,-8.509999,22.195629,-16.423779
3.862500,94.909477,-5.452254,-2.480752,-8.505133,17.664366,-16.532469
3.868750,94.424957,-5.456786,-2.941525,-8.500464,13.009491,-16.653456
3.875000,93.948334,-5.459964,-2.838413,-8.496069,8.218030,-16.785112
3.881250,93.476677,-5.461780,-2.394807,-8.492232,3.270137,-16.925714
3.887500,93.005913,-5.462488,-1.847281,-8.488755,-1.850170,-17.073055
3.893750,92.533264,-5.462491,-1.432726,-8.485510,-7.159129,-17.224009
3.900000,92.057121,-5.462108,-1.379728,-8.482544,-12.673958,-17.375919
3.906250,91.577438,-5.461404,0.271250,-8.480049,-18.412367,-17.525793
3.912500,91.095383,-5.460269,1.983106,-8.477870,-24.387121,-17.670626
3.918750,90.611671,-5.458420,2.220288,-8.475466,-30.606325,-17.806362
3.925000,90.124466,-5.455698,2.942351,-8.472921,-37.078140,-17.929569
3.931250,89.631226,-5.452337,3.917309,-8.470510,-43.807507,-18.036942
3.937500,89.127525,-5.448901,4.906732,-8.467915,-50.791935,-18.124897
3.943750,88.610565,-5.446222,5.674924,-8.464563,-58.020714,-18.189222
3.950000,88.078697,-5.445025,5.997837,-8.460305,-63.584274,-18.226587
3.956250,87.534126,-5.445850,5.672471,-8.455399,-69.086823,-18.234385
3.962500,86.980583,-5.448721,4.533890,-8.449648,-73.965416,-18.210102
3.968750,86.422241,-5.453561,4.630816,-8.442658,-77.691086,-18.151680
3.975000,85.861610,-5.460114,4.528974,-8.434165,-79.796761,-18.057634
3.981250,85.298630,-5.468324,2.803093,-8.424390,-79.900810,-17.927711
3.987500,84.732094,-5.478553,1.534671,-8.413500,-77.723076,-17.762304
3.993750,84.160973,-5.491411,0.616862,-8.401549,-73.095604,-17.562412
4.000000,83.585884,-5.507396,-0.072512,-8.388676,-65.975510,-17.329899
4.006250,83.010063,-5.526756,-0.667276,-8.375183,-56.443649,-17.067469
4.012500,82.438469,-5.549182,-1.303376,-8.361048,-44.701927,-16.778051
4.018750,81.876915,-5.574004,-2.114216,-8.346520,-31.058969,-16.465401
4.025000,81.328651,-5.600448,-3.224133,-8.332124,-15.917226,-16.133560
4.031250,80.793724,-5.628151,-4.741025,-8.317953,0.250853,-15.786857
4.037500,80.269508,-5.657065,-4.581131,-8.303705,16.925291,-15.429233
4.043750,79.751457,-5.687737,-6.061510,-8.289221,33.565628,-15.064693
4.050000,79.238396,-5.720846,-7.101143,-8.274839,49.638428,-14.697487
4.056250,78.731697,-5.756770,-7.807111,-8.260525,64.645721,-14.331114
4.062500,78.236565,-5.795388,-8.299921,-8.245786,78.156067,-13.968143
4.068750,77.759155,-5.835899,-8.710909,-8.230612,89.819031,-13.611160
4.075000,77.304169,-5.877348,-9.176981,-8.215428,99.383781,-13.263169
4.081250,76.873016,-5.918825,-9.829082,-8.200314,106.716499,-12.926054
4.087500,76.462128,-5.960150,-10.785462,-8.184869,111.806274,-12.600942
4.093750,76.065887,-6.001725,-12.150312,-8.169011,114.763145,-12.288630
4.100000,75.679916,-6.044320,-11.842995,-8.153714,115.805580,-11.990605
4.106250,75.303818,-6.088400,-11.285575,-8.139292,115.259636,-11.707420
4.112500,74.940643,-6.134088,-11.907165,-8.125321,113.544685,-11.438615
4.118750,74.596497,-6.180740,-11.658300,-8.111690,111.142403,-11.183712
4.125000,74.275566,-6.227410,-10.704756,-8.098948,108.572495,-10.943001
4.131250,73.979805,-6.273075,-9.246016,-8.087248,104.201660,-10.716593
4.137500,73.706657,-6.317286,-7.500749,-8.076128,99.919090,-10.503702
4.143750,73.449463,-6.360355,-5.702667,-8.064947,95.718620,-10.303526
4.150000,73.202499,-6.402976,-4.090768,-8.053697,91.591408,-10.115921
4.156250,72.962509,-6.445920,-2.894699,-8.042462,87.529236,-9.940844
4.162500,72.732117,-6.489578,-0.150582,-8.030773,83.525719,-9.777861
4.168750,72.516800,-6.533479,2.607153,-8.018303,79.576485,-9.626446
4.175000,72.322250,-6.576655,3.843546,-8.004932,75.676064,-9.486329
4.181250,72.151619,-6.617994,5.520388,-7.990661,71.818703,-9.357248
4.187500,72.003647,-6.656692,7.412390,-7.975320,68.000565,-9.238849
4.193750,71.872559,-6.692757,9.282186,-7.958906,64.219566,-9.130899
4.200000,71.751579,-6.726680,10.894112,-7.941710,60.471382,-9.033211
4.206250,71.634789,-6.759358,12.025352,-7.923760,56.753132,-8.945719
4.212500,71.521156,-6.791394,12.478715,-7.904972,53.062363,-8.868022
4.218750,71.413422,-6.822973,12.089261,-7.885500,49.396881,-8.800013
4.225000,71.316948,-6.853500,12.902561,-7.865501,45.753426,-8.741659
4.231250,71.235214,-6.882130,13.483565,-7.844707,42.129753,-8.692491
4.237500,71.168137,-6.908235,12.410545,-7.822975,38.524105,-8.652207
4.243750,71.112038,-6.931555,11.763865,-7.800218,34.933647,-8.620744
4.250000,71.061470,-6.952498,11.437026,-7.776511,31.355276,-8.597929
4.256250,71.011520,-6.971823,11.308680,-7.751610,27.788458,-8.583236
4.262500,70.958954,-6.990236,11.247948,-7.725324,24.232340,-8.576363
4.268750,70.906456,-7.007921,11.119389,-7.697927,20.684492,-8.577229
4.275000,70.858154,-7.024495,10.791213,-7.669909,17.142759,-8.585844
4.281250,70.818420,-7.039144,10.144036,-7.641225,13.608176,-8.601876
4.287500,70.787849,-7.051255,9.075348,-7.611962,10.081979,-8.624969
4.293750,70.764366,-7.060451,9.668118,-7.582479,6.561505,-8.655080
4.300000,70.742256,-7.066867,8.605969,-7.553208,3.045130,-8.692334
4.306250,70.717323,-7.071071,7.973630,-7.524076,-0.466622,-8.736421
4.312500,70.685616,-7.073811,7.666145,-7.495024,-3.973420,-8.787004
4.318750,70.646927,-7.075487,7.559700,-7.466101,-7.476528,-8.844142
4.325000,70.603531,-7.076062,7.520860,-7.437362,-10.978048,-8.907902
4.331250,70.558456,-7.075170,7.414439,-7.408471,-14.478310,-8.977986
4.337500,70.513000,-7.072457,7.108848,-7.379098,-17.977802,-9.054214
4.343750,70.465225,-7.067794,6.480619,-7.349236,-21.478958,-9.136664
4.350000,70.411179,-7.061662,5.424421,-7.318762,-24.983858,-9.225237
4.356250,70.347466,-7.054635,6.024565,-7.287308,-28.493809,-9.319475
4.362500,70.272682,-7.047288,4.966729,-7.254708,-32.010227,-9.419081
4.368750,70.187813,-7.040083,4.332723,-7.221325,-35.537514,-9.524165
4.375000,70.096649,-7.032842,4.017201,-7.187389,-39.078110,-9.634557
4.381250,70.002510,-7.025196,3.900827,-7.152794,-42.631618,-9.749698
4.387500,69.907661,-7.016586,3.852962,-7.117566,-46.198830,-9.869180
4.393750,69.811264,-7.006781,3.736544,-7.082130,-49.781353,-9.993093
4.400000,69.709816,-6.996007,3.418774,-7.046782,-53.381786,-10.121367
4.406250,69.599777,-6.984912,2.777920,-7.011567,-56.999447,-10.253849
4.412500,69.479698,-6.974113,1.707970,-6.976601,-60.634438,-10.390491
4.418750,69.351395,-6.963902,2.289294,-6.942133,-64.288139,-10.531592
4.425000,69.219589,-6.954091,1.205871,-6.908275,-67.961105,-10.677132
4.431250,69.088562,-6.944190,0.541842,-6.874730,-71.650665,-10.826848
4.437500,68.961006,-6.933380,0.191810,-6.841430,-75.355499,-10.980536
4.443750,68.837059,-6.921123,0.032460,-6.808630,-79.075432,-11.138194
4.450000,68.713310,-6.907306,-0.067189,-6.776509,-82.809357,-11.299721
4.456250,68.584587,-6.892299,-0.239014,-6.744898,-86.552711,-11.464473
4.462500,68.446548,-6.876780,-0.612604,-6.713817,-90.302361,-11.631696
4.468750,68.298012,-6.861238,-1.309250,-6.683662,-94.057953,-11.801044
4.475000,68.140274,-6.845724,-2.433716,-6.654727,-97.818115,-11.971711
4.481250,67.977097,-6.829796,-1.899386,-6.626914,-101.579803,-12.142441
4.487500,67.810120,-6.812862,-3.020226,-6.600280,-105.343079,-12.312088
4.493750,67.638336,-6.794347,-3.713503,-6.574864,-109.107872,-12.479603
4.500000,67.456856,-6.774364,-4.085045,-6.550544,-112.875435,-12.644032
4.506250,67.258896,-6.753727,-4.257033,-6.527284,-116.648529,-12.804557
4.512500,67.037766,-6.733639,-4.363151,-6.505166,-120.430092,-12.961031
4.518750,66.791176,-6.715548,-4.539210,-6.484115,-122.328758,-13.113706
4.525000,66.521286,-6.700276,-4.915222,-6.463746,-123.965775,-13.262335
4.531250,66.234985,-6.687970,-5.611909,-6.443742,-124.808800,-13.407149
4.537500,65.939049,-6.678432,-6.736028,-6.424401,-124.367737,-13.548731
4.543750,65.638542,-6.671403,-6.204653,-6.405996,-122.217598,-13.687614
4.550000,65.336357,-6.666666,-7.329043,-6.388184,-118.014992,-13.823943
4.556250,65.031853,-6.664402,-8.021753,-6.370758,-111.519012,-13.957877
4.562500,64.724838,-6.665119,-8.389418,-6.354269,-102.605164,-14.089736
4.568750,64.416573,-6.669523,-8.553774,-6.339043,-91.266968,-14.219748
4.575000,64.110359,-6.677875,-8.642910,-6.324702,-77.614273,-14.347158
4.581250,63.814075,-6.689817,-8.788179,-6.310875,-61.873417,-14.470844
4.587500,63.536541,-6.704206,-9.122843,-6.297716,-44.377884,-14.590447
4.593750,63.284588,-6.719636,-9.772306,-6.285285,-25.551117,-14.705317
4.600000,63.061619,-6.734643,-10.839559,-6.272801,-5.877199,-14.813863
4.606250,62.865005,-6.748168,-10.240734,-6.259614,14.116343,-14.914701
4.612500,62.689426,-6.759693,-11.296285,-6.245736,33.880203,-15.007100
4.618750,62.528442,-6.769262,-11.928206,-6.231351,52.877983,-15.090663
4.625000,62.376675,-6.777207,-12.241652,-6.215933,70.615906,-15.164754
4.631250,62.231148,-6.783642,-12.356489,-6.198843,86.666321,-15.228817
4.637500,62.092255,-6.788325,-12.408409,-6.180459,100.680695,-15.283664
4.643750,61.960846,-6.790677,-12.537185,-6.161540,112.414116,-15.330894
4.650000,61.836056,-6.789988,-12.872944,-6.141945,121.741966,-15.371163
4.656250,61.714367,-6.786065,-13.533573,-6.121693,128.665039,-15.405498
4.662500,61.587761,-6.779118,-14.626909,-6.101361,133.301544,-15.435357
4.668750,61.447899,-6.770188,-14.072995,-6.081913,135.888046,-15.461959
4.675000,61.287846,-6.760743,-13.291598,-6.063664,136.772079,-15.484888
4.681250,61.104313,-6.752245,-13.712328,-6.046705,136.389893,-15.502843
4.687500,60.900085,-6.745463,-13.288589,-6.031550,135.229218,-15.517870
4.693750,60.681332,-6.740688,-12.183271,-6.018428,133.815933,-15.531253
4.700000,60.453159,-6.737686,-10.591357,-6.007086,130.544098,-15.541499
4.706250,60.220654,-6.736282,-8.732195,-5.997215,127.321144,-15.546864
4.712500,59.985458,-6.736393,-6.841778,-5.988751,124.144615,-15.546197
4.718750,59.748409,-6.738091,-5.158063,-5.981877,121.003746,-15.539077
4.725000,59.509853,-6.741626,-3.907135,-5.976532,117.887291,-15.525657
4.731250,59.270817,-6.747290,-1.123883,-5.972646,114.781578,-15.506092
4.737500,59.035458,-6.755075,1.657185,-5.970448,111.673210,-15.481560
4.743750,58.808887,-6.764631,2.902055,-5.969967,108.547302,-15.453781
4.750000,58.597118,-6.775016,4.575718,-5.971312,105.392181,-15.424653
