Anritsu VNA Frequency[GHz],S21[deg],S21[dB],S11[deg],S11[dB],S22[deg],S22[dB]
1338032526.75,2012_05_26_12:42:06,+298.09,+297.93,+02.989,+297.81,+297.23,+298.18,+297.79,+298.22,243.412231,-6.623
3.006250,-80.067245,-5.677728,1.908547,-10.024791,31.351511,-10.423171
3.012500,-80.067245,-5.677728,1.908547,-10.024791,31.351511,-10.423171
3.018750,-80.067245,-5.677728,1.908547,-10.024791,31.351511,-10.423171
3.025000,-80.067245,-5.677728,1.908547,-10.024791,31.351511,-10.423171
3.031250,-80.067245,-5.677728,1.908547,-10.024791,31.351511,-10.423171
3.037500,-80.067245,-5.677728,1.908547,-10.024791,31.351511,-10.423171
3.043750,-80.067245,-5.677728,1.908547,-10.024791,31.351511,-10.423171
3.050000,-80.067245,-5.677728,1.908547,-10.024791,31.351511,-10.423171
3.056250,-80.067245,-5.677728,1.908547,-10.024791,31.351511,-10.423171
3.062500,-80.067245,-5.677728,1.908547,-10.024791,31.351511,-10.423171
3.068750,-80.067245,-5.677728,1.908547,-10.024791,31.351511,-10.423171
3.075000,-80.067245,-5.677728,1.908547,-10.024791,31.351511,-10.423171
3.081250,-80.067245,-5.677728,1.908547,-10.024791,31.351511,-10.423171
3.087500,-80.067245,-5.677728,1.908547,-10.024791,31.351511,-10.423171
3.093750,-80.067245,-5.771267,1.908547,-10.120983,31.351511,-10.421873
3.100000,-79.978554,-5.859273,1.907668,-10.218040,29.387447,-10.434514
3.106250,-79.858246,-5.941753,1.280129,-10.315104,27.430019,-10.459458
3.112500,-79.710205,-6.018817,-0.137858,-10.411684,25.484634,-10.495541
3.118750,-79.536911,-6.090197,-0.301539,-10.507879,23.553356,-10.542046
3.125000,-79.339836,-6.155555,-0.645430,-10.603538,21.637749,-10.598150
3.131250,-79.121460,-6.214460,-2.591460,-10.698126,19.742271,-10.662703
3.137500,-78.885803,-6.266704,-4.057778,-10.791273,17.868547,-10.734861
3.143750,-78.638084,-6.312336,-5.154836,-10.883114,16.013828,-10.814340
3.150000,-78.384796,-6.351721,-6.008838,-10.973386,14.177060,-10.900473
3.156250,-78.131569,-6.385615,-6.752872,-11.061387,12.358439,-10.992600
3.162500,-77.883003,-6.414635,-7.523750,-11.146401,10.557741,-11.089837
3.168750,-77.640549,-6.439478,-8.457227,-11.228112,8.772113,-11.191733
3.175000,-77.402336,-6.460225,-9.679244,-11.306263,6.997660,-11.297961
3.181250,-77.168121,-6.476847,-11.297801,-11.380395,5.232134,-11.407952
3.187500,-76.937698,-6.489290,-11.228469,-11.449767,3.476589,-11.521131
3.193750,-76.712479,-6.497549,-10.893436,-11.514201,1.727299,-11.637012
3.200000,-76.494835,-6.501762,-11.727868,-11.573334,-0.018280,-11.755416
3.206250,-76.286850,-6.502282,-11.684002,-11.627364,-1.761852,-11.876322
3.212500,-76.091133,-6.499418,-10.923909,-11.675981,-3.506037,-11.999505
3.218750,-75.908478,-6.493561,-9.645480,-11.719213,-5.250185,-12.124751
3.225000,-75.738548,-6.484828,-8.071407,-11.757005,-6.998200,-12.252045
3.231250,-75.580765,-6.473213,-6.439623,-11.789322,-8.752238,-12.381615
3.237500,-75.434875,-6.458729,-4.990555,-11.816337,-10.515080,-12.513671
3.243750,-75.301468,-6.441293,-3.953933,-11.838058,-12.290948,-12.648396
3.250000,-75.182350,-6.421142,-1.370346,-11.854097,-14.080758,-12.785860
3.256250,-75.079933,-6.398727,1.220669,-11.863999,-15.888238,-12.926154
3.262500,-74.995438,-6.374580,2.278073,-11.867754,-17.717999,-13.069626
3.268750,-74.929192,-6.349158,3.759084,-11.865368,-19.574736,-13.216883
3.275000,-74.879654,-6.322615,5.434593,-11.856277,-21.460016,-13.367873
3.281250,-74.844147,-6.294964,7.067595,-11.839971,-23.373976,-13.522593
3.287500,-74.820564,-6.266017,8.419642,-11.816401,-25.320581,-13.681331
3.293750,-74.808029,-6.235465,9.265795,-11.786024,-27.304684,-13.844807
3.300000,-74.806953,-6.203186,9.408803,-11.748797,-29.328564,-14.013386
3.306250,-74.819382,-6.169212,8.687860,-11.704487,-31.391716,-14.187086
3.312500,-74.847542,-6.133885,9.150289,-11.653415,-33.496655,-14.366336
3.318750,-74.893723,-6.097601,9.359514,-11.596359,-35.648136,-14.552040
3.325000,-74.958595,-6.060633,7.892728,-11.533419,-37.848248,-14.744517
3.331250,-75.040718,-6.023080,6.834356,-11.464323,-40.095768,-14.943821
3.337500,-75.138702,-5.984878,6.076536,-11.389160,-42.393787,-15.150010
3.343750,-75.251709,-5.945798,5.491625,-11.308185,-44.744282,-15.363764
3.350000,-75.379799,-5.905770,4.944468,-11.221417,-47.149921,-15.585810
3.356250,-75.523880,-5.864867,4.299448,-11.128363,-49.608971,-15.816443
3.362500,-75.686684,-5.823315,3.423671,-11.028674,-52.120037,-16.055780
3.368750,-75.870316,-5.781566,2.190840,-10.922499,-54.684216,-16.304632
3.375000,-76.075409,-5.740168,0.492694,-10.809688,-57.299534,-16.563589
3.381250,-76.301033,-5.699392,0.413276,-10.690132,-59.964603,-16.832848
3.387500,-76.545319,-5.659191,0.531238,-10.563519,-62.678776,-17.112453
3.393750,-76.805916,-5.619484,-0.588199,-10.430262,-65.443329,-17.402746
3.400000,-77.081192,-5.579971,-0.898279,-10.290632,-68.262016,-17.703911
3.406250,-77.372223,-5.540586,-0.561060,-10.144720,-71.134995,-18.015207
3.412500,-77.681053,-5.501504,0.225042,-9.992846,-74.063583,-18.335972
3.418750,-78.010223,-5.463053,1.235788,-9.835675,-77.050293,-18.665562
3.425000,-78.361847,-5.425789,2.233824,-9.673416,-80.096046,-19.002935
3.431250,-78.736954,-5.390331,2.980444,-9.506450,-83.202415,-19.346521
3.437500,-79.134392,-5.356999,3.246131,-9.335067,-86.367935,-19.695440
3.443750,-79.552307,-5.325965,4.988891,-9.159659,-89.594948,-20.047920
3.450000,-79.988235,-5.297277,6.669678,-8.980370,-92.880058,-20.402641
3.456250,-80.440338,-5.271001,6.750729,-8.797420,-96.224007,-20.757206
3.462500,-80.908241,-5.247188,7.189739,-8.611169,-99.624779,-21.109354
3.468750,-81.391808,-5.226044,7.758025,-8.422041,-103.080879,-21.456438
3.475000,-81.891663,-5.207977,8.218012,-8.230231,-106.589745,-21.795389
3.481250,-82.407852,-5.193539,8.334637,-8.036073,-110.147667,-22.123465
3.487500,-82.939308,-5.183189,7.884405,-7.840512,-113.751633,-22.437950
3.493750,-83.483566,-5.177236,6.669938,-7.644317,-117.397018,-22.736156
3.500000,-84.037109,-5.175731,4.531636,-7.447891,-121.084427,-23.014299
3.506250,-84.595871,-5.178609,3.519247,-7.252058,-122.915703,-23.269203
3.512500,-85.157433,-5.185816,2.198438,-7.057979,-124.519989,-23.497812
3.518750,-85.719864,-5.197229,1.043633,-6.866679,-125.362381,-23.697296
3.525000,-86.282265,-5.213015,-1.375000,-6.678768,-124.951553,-23.864799
3.531250,-86.843651,-5.233410,-3.006836,-6.495063,-122.860580,-23.997639
3.537500,-87.403206,-5.258657,-4.014742,-6.316756,-118.746437,-24.094318
3.543750,-87.957054,-5.289000,-4.592535,-6.144619,-112.369171,-24.153959
3.550000,-88.501427,-5.324309,-4.956087,-5.978940,-103.597893,-24.176044
3.556250,-89.031036,-5.364259,-5.336733,-5.820346,-92.427803,-24.160801
3.562500,-89.541321,-5.408431,-5.971543,-5.670163,-78.976089,-24.110037
3.568750,-90.027893,-5.456272,-7.082156,-5.528970,-63.475548,-24.025499
3.575000,-90.488426,-5.507320,-6.697066,-5.396747,-46.253880,-23.908445
3.581250,-90.920982,-5.561176,-6.345626,-5.273869,-27.731750,-23.760424
3.587500,-91.324539,-5.617501,-5.667263,-5.161179,-8.396592,-23.584606
3.593750,-91.697189,-5.675879,-6.210564,-5.059340,11.226236,-23.384100
3.600000,-92.036766,-5.735921,-6.038071,-4.968128,30.599909,-23.161528
3.606250,-92.341019,-5.796978,-5.418331,-4.887195,49.201885,-22.919661
3.612500,-92.608124,-5.858308,-4.647206,-4.816887,66.543480,-22.662619
3.618750,-92.837250,-5.919154,-4.030150,-4.757702,82.195808,-22.393599
3.625000,-93.029045,-5.978759,-3.858885,-4.709216,95.822433,-22.115557
3.631250,-93.185158,-6.036584,-4.402224,-4.670740,107.185669,-21.830065
3.637500,-93.308434,-6.092195,-3.728889,-4.642023,116.163139,-21.539944
3.643750,-93.402283,-6.145276,-3.389507,-4.622844,122.748566,-21.247446
3.650000,-93.469475,-6.195682,-3.020184,-4.612603,127.064087,-20.954769
3.656250,-93.512756,-6.243224,-2.256432,-4.610525,129.348663,-20.663570
3.662500,-93.534225,-6.287604,-2.648768,-4.616141,129.943588,-20.375904
3.668750,-93.535614,-6.328605,-2.267285,-4.629008,129.275803,-20.093496
3.675000,-93.518875,-6.365941,-1.384687,-4.648492,127.835358,-19.817333
3.681250,-93.486481,-6.399421,-0.298057,-4.673935,126.158913,-19.548824
3.687500,-93.442192,-6.429063,0.687356,-4.704757,122.620399,-19.288561
3.693750,-93.389183,-6.454888,1.272423,-4.740533,119.115555,-19.037352
3.700000,-93.330933,-6.477155,1.180498,-4.780824,115.638718,-18.795235
3.706250,-93.269516,-6.496033,2.340606,-4.825099,112.187149,-18.562277
3.712500,-93.206825,-6.511652,3.199316,-4.872742,108.759369,-18.338329
3.718750,-93.143410,-6.524080,4.115325,-4.923214,105.350433,-18.123230
3.725000,-93.081024,-6.533309,3.551143,-4.976276,101.955444,-17.917372
3.731250,-93.020905,-6.539502,3.467345,-5.031786,98.565605,-17.720577
3.737500,-92.965248,-6.542805,3.636445,-5.089344,95.176544,-17.533480
3.743750,-92.915764,-6.543433,3.823447,-5.148042,91.780815,-17.355722
3.750000,-92.874397,-6.541731,3.791616,-5.207731,88.372002,-17.187618
3.756250,-92.842178,-6.537907,3.315067,-5.268449,84.937897,-17.029982
3.762500,-92.819405,-6.532136,2.195469,-5.329980,81.471771,-16.883982
3.768750,-92.805351,-6.524458,0.271818,-5.391828,77.969398,-16.750092
3.775000,-92.800560,-6.515006,-0.406889,-5.453482,74.425621,-16.628998
3.781250,-92.805344,-6.503821,-1.275592,-5.514895,70.834198,-16.521835
3.787500,-92.821205,-6.491125,-1.864328,-5.576320,67.186386,-16.430082
3.793750,-92.847839,-6.477077,-3.606262,-5.637624,63.479836,-16.354359
3.800000,-92.884941,-6.461855,-4.450686,-5.698424,59.714180,-16.295223
3.806250,-92.932625,-6.445595,-4.561398,-5.758738,55.885872,-16.253571
3.812500,-92.990013,-6.428246,-4.137553,-5.818709,51.990437,-16.230026
3.818750,-93.056831,-6.409782,-3.402173,-5.878538,48.024853,-16.224739
3.825000,-93.133072,-6.390191,-2.590682,-5.938276,43.987228,-16.237770
3.831250,-93.219582,-6.369644,-1.940531,-5.997994,39.874256,-16.269030
3.837500,-93.317734,-6.348408,-1.679981,-6.057679,35.683060,-16.318295
3.843750,-93.428368,-6.326956,0.153076,-6.117222,31.409639,-16.384695
3.850000,-93.551186,-6.305343,2.021667,-6.176802,27.047926,-16.467497
3.856250,-93.685295,-6.283708,2.388538,-6.236475,22.590031,-16.565847
3.862500,-93.828613,-6.261907,3.217313,-6.296027,18.025148,-16.678297
3.868750,-93.980217,-6.239710,4.281674,-6.355138,13.344214,-16.803209
3.875000,-94.140228,-6.216903,5.345223,-6.413667,8.530943,-16.938717
3.881250,-94.310608,-6.193532,6.172531,-6.471537,3.567430,-17.083118
3.887500,-94.493729,-6.169860,6.542626,-6.528415,-1.563967,-17.233696
3.893750,-94.691399,-6.146300,6.260389,-6.583969,-6.881633,-17.387430
3.900000,-94.904518,-6.123128,5.163327,-6.638173,-12.405276,-17.541382
3.906250,-95.131996,-6.100418,5.297739,-6.691041,-18.151148,-17.692719
3.912500,-95.372047,-6.078001,5.231000,-6.742379,-24.134474,-17.838043
3.918750,-95.623329,-6.055564,3.543245,-6.791735,-30.364878,-17.973654
3.925000,-95.886780,-6.032970,2.315277,-6.839303,-36.851257,-18.096025
3.931250,-96.164589,-6.010362,1.437472,-6.885308,-43.597691,-18.202063
3.937500,-96.460396,-5.988236,0.786709,-6.929563,-50.602322,-18.287971
3.943750,-96.776833,-5.967374,0.231368,-6.971704,-57.854469,-18.349812
3.950000,-97.114975,-5.948484,-0.365783,-7.011805,-63.444382,-18.384411
3.956250,-97.472839,-5.931996,-1.141050,-7.050149,-68.973312,-18.389074
3.962500,-97.846245,-5.917979,-2.218184,-7.086742,-73.879196,-18.361502
3.968750,-98.230942,-5.906316,-3.701020,-7.121344,-77.630562,-18.299416
3.975000,-98.624344,-5.896705,-3.506371,-7.153909,-79.760307,-18.201675
3.981250,-99.026787,-5.889128,-4.952058,-7.184786,-79.885948,-18.067923
3.987500,-99.438965,-5.883915,-5.954525,-7.214127,-77.725670,-17.898537
3.993750,-99.861938,-5.881675,-6.618265,-7.241960,-73.112282,-17.694540
4.000000,-100.294617,-5.882905,-7.064432,-7.268407,-66.002342,-17.457916
4.006250,-100.733665,-5.887850,-7.425629,-7.293682,-56.477161,-17.191259
4.012500,-101.174446,-5.896219,-7.837020,-7.317844,-44.738262,-16.897696
4.018750,-101.611031,-5.907438,-8.430699,-7.341026,-31.094713,-16.580931
4.025000,-102.039955,-5.920670,-9.331085,-7.363636,-15.949518,-16.245146
4.031250,-102.460999,-5.935600,-10.644082,-7.385572,0.223210,-15.894547
4.037500,-102.876427,-5.952222,-10.285936,-7.406484,16.903585,-15.533317
4.043750,-103.290466,-5.971065,-9.679311,-7.426171,33.551609,-15.165521
4.050000,-103.704216,-5.992797,-10.259054,-7.444844,49.630978,-14.795319
4.056250,-104.116028,-6.017861,-9.977659,-7.462398,64.645699,-14.426176
4.062500,-104.520363,-6.046069,-8.995607,-7.478453,78.163261,-14.060768
4.068750,-104.911331,-6.076697,-7.509845,-7.492997,89.832222,-13.701802
4.075000,-105.284111,-6.108762,-5.743730,-7.506345,99.402679,-13.352049
4.081250,-105.636932,-6.141380,-3.931319,-7.518674,106.741249,-13.013509
4.087500,-105.972984,-6.174406,-2.306566,-7.529563,111.835686,-12.687109
4.093750,-106.297615,-6.208180,-1.095761,-7.539134,114.796417,-12.373945
4.100000,-106.615089,-6.243482,1.659337,-7.548221,115.841522,-12.075129
4.106250,-106.925339,-6.280817,4.421833,-7.557140,115.298965,-11.791257
4.112500,-107.225174,-6.320210,5.658167,-7.565583,113.586052,-11.521674
4.118750,-107.508194,-6.361068,7.330473,-7.573567,111.185257,-11.266106
4.125000,-107.769951,-6.402346,9.207250,-7.581581,108.615761,-11.024788
4.131250,-108.008171,-6.443090,11.048650,-7.589876,104.245277,-10.797656
4.137500,-108.225182,-6.482815,12.621592,-7.598179,99.962112,-10.584069
4.143750,-108.427444,-6.521752,13.705496,-7.605967,95.760536,-10.383099
4.150000,-108.620003,-6.560477,14.101888,-7.613431,91.631851,-10.194792
4.156250,-108.805786,-6.599825,13.646752,-7.620806,87.566895,-10.018921
4.162500,-108.982803,-6.640051,14.390634,-7.627861,83.559975,-9.855147
4.168750,-109.144920,-6.680655,14.903059,-7.634405,79.606880,-9.702891
4.175000,-109.286858,-6.720630,13.764903,-7.640651,75.701736,-9.561986
4.181250,-109.405502,-6.758814,13.061430,-7.646726,71.839462,-9.432127
4.187500,-109.502350,-6.794384,12.689489,-7.652644,68.016212,-9.313026
4.193750,-109.583115,-6.827278,12.528829,-7.658448,64.229500,-9.204329
4.200000,-109.655396,-6.858024,12.448747,-7.664441,60.475101,-9.105971
4.206250,-109.724434,-6.887415,12.315384,-7.670620,56.750729,-9.017731
4.212500,-109.792160,-6.916145,11.997455,-7.676769,53.054447,-8.939355
4.218750,-109.855789,-6.944278,11.372017,-7.682816,49.383205,-8.870687
4.225000,-109.910789,-6.971384,10.332436,-7.688731,45.734421,-8.811692
4.231250,-109.953308,-6.996581,10.961246,-7.694035,42.105587,-8.761873
4.237500,-109.983826,-7.019237,9.942114,-7.698279,38.495430,-8.721021
4.243750,-110.006165,-7.039181,9.356424,-7.701126,34.900257,-8.688930
4.250000,-110.025711,-7.056849,9.097989,-7.702334,31.318077,-8.665488
4.256250,-110.047348,-7.073005,9.045341,-7.701479,27.747759,-8.650237
4.262500,-110.073639,-7.088414,9.067148,-7.698149,24.187973,-8.642813
4.268750,-110.102783,-7.103252,9.027181,-7.692553,20.637342,-8.643115
4.275000,-110.129707,-7.117180,8.792583,-7.684989,17.092705,-8.651264
4.281250,-110.150650,-7.129460,8.243503,-7.675461,13.555510,-8.666800
4.287500,-110.164360,-7.139410,7.275054,-7.664014,10.026403,-8.689345
4.293750,-110.173134,-7.146697,7.969189,-7.651163,6.502965,-8.718986
4.300000,-110.182175,-7.151520,7.008578,-7.637365,2.983809,-8.755745
4.306250,-110.196098,-7.154400,6.477084,-7.622741,-0.530728,-8.799320
4.312500,-110.218407,-7.156046,6.268336,-7.607311,-4.040517,-8.849419
4.318750,-110.249458,-7.156917,6.258374,-7.591246,-7.546937,-8.906075
4.325000,-110.286873,-7.156965,6.313780,-7.574696,-11.051445,-8.969316
4.331250,-110.328110,-7.155858,6.298985,-7.557465,-14.555100,-9.038882
4.337500,-110.371788,-7.153163,6.082405,-7.539311,-18.057816,-9.114623
4.343750,-110.419670,-7.148881,5.541165,-7.520364,-21.562672,-9.196526
4.350000,-110.476082,-7.143417,4.570119,-7.500515,-25.071323,-9.284570
4.356250,-110.544167,-7.137410,5.254907,-7.479411,-28.585133,-9.378244
4.362500,-110.625610,-7.131429,4.280890,-7.456952,-32.105644,-9.477303
4.368750,-110.719582,-7.125992,3.731787,-7.433525,-35.636936,-9.581800
4.375000,-110.822411,-7.121000,3.502599,-7.409305,-39.181137,-9.691579
4.381250,-110.930687,-7.116096,3.475294,-7.384163,-42.737648,-9.806080
4.387500,-111.042580,-7.110843,3.519893,-7.358005,-46.307747,-9.925009
4.393750,-111.158806,-7.105112,3.500228,-7.331205,-49.893047,-10.048341
4.400000,-111.282875,-7.099338,3.284769,-7.303805,-53.495659,-10.176079
4.406250,-111.417664,-7.094281,2.752756,-7.275564,-57.114986,-10.307989
4.412500,-111.564339,-7.090746,1.798245,-7.246233,-60.750633,-10.444171
4.418750,-111.720016,-7.089246,2.502362,-7.215654,-64.404877,-10.584762
4.425000,-111.878540,-7.089656,1.548006,-7.183527,-68.077744,-10.729890
4.431250,-112.033409,-7.091514,1.017665,-7.149297,-71.767281,-10.879186
4.437500,-112.180305,-7.094057,0.803905,-7.112530,-75.471878,-11.032473
4.443750,-112.316948,-7.096690,0.781300,-7.073125,-79.191132,-11.189822
4.450000,-112.444084,-7.099190,0.815682,-7.031081,-82.924530,-11.351109
4.456250,-112.564255,-7.101710,0.770983,-6.986161,-86.667442,-11.515740
4.462500,-112.678650,-7.104466,0.513241,-6.938547,-90.416985,-11.682945
4.468750,-112.786430,-7.107465,-0.083978,-6.889087,-94.172852,-11.852479
4.475000,-112.883812,-7.110237,-1.129510,-6.838599,-97.933228,-12.023417
4.481250,-112.966469,-7.111671,-0.540916,-6.787714,-101.695816,-12.194706
4.487500,-113.031906,-7.110569,-1.635050,-6.737390,-105.459213,-12.365188
4.493750,-113.082497,-7.105766,-2.330513,-6.688542,-109.223969,-12.533802
4.500000,-113.123672,-7.096678,-2.733323,-6.641962,-112.992241,-12.699538
4.506250,-113.164932,-7.083620,-2.964545,-6.598470,-116.764954,-12.861609
4.512500,-113.215523,-7.067289,-3.154922,-6.558712,-120.545685,-13.019933
4.518750,-113.281776,-7.048720,-3.436544,-6.523144,-122.442398,-13.174520
4.525000,-113.365929,-7.028440,-3.935341,-6.491530,-124.076584,-13.325364
4.531250,-113.467171,-7.006700,-4.767491,-6.463851,-124.916100,-13.472320
4.537500,-113.584755,-6.983493,-6.036350,-6.440437,-124.469933,-13.616008
4.543750,-113.719025,-6.958898,-5.653387,-6.421297,-122.313309,-13.757030
4.550000,-113.872002,-6.933060,-6.925536,-6.405530,-118.102989,-13.895393
4.556250,-114.048950,-6.906766,-7.761872,-6.392450,-111.598747,-14.031081
4.562500,-114.254990,-6.881330,-8.267844,-6.382061,-102.675339,-14.164735
4.568750,-114.493256,-6.858383,-8.564424,-6.374238,-91.326469,-14.296266
4.575000,-114.762886,-6.839305,-8.780087,-6.368245,-77.663254,-14.424988
4.581250,-115.056847,-6.824763,-9.047934,-6.363607,-61.911148,-14.549904
4.587500,-115.366203,-6.814638,-9.503675,-6.360461,-44.404808,-14.670762
4.593750,-115.681488,-6.808354,-10.273427,-6.359002,-25.568546,-14.786737
4.600000,-115.996262,-6.805116,-11.462260,-6.358729,-5.885968,-14.896395
4.606250,-116.308723,-6.804600,-10.987200,-6.359372,14.114368,-14.998331
4.612500,-116.618530,-6.806626,-12.168042,-6.361176,33.883682,-15.091891
4.618750,-116.926720,-6.811496,-12.925317,-6.364599,52.884949,-15.176777
4.625000,-117.232201,-6.819490,-13.362760,-6.369388,70.624115,-15.252168
4.631250,-117.531029,-6.830450,-13.598289,-6.375073,86.674370,-15.317624
4.637500,-117.817314,-6.843748,-13.764427,-6.382091,100.687538,-15.373836
4.643750,-118.084549,-6.858262,-13.997351,-6.391020,112.418037,-15.422468
4.650000,-118.328720,-6.872690,-14.423135,-6.401547,121.743660,-15.464127
4.656250,-118.550453,-6.885961,-15.156742,-6.413114,128.664215,-15.499849
4.662500,-118.754555,-6.897571,-16.302286,-6.425793,133.298447,-15.531042
4.668750,-118.948601,-6.907662,-15.777485,-6.439791,135.883820,-15.558927
4.675000,-119.139557,-6.917048,-15.001033,-6.454663,136.767746,-15.582911
4.681250,-119.332153,-6.926675,-15.402520,-6.469766,136.388504,-15.601951
4.687500,-119.525856,-6.936755,-14.937223,-6.485119,135.230789,-15.618039
4.693750,-119.716988,-6.947217,-13.770928,-6.500629,133.823227,-15.632270
4.700000,-119.903603,-6.957789,-12.100651,-6.515605,130.559235,-15.643313
4.706250,-120.085419,-6.968411,-10.149337,-6.529598,127.345100,-15.649197
4.712500,-120.262787,-6.979059,-8.156463,-6.542500,124.178429,-15.648962
4.718750,-120.436646,-6.989894,-6.362225,-6.554373,121.048126,-15.642303
